# HZ S RI R 50
1000000 -0.889405667 0.340631246
1039300 -0.881704688 0.353448539
1078600 -0.873741626 0.366903483
1118000 -0.865181982 0.379632949
1157300 -0.856213867 0.392108708
1196700 -0.847362637 0.404220014
1236000 -0.837613821 0.416191041
1275400 -0.827305078 0.427723586
1314700 -0.816660583 0.438817918
1354100 -0.80545032 0.44973275
1393400 -0.794067502 0.459502398
1432800 -0.782107055 0.469196319
1472100 -0.770128786 0.478263199
1511500 -0.757701098 0.486785858
1550800 -0.74574244 0.494346082
1590200 -0.733153879 0.501629829
1629500 -0.720610499 0.50831443
1668900 -0.708066046 0.514432549
1708200 -0.695527434 0.51975131
1747600 -0.683221638 0.525034666
1786900 -0.670909523 0.529453039
1826300 -0.658614158 0.533567726
1865600 -0.646739721 0.537031769
1905000 -0.634730517 0.540231108
1944300 -0.622941434 0.54314351
1983700 -0.611644387 0.545447289
2023000 -0.600351214 0.547557711
2062400 -0.589348793 0.549272835
2101700 -0.578585624 0.550641715
2141100 -0.568066954 0.55193299
2180400 -0.557388484 0.553028643
2219800 -0.54742527 0.553805947
2259100 -0.537568986 0.554159402
2298500 -0.527592003 0.554425001
2337800 -0.518193364 0.554538905
2377200 -0.508947968 0.554618477
2416500 -0.499936521 0.554206967
2455900 -0.491051524 0.553788006
2495200 -0.482573896 0.553458929
2534600 -0.474190592 0.552864432
2573900 -0.466000646 0.552478492
2613300 -0.45784372 0.551274418
2652600 -0.450240314 0.550429999
2692000 -0.442737162 0.549546122
2731300 -0.435199677 0.548542082
2770700 -0.428043603 0.547406256
2810000 -0.420866459 0.546286642
2849400 -0.413887053 0.545098364
2888700 -0.407321602 0.543882429
2928100 -0.400604605 0.542607247
2967400 -0.394208699 0.541257023
3006700 -0.38778156 0.539800047
3046100 -0.381826549 0.538710296
3085400 -0.375932365 0.537335395
3124800 -0.370002418 0.535777211
3164100 -0.364188343 0.534482419
3203500 -0.358591318 0.532867074
3242800 -0.353191852 0.531644344
3282200 -0.34769839 0.529978096
3321500 -0.342523515 0.528295218
3360900 -0.337445288 0.527025938
3400200 -0.332490861 0.525578498
3439600 -0.327655643 0.524155378
3478900 -0.322618454 0.522777974
3518300 -0.317859768 0.521241903
3557600 -0.313588321 0.51949805
3597000 -0.30880928 0.518073141
3636300 -0.30440548 0.51662904
3675700 -0.299881517 0.51511079
3715000 -0.295971125 0.513709545
3754400 -0.291778922 0.51228404
3793700 -0.287443339 0.510878384
3833100 -0.283472746 0.509275138
3872400 -0.279639899 0.507995665
3911800 -0.275874733 0.506393432
3951100 -0.271907746 0.505178451
3990500 -0.268197089 0.503684937
4029800 -0.26429966 0.502417802
4069200 -0.260808855 0.501021265
4108500 -0.257248282 0.499579578
4147900 -0.253856122 0.498309135
4187200 -0.250424981 0.496754854
4226600 -0.247089669 0.49540776
4265900 -0.243631735 0.494164854
4305300 -0.240171223 0.492614239
4344600 -0.237220764 0.491504669
4384000 -0.234109252 0.490163475
4423300 -0.231046453 0.488747805
4462700 -0.227765813 0.487494856
4502000 -0.224830523 0.486269533
4541400 -0.221821576 0.485137134
4580700 -0.218803167 0.483821988
4620100 -0.215941816 0.482540369
4659400 -0.213145628 0.481256574
4698800 -0.210378691 0.480099588
4738100 -0.207683622 0.479117214
4777500 -0.204778611 0.477724552
4816800 -0.202174589 0.476564913
4856200 -0.199608862 0.475449472
4895500 -0.196928068 0.474230557
4934900 -0.194324433 0.473324775
4934996 -0.194301307 0.47324416
4978396 -0.191481575 0.472153335
5021896 -0.189092606 0.471028804
5065396 -0.186072424 0.469665884
5108896 -0.183384954 0.468517988
5152396 -0.180809482 0.467255949
5195896 -0.178248703 0.466347217
5239396 -0.175537511 0.464796394
5282896 -0.172979444 0.463911056
5326396 -0.170360878 0.462818354
5369896 -0.167971402 0.461610317
5413396 -0.165540263 0.460482954
5456896 -0.163219347 0.459521532
5500396 -0.160706371 0.458403378
5543896 -0.158296242 0.457493096
5587396 -0.155966356 0.456082791
5630896 -0.153624638 0.455284327
5674396 -0.151557654 0.454297244
5717896 -0.149188324 0.453281909
5761396 -0.147006049 0.452165812
5804896 -0.144742593 0.451268821
5848396 -0.1424966 0.450193494
5891896 -0.140483111 0.449192523
5935396 -0.138492375 0.448327481
5978896 -0.136279642 0.447515308
6022396 -0.134274154 0.446556031
6065896 -0.13241218 0.445689618
6109396 -0.13029088 0.44458428
6152896 -0.12849839 0.443727463
6196396 -0.12659721 0.442920148
6239896 -0.124615162 0.442106604
6283396 -0.123015686 0.44104886
6326896 -0.121406987 0.440402477
6370396 -0.119952604 0.439632594
6413896 -0.11823637 0.43876636
6457396 -0.116682164 0.437981098
6500896 -0.115098081 0.437591463
6544396 -0.113449886 0.436838269
6587896 -0.111382171 0.436134159
6631396 -0.109023198 0.435332149
6674896 -0.106795907 0.434451729
6718396 -0.104167796 0.433534711
6761896 -0.101980321 0.432748824
6805396 -0.099651329 0.431940197
6848896 -0.097486019 0.430917024
6892396 -0.095398001 0.430040389
6935896 -0.09331309 0.42936623
6979396 -0.091356404 0.428771853
7022896 -0.089486874 0.428146958
7066396 -0.087626837 0.427395552
7109896 -0.085981391 0.426861464
7153396 -0.084504567 0.425955057
7196896 -0.083010971 0.425173014
7240396 -0.081447824 0.424458503
7283896 -0.079965837 0.42371273
7327396 -0.078726939 0.422996312
7370896 -0.07703109 0.422333985
7414396 -0.075466044 0.421608597
7457896 -0.073955707 0.420807093
7501396 -0.072526559 0.419897556
7544896 -0.071049086 0.419496953
7588396 -0.0696005 0.418640762
7631896 -0.068006798 0.418056577
7675396 -0.066609032 0.417310267
7718896 -0.065041258 0.416717261
7762396 -0.063657604 0.415983319
7805896 -0.062041826 0.415404796
7849396 -0.060596302 0.414918303
7892896 -0.059207294 0.414215087
7936396 -0.057788182 0.413501411
7979896 -0.056488856 0.4129121
8023396 -0.054784081 0.412235975
8066896 -0.053386662 0.411737591
8110396 -0.051905762 0.411019712
8153896 -0.050777252 0.410536944
8197396 -0.049261886 0.409959286
8240896 -0.047889474 0.409307479
8284396 -0.046434894 0.408635169
8327896 -0.045123457 0.408179014
8371396 -0.043704867 0.407620698
8414896 -0.042397558 0.406899005
8458396 -0.041097402 0.406290888
8501896 -0.039643533 0.405769377
8545396 -0.038415629 0.405259549
8588896 -0.037039898 0.404754549
8632396 -0.035771232 0.404212743
8675896 -0.034494705 0.403482884
8719396 -0.033326387 0.40303415
8762896 -0.031817328 0.402607113
8806396 -0.030621433 0.401904761
8849896 -0.029335569 0.401390522
8893396 -0.028055446 0.400782823
8936896 -0.026832932 0.400277465
8980396 -0.025454927 0.399713099
9023896 -0.024450767 0.39917767
9067396 -0.022893302 0.398616671
9110896 -0.021871928 0.398090869
9154396 -0.020561678 0.39760521
9197896 -0.019351305 0.397127777
9241396 -0.018122337 0.396434545
9284896 -0.016931537 0.396012157
9284932 -0.017055999 0.39599505
9333532 -0.01563953 0.395750612
9382132 -0.014336624 0.394867002
9430732 -0.013198774 0.394403755
9479432 -0.011635959 0.393720418
9528032 -0.010407557 0.393330395
9576632 -0.009202517 0.39291507
9625232 -0.007944851 0.39201492
9673932 -0.006527246 0.391688525
9722532 -0.005319159 0.391198575
9771132 -0.00412702 0.390443533
9819832 -0.002819128 0.38984248
9868432 -0.001593287 0.389589786
9917032 -0.000305504 0.388696581
9965632 0.000805134 0.38841176
10014332 0.002115346 0.387818008
10062932 0.003296682 0.387281894
10111532 0.004515908 0.386688798
10160232 0.005615418 0.386288732
10208832 0.006885962 0.385584712
10257432 0.008047665 0.385141193
10306032 0.009132198 0.384599983
10354732 0.010359316 0.384141057
10403332 0.011543461 0.383584022
10451932 0.012551126 0.383050829
10500632 0.013848578 0.382520705
10549232 0.014924115 0.382067054
10597832 0.016054138 0.381607025
10646432 0.017173225 0.380972594
10695132 0.018216969 0.380561619
10743732 0.019362028 0.380024105
10792332 0.020482338 0.379418998
10840932 0.021441545 0.378807902
10889632 0.022631628 0.378547608
10938232 0.023574704 0.378019303
10986832 0.024657422 0.377611309
11035532 0.025738628 0.376998245
11084132 0.026884324 0.376420974
11132732 0.027994463 0.376030892
11181332 0.029098886 0.375463813
11230032 0.02992984 0.374914467
11278632 0.031052574 0.374482572
11327232 0.032087422 0.374019324
11375932 0.033087156 0.373588651
11424532 0.034217096 0.373062372
11473132 0.03504832 0.372689992
11521732 0.036155611 0.372255563
11570432 0.037221003 0.371844142
11619032 0.038179319 0.371288388
11667632 0.039063934 0.370934486
11716332 0.040205087 0.370370149
11764932 0.041232332 0.36986652
11813532 0.042031116 0.369366735
11862132 0.042916957 0.36908549
11910832 0.044046908 0.368473857
11959432 0.045005824 0.368217229
12008032 0.046001348 0.367705196
12056632 0.046876139 0.367195963
12105332 0.047811709 0.366705656
12153932 0.048806957 0.366274356
12202532 0.049816273 0.3659406
12251232 0.050525546 0.365346938
12299832 0.051634397 0.36483097
12348432 0.052551418 0.364512056
12397032 0.053341742 0.364023208
12445732 0.054357185 0.363803982
12494332 0.055190663 0.363045096
12542932 0.056116148 0.362713426
12591632 0.056957568 0.362351059
12640232 0.057786591 0.362066477
12688832 0.058791931 0.36138001
12737432 0.059547401 0.361085116
12786132 0.060694567 0.360645532
12834732 0.061604212 0.360361039
12883332 0.062177848 0.359726637
12932032 0.06309732 0.359291672
12980632 0.064103245 0.358901888
13029232 0.064949616 0.358360409
13077832 0.065852068 0.358086138
13126532 0.066583707 0.357805341
13175132 0.067437067 0.35725522
13223732 0.068259395 0.356951773
13272332 0.069209493 0.356440514
13321032 0.069865509 0.356197893
13369632 0.070882998 0.355845451
13418232 0.071695841 0.35539177
13466932 0.072448864 0.355025827
13515532 0.073180541 0.354643076
13564132 0.073918096 0.354075551
13612732 0.074791416 0.353703767
13661432 0.075590409 0.353353947
13710032 0.076542548 0.352898448
13758632 0.077307924 0.35248512
13807332 0.078043386 0.352132052
13855932 0.078913509 0.351897776
13904532 0.079780042 0.351517319
13953132 0.080331474 0.351180255
14001832 0.081178121 0.350881755
14050432 0.082001857 0.350430011
14099032 0.082885116 0.349968075
14147732 0.08362326 0.349592059
14147747 0.083929911 0.349214643
14202847 0.084815904 0.348815798
14257947 0.085760563 0.348564565
14313047 0.086510844 0.348082721
14368247 0.087354846 0.347685903
14423347 0.088241443 0.347217202
14478447 0.089239373 0.346938222
14533647 0.090035535 0.346347838
14588747 0.090726695 0.345927059
14643847 0.091511756 0.34547922
14699047 0.092410154 0.345312952
14754147 0.093166425 0.344802439
14809247 0.094120718 0.344286739
14864347 0.094796866 0.344063073
14919547 0.095899343 0.34338504
14974647 0.096538186 0.34322685
15029747 0.097316749 0.342666089
15084947 0.098199523 0.34216085
15140047 0.09893126 0.341871947
15195147 0.0995972 0.341610848
15250347 0.100572109 0.341275513
15305447 0.101348742 0.340820997
15360547 0.102083913 0.340434134
15415647 0.102884657 0.339768677
15470847 0.103696011 0.339600682
15525947 0.104436792 0.339197933
15581047 0.105115488 0.338812321
15636247 0.106065861 0.338417977
15691347 0.106676131 0.337885141
15746447 0.107364259 0.337591588
15801647 0.108113363 0.337283521
15856747 0.10911595 0.336874783
15911847 0.109752781 0.336438894
15966947 0.110530428 0.336236804
16022147 0.111182339 0.335701137
16077247 0.112013205 0.335348844
16132347 0.112752497 0.334917247
16187547 0.113423317 0.334629893
16242647 0.114167377 0.33430776
16297747 0.114933848 0.33372268
16352947 0.115697488 0.333600997
16408047 0.116256609 0.333025962
16463147 0.117093943 0.332732319
16518247 0.117799274 0.332265168
16573447 0.118343025 0.331970721
16628547 0.119067892 0.331525951
16683647 0.119865998 0.331132918
16738847 0.12048874 0.330897897
16793947 0.121214509 0.33033961
16849047 0.12202496 0.329983055
16904247 0.122490078 0.329701304
16959347 0.123242273 0.329246997
17014447 0.123820789 0.328853636
17069547 0.124541141 0.328615278
17124747 0.125316724 0.328110814
17179847 0.125980898 0.327991455
17234947 0.126564666 0.327447026
17290147 0.127287134 0.327200889
17345247 0.12812975 0.326685547
17400347 0.128569751 0.326375275
17455547 0.129249215 0.326237678
17510647 0.129960626 0.325747281
17565747 0.13073574 0.32554689
17620847 0.131246834 0.325003027
17676047 0.131777003 0.324844419
17731147 0.1325019 0.324309319
17786247 0.133204922 0.32406032
17841447 0.133838176 0.323744684
17896547 0.134475111 0.323231548
17951647 0.135020256 0.322939366
18006847 0.135617196 0.322641998
18061947 0.136266887 0.322265654
18117047 0.13671641 0.321878522
18172147 0.137426212 0.321602642
18227347 0.138121545 0.321281433
18282447 0.138742625 0.320941716
18337547 0.139190524 0.320555448
18392747 0.140002697 0.320307105
18447847 0.140571996 0.319799304
18502947 0.141252532 0.319693058
18558147 0.141716271 0.319104701
18613247 0.14220041 0.318983763
18668347 0.142930313 0.318661928
18723447 0.143467679 0.318264812
18778647 0.144118189 0.318001717
18833747 0.144812583 0.317663937
18888847 0.145276188 0.317255139
18944047 0.146003067 0.316877394
18999147 0.146467998 0.316521048
19054247 0.146975666 0.316237866
19109447 0.147723898 0.315941542
19164547 0.148093551 0.315754532
19219647 0.148747369 0.315257161
19274747 0.149179697 0.314937859
19329947 0.149850338 0.314720928
19385047 0.150395363 0.314300119
19440147 0.150950476 0.314048677
19495347 0.151487231 0.313781112
19550447 0.152196928 0.313312411
19605547 0.152814522 0.313207358
19660747 0.153292015 0.31273359
19660752 0.153251066 0.313021779
19724352 0.15395227 0.312415033
19787952 0.154702007 0.312269508
19851652 0.15516065 0.311716556
19915252 0.155762329 0.311277598
19978952 0.156501188 0.310989946
20042552 0.157086357 0.310652107
20106152 0.157641589 0.310352116
20169852 0.15841335 0.310028761
20233452 0.159059554 0.309604406
20297152 0.159519582 0.309116333
20360752 0.160159304 0.308755099
20424452 0.160716786 0.308421403
20488052 0.161427974 0.308126866
20551652 0.161870926 0.307809323
20615352 0.162567719 0.307430714
20678952 0.163119316 0.306944906
20742652 0.163815677 0.306711584
20806252 0.164359629 0.306544095
20869852 0.164923191 0.306017458
20933552 0.165567368 0.305853396
20997152 0.166160494 0.305367678
21060852 0.166912555 0.304856657
21124452 0.167282119 0.304638445
21188152 0.167859181 0.304330438
21251752 0.168360933 0.303893417
21315352 0.16897802 0.303637504
21379052 0.169608861 0.303317308
21442652 0.170247539 0.302928119
21506352 0.170713841 0.302674263
21569952 0.17139028 0.302301704
21633652 0.1717837 0.30196157
21697252 0.172266408 0.301746129
21760852 0.172887399 0.301380127
21824552 0.17334257 0.300936549
21888152 0.174168705 0.300711631
21951852 0.1746912 0.300276309
22015452 0.175146356 0.300010591
22079052 0.175714939 0.299650549
22142752 0.176242351 0.299577772
22206352 0.176765024 0.298920929
22270052 0.177295699 0.298621863
22333652 0.177932292 0.298362106
22397352 0.178410917 0.298052698
22460952 0.178925573 0.29781118
22524552 0.179458171 0.297497481
22588252 0.179971933 0.29718405
22651852 0.180587455 0.296832025
22715552 0.181105643 0.296547293
22779152 0.181420847 0.296151369
22842852 0.182082146 0.295906782
22906452 0.182711288 0.295603513
22970052 0.183109626 0.295419007
23033752 0.183561667 0.294995039
23097352 0.184189394 0.294668525
23161052 0.184677988 0.294267386
23224652 0.185262322 0.293891221
23288252 0.185612976 0.293816059
23351952 0.186300098 0.293448626
23415552 0.186726272 0.293090105
23479252 0.18714796 0.29291594
23542852 0.187844082 0.292632907
23606552 0.188109546 0.292354434
23670152 0.188659787 0.291972696
23733752 0.189130336 0.291845232
23797452 0.189670518 0.291443198
23861052 0.190127149 0.291063129
23924752 0.190633893 0.290747225
23988352 0.191120415 0.290504634
24051952 0.191618308 0.290184915
24115652 0.192051082 0.28992471
24179252 0.192503198 0.289590299
24242952 0.193056374 0.289510071
24306552 0.193452492 0.289135277
24370252 0.194093555 0.288801908
24433852 0.194434925 0.288538873
24497452 0.194830477 0.288199484
24561152 0.195434838 0.288011431
24624752 0.19588086 0.287649601
24688452 0.196330741 0.287322074
24752052 0.196853443 0.286993563
24815752 0.197114959 0.286720037
24879352 0.197771966 0.286599814
24942952 0.198248401 0.286265194
25006652 0.198722228 0.285909652
25070252 0.199068129 0.285592049
25133952 0.199404343 0.28532043
25197552 0.199801653 0.285132348
25261152 0.200480192 0.284836649
25324852 0.200792357 0.284586399
25388452 0.201347827 0.28433746
25452152 0.201869189 0.283997058
25515752 0.20217657 0.283603578
25579452 0.202631235 0.28338623
25643052 0.203210085 0.283155143
25706652 0.203380927 0.282890737
25770352 0.203883379 0.282570719
25833952 0.204320207 0.282344728
25897652 0.204774662 0.282003581
25961252 0.205138251 0.28164035
26024952 0.205715849 0.281483083
26025048 0.205800548 0.281630128
26100248 0.206082597 0.281215757
26175548 0.206676304 0.280811727
26250848 0.207227751 0.280623883
26326048 0.207632139 0.280225127
26401348 0.208129242 0.279929786
26476648 0.208597913 0.279753804
26551948 0.209074512 0.279209971
26627148 0.209657207 0.278951793
26702448 0.210089489 0.278772503
26777748 0.210632041 0.278398096
26853048 0.210995852 0.278048336
26928248 0.211545065 0.277710348
27003548 0.212155312 0.277499288
27078848 0.212420448 0.277064651
27154048 0.212824165 0.276770412
27229348 0.213432565 0.276471346
27304648 0.213820531 0.276195377
27379948 0.214263245 0.275853157
27455148 0.214634448 0.275468617
27530448 0.215218976 0.275244921
27605748 0.215590909 0.275011032
27681048 0.216114819 0.274742335
27756248 0.216521278 0.274326056
27831548 0.217010691 0.274009346
27906848 0.217642039 0.273687094
27982048 0.218108654 0.273491412
28057348 0.218221738 0.273207336
28132648 0.218846395 0.272816389
28207948 0.219262391 0.272589743
28283148 0.219817638 0.272313386
28358448 0.220189854 0.272016882
28433748 0.220761597 0.271602392
28509048 0.221081212 0.271344929
28584248 0.221647903 0.271152794
28659548 0.221917659 0.270846724
28734848 0.222607195 0.270493149
28810148 0.22283551 0.270253479
28885348 0.223258048 0.269869029
28960648 0.223782062 0.269480407
29035948 0.224162444 0.269357115
29111148 0.224575504 0.269117295
29186448 0.224993407 0.269019752
29261748 0.225457966 0.268495976
29337048 0.225848421 0.268427997
29412248 0.226421967 0.268100351
29487548 0.226719141 0.267721146
29562848 0.227129355 0.267423272
29638148 0.22737427 0.267228931
29713348 0.228165999 0.266723334
29788648 0.228414371 0.266645908
29863948 0.228830024 0.266289353
29939148 0.2292061 0.266119033
30014448 0.22969599 0.265823662
30089748 0.230072855 0.265520006
30165048 0.230490088 0.265211343
30240248 0.230914667 0.265039116
30315548 0.231357917 0.264752477
30390848 0.231757372 0.264518409
30466148 0.231950581 0.264282733
30541348 0.232539549 0.263873487
30616648 0.232643231 0.263559013
30691948 0.233094558 0.263322234
30767148 0.23377341 0.263089537
30842448 0.234074383 0.262847244
30917748 0.234517008 0.26260057
30993048 0.234762489 0.262200593
31068248 0.235143929 0.262013971
31143548 0.235722362 0.261778205
31218848 0.236111044 0.261361747
31294148 0.236536115 0.261056661
31369348 0.236845582 0.260984629
31444648 0.237144798 0.260775536
31519948 0.23771575 0.260382056
31595248 0.237871766 0.259964615
31670448 0.238330647 0.259911388
31745748 0.238713622 0.259626865
31821048 0.239067375 0.259335935
31896248 0.239501684 0.259132802
31971548 0.239762604 0.258772701
32046848 0.240297302 0.2584894
32122148 0.240561902 0.258428901
32197348 0.241052404 0.258150279
32272648 0.241554886 0.257866889
32347948 0.241820901 0.257594138
32423248 0.242080301 0.257187873
32498448 0.24250181 0.257109314
32573748 0.242709219 0.25678572
32649048 0.243202313 0.25647667
32724248 0.243625178 0.256088823
32799548 0.24395357 0.256045371
32874848 0.2442974 0.255663573
32950148 0.244510784 0.25550273
33025348 0.245085835 0.255283713
33100648 0.245249345 0.255094975
33175948 0.245763882 0.25469166
33251248 0.246099784 0.254567503
33326448 0.246303007 0.254309445
33401748 0.246659383 0.254021376
33477048 0.247092008 0.253684312
33552348 0.247377783 0.253617763
33552414 0.247239992 0.253514885
33644514 0.247953876 0.253295928
33736614 0.248177617 0.253080904
