# HZ S RI R 50
1000000 -0.876280844 0.338861614
1118800 -0.852337896 0.377762168
1237600 -0.823445379 0.414519578
1356500 -0.790857017 0.447291284
1475300 -0.75488907 0.474903494
1594200 -0.717702865 0.497046619
1713000 -0.680093646 0.514261543
1831900 -0.643647491 0.526824414
1950700 -0.608617842 0.535492837
2069500 -0.575721681 0.5409922
2188400 -0.544749677 0.544085025
2307200 -0.515681028 0.545364499
2426100 -0.488514631 0.544980347
2544900 -0.463580071 0.543418645
2663800 -0.440375953 0.54104954
2782600 -0.418665856 0.538001716
2901500 -0.398367822 0.534466922
3020300 -0.379751592 0.530714154
3139100 -0.362138032 0.526770114
3258000 -0.345648348 0.52252084
3376800 -0.330550909 0.518026232
3495700 -0.316164821 0.514177978
3614500 -0.302488833 0.509830296
3733400 -0.28991571 0.505569398
3852200 -0.277716517 0.501311659
3971100 -0.266259819 0.497290313
4089900 -0.255546957 0.493391633
4208700 -0.24509257 0.489182353
4327600 -0.23535794 0.485527753
4446400 -0.226209357 0.481738656
4565300 -0.217225 0.478084087
4684100 -0.20878908 0.474583059
4803000 -0.200541406 0.471216678
4921800 -0.192515566 0.468066006
5040600 -0.185108587 0.464503318
5159500 -0.177911937 0.461586385
5278300 -0.170606479 0.458637923
5397200 -0.16400747 0.455785959
5516000 -0.157491818 0.452900469
5634900 -0.151247009 0.450287133
5753700 -0.145122751 0.447529226
5872600 -0.139326825 0.445045977
5991400 -0.133539631 0.442394196
6110200 -0.128143146 0.44003719
6229100 -0.12274871 0.437874734
6347900 -0.11820729 0.435577154
6466800 -0.113937318 0.433592855
6585600 -0.109332107 0.431793779
6704500 -0.103472806 0.429735183
6823300 -0.097031638 0.427321135
6942200 -0.091120719 0.425399661
7061000 -0.08592879 0.423573464
7179800 -0.081399217 0.42165178
7298700 -0.077260434 0.419585227
7417500 -0.073311559 0.417811602
7536400 -0.069305449 0.4159002
7655200 -0.065011814 0.414137691
7774100 -0.060906052 0.412429064
7892900 -0.05697225 0.410624474
8011700 -0.052989497 0.40883997
8130600 -0.049299962 0.407353669
8249400 -0.045271635 0.405622094
8368300 -0.041814561 0.404010087
8487100 -0.038177002 0.402538597
8606000 -0.034339029 0.400997936
8724800 -0.030861169 0.399368345
8843700 -0.027302721 0.398041129
8962500 -0.023953231 0.396488279
9081300 -0.020639242 0.395029634
9200200 -0.017153151 0.393566995
9319000 -0.013949681 0.392233163
9437900 -0.010871316 0.390904784
9556700 -0.007470672 0.389486879
9675600 -0.004490669 0.387950122
9794400 -0.001409235 0.386874884
9913300 0.001689379 0.385501295
10032100 0.004601727 0.384176462
10150900 0.007477879 0.38278374
10269800 0.010397119 0.381440281
10388600 0.013322895 0.380331516
10507500 0.015900436 0.379056632
10626300 0.018812717 0.377612859
10745200 0.021508758 0.376450091
10864000 0.024105135 0.375299125
10982800 0.026772718 0.374244272
11101700 0.029256351 0.372856795
11220500 0.031805615 0.371734678
11339400 0.034418098 0.370639204
11458200 0.036980245 0.369504779
11577100 0.039269536 0.368373185
11695900 0.041710298 0.367114365
11814800 0.044116057 0.36598277
11933600 0.046446397 0.364677995
12052400 0.048777017 0.363768845
12171300 0.051208272 0.362466812
12290100 0.053304646 0.361471652
12409000 0.055564764 0.360413968
12527800 0.057840012 0.359214931
12646700 0.059894837 0.358290672
12765500 0.062203392 0.357067108
12884400 0.064158998 0.356133252
12884482 0.064197659 0.356292217
13015782 0.066447235 0.355177432
13147182 0.068830117 0.354073584
13278582 0.071184933 0.352707415
13409982 0.073365919 0.351849168
13541282 0.075557939 0.35073328
13672682 0.077776797 0.349737912
13804082 0.07994157 0.348559617
13935482 0.081978812 0.347562551
14066782 0.084074065 0.346476674
14198182 0.086089193 0.345495641
14329582 0.088328495 0.344458431
14460982 0.090396702 0.34339866
14592282 0.092453524 0.342456609
14723682 0.094246596 0.34137693
14855082 0.096207082 0.34041211
14986482 0.098183989 0.339300721
15117782 0.099976889 0.3383722
15249182 0.101862177 0.337309211
15380582 0.103971101 0.336472034
15511982 0.105627566 0.335511714
15643282 0.107528343 0.334414809
15774682 0.10928782 0.333501547
15906082 0.111110955 0.332602113
16037482 0.112748704 0.331782221
16168882 0.114625841 0.330792307
16300182 0.116275489 0.329915374
16431582 0.117940843 0.329184949
16562982 0.119592547 0.328087478
16694382 0.12128061 0.327300459
16825682 0.122910074 0.326225996
16957082 0.124568238 0.325149923
17088482 0.126068994 0.324499219
17219882 0.127868741 0.323573589
17351182 0.129149451 0.322593927
17482582 0.130743473 0.321895718
17613982 0.132506176 0.320839434
17745382 0.133970841 0.320049166
17876682 0.135507613 0.319268316
18008082 0.136881679 0.318367302
18139482 0.13838154 0.317461013
18270882 0.139774784 0.316819965
18402182 0.141164824 0.31587854
18533582 0.142733708 0.314998954
18664982 0.144172281 0.314229249
18796382 0.145393759 0.313348025
18927682 0.146920099 0.312628418
19059082 0.148362711 0.311799496
19190482 0.149552941 0.310843169
19321882 0.151088654 0.310195237
19453282 0.152120977 0.309319466
19584582 0.15367569 0.308644115
19715982 0.154952287 0.307882428
19847382 0.156354457 0.307133346
19978782 0.157678961 0.306372076
20110082 0.158765524 0.305536717
20241482 0.160096049 0.304852753
20372882 0.161262899 0.304012745
20504282 0.162491247 0.303260356
20635582 0.163869157 0.302505433
20766982 0.164962559 0.301925271
20898382 0.166263252 0.301161766
21029782 0.167334526 0.300438612
21161082 0.168496668 0.29972878
21292482 0.169661507 0.298983067
21423882 0.170994162 0.298355877
21555282 0.172002613 0.297715544
21686582 0.173216328 0.296785145
21817982 0.174301564 0.296066969
21949382 0.175421074 0.295494645
22080782 0.176441743 0.294869124
22212082 0.177560567 0.293989747
22343482 0.178616255 0.293455749
22474882 0.179875642 0.292889595
22606282 0.180874302 0.292214959
22737682 0.181796044 0.291522145
22868982 0.182878896 0.290759861
23000382 0.183958828 0.290167301
23131782 0.184968441 0.289591789
23263182 0.186139613 0.289037227
23394482 0.186996296 0.288407593
23525882 0.187905773 0.287789225
23657282 0.189216002 0.287084579
23788682 0.189936906 0.286444634
23919982 0.191041231 0.285748839
24051382 0.192061319 0.285289824
24182782 0.192877084 0.284792333
24314182 0.19375804 0.28413397
24445482 0.194770023 0.283365547
24576882 0.195858508 0.282723367
24708282 0.196724921 0.282352507
24839682 0.197586879 0.281762212
24970982 0.198689982 0.28117156
25102382 0.199408218 0.280470937
25233782 0.200303152 0.280032873
25365182 0.20114547 0.279459357
25496482 0.202035233 0.278764605
25627882 0.203084737 0.278265029
25759282 0.203811943 0.277548253
25890682 0.204714015 0.277074962
26022082 0.205661535 0.276489108
26022168 0.205642491 0.276396572
26168968 0.206755265 0.275712281
26315868 0.207611814 0.275029659
26462668 0.208673939 0.274585813
26609568 0.209496334 0.273891061
26756468 0.210323691 0.273223966
26903268 0.211134344 0.27257207
27050168 0.212169766 0.271969139
27197068 0.213152259 0.271387457
27343868 0.213966131 0.270857572
27490768 0.214928433 0.270186305
27637668 0.215829089 0.269683271
27784468 0.216692745 0.268937528
27931368 0.217502057 0.268399685
28078268 0.218286484 0.267823517
28225068 0.219438523 0.267218649
28371968 0.220192015 0.266763836
28518868 0.220998272 0.266141116
28665668 0.221882611 0.265423268
28812568 0.222604632 0.264874726
28959468 0.223487049 0.264376372
29106268 0.224278122 0.263853549
29253168 0.225155577 0.26322484
29400068 0.226040929 0.262794554
29546868 0.226662278 0.262236028
29693768 0.227530941 0.261711269
29840668 0.22847782 0.260998129
29987468 0.229127556 0.260634869
30134368 0.229802235 0.260108917
30281268 0.230782613 0.259376913
30428068 0.231506004 0.258958071
30574968 0.232236206 0.258390605
30721868 0.232990965 0.25794357
30868668 0.233708158 0.257445275
31015568 0.234419703 0.256873071
31162468 0.235188543 0.256336599
31309268 0.235944867 0.255785971
31456168 0.236785352 0.255339711
31603068 0.237377971 0.254788905
31749868 0.238211661 0.254167497
31896768 0.23866631 0.253726959
32043668 0.239509642 0.253396213
32190468 0.240199029 0.252859532
32337368 0.24093531 0.252259999
32484268 0.241678953 0.251863181
32631068 0.2422854 0.251240521
32777968 0.242875814 0.250810325
32924868 0.243720203 0.250268191
33071668 0.244403228 0.249862968
33218568 0.244959235 0.249237656
33365468 0.245698854 0.24881491
33512268 0.246428832 0.248207867
33659168 0.246989279 0.248027533
33805968 0.247681811 0.247268438
33952868 0.248255982 0.246978268
34099768 0.249047428 0.246374934
34246568 0.249477967 0.246002554
34393468 0.250347197 0.245414555
34540368 0.25080794 0.245056629
34687168 0.251415997 0.244582951
34834068 0.252063691 0.243985772
34980968 0.252671003 0.243710875
35127768 0.253055423 0.243068322
35274668 0.253763735 0.242581874
35421568 0.254423975 0.242329165
35568368 0.255044221 0.241720065
35715268 0.255605131 0.241379842
35862168 0.256171584 0.240915387
36008968 0.256702095 0.240527421
36155868 0.257362365 0.23996666
36302768 0.257992088 0.239733979
36449568 0.258548736 0.239171579
36596468 0.258972495 0.238597944
36743368 0.259605169 0.238207846
36890168 0.26014173 0.237760826
37037068 0.260478377 0.237381711
37183968 0.261203259 0.236900448
37330768 0.261849284 0.236686542
37477668 0.262500911 0.23633854
37624568 0.262675583 0.235814124
37771368 0.263418614 0.235583171
37918268 0.263940572 0.235172122
38065168 0.264539688 0.234628826
38211968 0.264926344 0.234297245
38358868 0.265549272 0.233905002
38505768 0.266083985 0.233401745
38652568 0.266663253 0.233241349
38799468 0.267146885 0.232612743
38946368 0.267602741 0.23230651
39093168 0.268123328 0.231909498
39240068 0.26871705 0.231615424
39386968 0.269103407 0.231187313
39533768 0.269711196 0.230764508
39680668 0.270112276 0.23033747
39827568 0.270630359 0.230059802
39974368 0.271071642 0.229494377
40121268 0.271569699 0.22919774
40268168 0.272081345 0.228856801
40414968 0.272716462 0.228509142
40561868 0.273307621 0.22803238
40708768 0.27346751 0.227873668
40708852 0.273253947 0.228040769
40875352 0.273890942 0.227512881
41041852 0.274329513 0.227324426
41208352 0.274786502 0.226829379
41374852 0.275654584 0.226266339
41541352 0.276072919 0.225808843
41707852 0.276516497 0.225335702
41874352 0.277042001 0.225039571
42040852 0.277650833 0.224544867
42207352 0.278172701 0.224237561
42373852 0.278696984 0.223818525
42540352 0.279104113 0.223242238
42706852 0.279764741 0.222848489
42873352 0.280100405 0.222486302
43039852 0.280638545 0.222038254
43206352 0.281066715 0.221671476
43372852 0.281758874 0.221518114
43539352 0.281908065 0.220912039
43705852 0.282772541 0.220653653
43872352 0.282879412 0.220120832
44038852 0.283306658 0.219678759
44205352 0.284085184 0.219380766
44371852 0.284419775 0.219012737
44538352 0.284847646 0.21854417
44704852 0.285317152 0.218443363
44871352 0.285895109 0.217946127
45037852 0.286172628 0.217572346
45204352 0.286689698 0.217189639
45370852 0.287082701 0.216646328
45537352 0.287581592 0.216196581
45703852 0.288108736 0.215925604
45870352 0.288490176 0.215615436
46036852 0.288682907 0.215318322
46203352 0.289184212 0.214748129
46369952 0.289739131 0.214534714
46536452 0.290202587 0.214227735
46702952 0.290637165 0.213866487
46869452 0.291022032 0.213378787
47035952 0.291606456 0.213020384
47202452 0.291977733 0.212721183
47368952 0.292211621 0.212383776
47535452 0.29283452 0.21188876
47701952 0.293170034 0.211566999
47868452 0.293684214 0.211128532
48034952 0.293991953 0.210832834
48201452 0.294441372 0.210574805
48367952 0.294772058 0.210226967
48534452 0.295240849 0.209737971
48700952 0.295626223 0.209448471
48867452 0.296164244 0.209147512
49033952 0.296478152 0.208927571
49200452 0.29681155 0.208404466
49366952 0.297145694 0.208096385
49533452 0.297755748 0.207827776
49699952 0.29810366 0.207445517
49866452 0.298710227 0.207208409
50032952 0.298846065 0.206633731
50199452 0.29942426 0.206454977
50365952 0.299912303 0.206149369
50532452 0.300263762 0.205721572
50698952 0.300774693 0.205364704
50865452 0.301106005 0.205112412
51031952 0.301425248 0.204795077
51198452 0.301799058 0.204409107
51364952 0.302236855 0.204040527
51531452 0.302525639 0.203800454
51697952 0.303022831 0.203448131
51864552 0.303461968 0.202946603
52031052 0.303746849 0.202678233
52197552 0.304081112 0.202436029
52364052 0.304433494 0.20213744
52530552 0.304629981 0.201791092
52697052 0.305021375 0.201408714
52863552 0.305486351 0.200953885
53030052 0.305705994 0.200645059
53196552 0.306068778 0.200566768
53363052 0.30616191 0.200270041
53529552 0.306899935 0.200023338
53696052 0.307115286 0.199571564
53862552 0.307384461 0.199366599
54029052 0.307599008 0.199089214
54195552 0.308057904 0.19882752
54362052 0.308387279 0.198279619
54528552 0.308661907 0.198093041
54695052 0.309137374 0.197575435
54861552 0.309270471 0.197596132
55028052 0.309553325 0.197146818
55194552 0.309985309 0.196968004
55361052 0.310396492 0.196579188
55527552 0.310605913 0.196294635
55694052 0.310802996 0.196057125
55860552 0.311276465 0.195596039
56027052 0.311364591 0.195442989
56193552 0.311927497 0.194983944
56360052 0.312299638 0.194901362
56526552 0.312580108 0.194523155
56693052 0.312867254 0.194283023
56859552 0.313360214 0.193941801
57026052 0.313533246 0.193674489
57192552 0.313819617 0.193376898
57359152 0.314272016 0.193112239
57359240 0.314331144 0.19321978
57551440 0.314718097 0.192658856
57743640 0.315069884 0.192504569
57935840 0.315424501 0.192084923
58128040 0.31589353 0.191817164
58320240 0.316200047 0.191396236
58512440 0.316641181 0.19120568
58704640 0.316959261 0.190771043
58896940 0.316896647 0.190594404
59089140 0.317528933 0.190118163
59281340 0.317910581 0.18985103
59473540 0.3182199 0.189243882
59665740 0.318377584 0.18910712
59857940 0.318749964 0.188794299
60050140 0.319286167 0.188725069
60242440 0.319524049 0.188404887
60434640 0.319773107 0.187997341
60626840 0.320123493 0.187590777
60819040 0.320347398 0.187391743
61011240 0.32073602 0.187009885
61203440 0.321269124 0.186660841
61395640 0.321438431 0.186468333
61587940 0.321888327 0.186162576
61780140 0.322211205 0.185815408
61972340 0.32237187 0.185715734
62164540 0.322612613 0.185328766
62356740 0.323152065 0.185074225
62548940 0.323396533 0.184753358
62741140 0.323834538 0.184437572
62933440 0.32393518 0.184243306
63125640 0.324410468 0.183972418
63317840 0.324774652 0.183764576
63510040 0.324961543 0.183447629
63702240 0.325329631 0.183097422
63894440 0.325619637 0.182927429
64086640 0.325873166 0.182571396
64278940 0.326035052 0.182239085
64471140 0.326361984 0.182057783
64663340 0.326583504 0.181936994
64855540 0.326817005 0.181418031
65047740 0.32712233 0.181109443
65239940 0.327372819 0.181050062
65432140 0.327525079 0.180697664
65624440 0.327884882 0.180384993
65816640 0.328251928 0.180105179
66008840 0.328433722 0.17975746
66201040 0.328597098 0.179559931
66393240 0.328852176 0.179239436
66585440 0.329138725 0.178906828
66777640 0.329501181 0.178765743
66969940 0.329801231 0.178298011
67162140 0.330057412 0.178145378
67354340 0.330176711 0.177904546
67546540 0.330475479 0.177677184
67738740 0.330955088 0.177580714
67930940 0.331266313 0.177169382
68123140 0.331481307 0.177033692
68315340 0.331828325 0.176648899
68507640 0.331895023 0.176382362
68699840 0.332390397 0.176162734
68892040 0.332462102 0.175869837
69084240 0.332857191 0.175753399
69276440 0.333138167 0.175446212
69468640 0.333396941 0.175197511
69660840 0.333731949 0.174979716
69853140 0.333892256 0.174630224
70045340 0.334296554 0.174531146
70237540 0.33435443 0.174323856
70429740 0.334571838 0.173993036
70621940 0.335045456 0.173689916
70814140 0.335184842 0.17343989
71006340 0.335356891 0.173233017
71198640 0.335645258 0.17304331
71390840 0.336026877 0.172777771
71583040 0.336249977 0.172542363
71775240 0.336459517 0.172288626
71967440 0.336689233 0.172193393
72159640 0.337028652 0.172011211
72351840 0.337164074 0.171611249
72544140 0.337264508 0.171381577
72736340 0.3376365 0.171054124
72928540 0.337752252 0.170925945
73120740 0.338047623 0.1706485
73312940 0.338350176 0.170462355
73505140 0.338422238 0.170515209
73697340 0.338739871 0.170066967
73889640 0.339076638 0.169851034
74081840 0.339292377 0.169571042
74274040 0.339282989 0.169404149
74466240 0.339878559 0.169183656
74658440 0.339735746 0.16901119
74850640 0.340192586 0.168740883
75042840 0.340314447 0.168564796
75235140 0.340522646 0.168324351
75427340 0.340723663 0.168159097
75619540 0.340959548 0.167865648
75811740 0.341040402 0.167755976
76003940 0.341335326 0.167472124
76196140 0.341551303 0.16725023
76388340 0.341845959 0.167129054
76580640 0.342002749 0.166984245
76580704 0.342018604 0.166929364
76808004 0.342480361 0.166701719
77035304 0.342690199 0.166352972
77262704 0.34280467 0.16632758
77490004 0.343161761 0.16573894
77717404 0.343429267 0.165762901
77944704 0.343560963 0.165495455
78172004 0.343823432 0.164964556
78399404 0.343963563 0.164872527
78626704 0.344418585 0.164800971
78854104 0.344566345 0.164419949
79081404 0.344712764 0.164322435
79308704 0.344924688 0.163941264
79536104 0.345203936 0.163551971
79763404 0.345440477 0.163577258
79990804 0.345714598 0.163389384
80218104 0.345992565 0.163187161
80445404 0.345931529 0.162897184
80672804 0.34647262 0.16259779
80900104 0.346612304 0.162295266
81127504 0.346766918 0.162176698
81354804 0.347106873 0.162033483
81582204 0.347180187 0.161960452
81809504 0.347473204 0.16164419
82036804 0.347646921 0.16152279
82264204 0.347950965 0.16105093
82491504 0.348204791 0.161061316
82718904 0.348206371 0.160705983
82946204 0.34866923 0.160297647
83173504 0.348659813 0.160297632
83400904 0.34877634 0.160227671
83628204 0.349245339 0.159813135
83855604 0.349332422 0.159705653
84082904 0.34949401 0.159584537
84310204 0.349907666 0.15929681
84537604 0.349898993 0.159295231
84764904 0.350188851 0.158883854
84992304 0.35032761 0.158451601
85219604 0.350395202 0.158350154
85446904 0.350753217 0.158243894
85674304 0.351014405 0.158268555
85901604 0.351136177 0.158016502
86129004 0.351404517 0.157475203
86356304 0.35143578 0.157417073
86583704 0.351797193 0.157112002
86811004 0.351828962 0.156982168
87038304 0.352181911 0.156858935
87265704 0.352293998 0.156583234
87493004 0.352345377 0.15640527
87720404 0.352674901 0.156053632
87947704 0.352772504 0.155948489
88175004 0.353075563 0.15575926
88402404 0.353066116 0.155715405
88629704 0.35334146 0.155520752
88857104 0.353484898 0.155302181
89084404 0.353521347 0.15490055
89311704 0.353864282 0.154763326
89539104 0.353936284 0.154769569
89766404 0.354210495 0.154621869
89993804 0.354463785 0.154295355
90221104 0.354627788 0.153956964
90448504 0.354917436 0.154025554
90675804 0.354850262 0.15377517
90903104 0.355008155 0.153592184
91130504 0.355236351 0.153456851
91357804 0.355516195 0.153218939
91585204 0.355633109 0.15310198
91812504 0.355722486 0.152816429
92039804 0.355961143 0.152850925
92267204 0.356268286 0.152524083
92494504 0.356390714 0.152370408
92721904 0.35639292 0.152337282
92949204 0.356750428 0.152046948
93176504 0.356871992 0.151805639
93403904 0.356969326 0.151841223
93631204 0.35710898 0.151568993
93858604 0.357307255 0.151316851
94085904 0.357595592 0.151168793
94313204 0.357916235 0.151088759
94540604 0.357750147 0.150811985
94767904 0.358002573 0.15078856
94995304 0.35809189 0.150492757
95222604 0.358234196 0.15038909
95450004 0.358582466 0.150308459
95677304 0.35855782 0.149996057
95904604 0.358915954 0.149599343
96132004 0.359031528 0.149550065
96359304 0.359159946 0.149611845
96586704 0.359227091 0.149103015
96814004 0.359219163 0.149077028
97041304 0.359414458 0.148822993
97268704 0.359886676 0.148608639
97496004 0.360145658 0.148611947
97723404 0.360021412 0.1486063
97950704 0.360147118 0.148303061
98178004 0.360619068 0.148023173
98405404 0.360652446 0.147863015
98632704 0.360935479 0.147795483
98860104 0.360859096 0.147675395
99087404 0.361157387 0.147561311
99314804 0.36118105 0.147418037
99314864 0.360953211 0.147660359
99593064 0.361111015 0.147416323
99871264 0.361635595 0.147223785
