# HZ S RI R 50
50000 -0.994900226 0.012240837
99100 -0.994289278 0.027799902
148200 -0.993680953 0.040928665
197300 -0.992464303 0.053102243
246400 -0.991074681 0.065402038
295500 -0.989932417 0.076985627
344600 -0.988380014 0.088304467
393700 -0.986838936 0.100174106
442800 -0.985334992 0.111614115
491900 -0.983507573 0.122898884
541000 -0.981568872 0.134093567
590100 -0.979786992 0.145452395
639300 -0.977360308 0.15662612
688400 -0.975224971 0.167852923
737500 -0.972674787 0.178961381
786600 -0.970175683 0.190096333
835700 -0.967485666 0.201153516
884800 -0.964587807 0.212557688
933900 -0.961633503 0.22337155
983000 -0.958570778 0.234481811
1032100 -0.955176472 0.245664387
1081200 -0.951502799 0.256503075
1130300 -0.948126554 0.267670065
1179500 -0.944413244 0.278485059
1228600 -0.940521895 0.289483755
1277700 -0.936141133 0.300450652
1326800 -0.932214498 0.311077088
1375900 -0.927538037 0.321956038
1425000 -0.92266643 0.332716375
1474100 -0.917839705 0.343633502
1523200 -0.912769198 0.354127198
1572300 -0.907356262 0.364914804
1621400 -0.901866793 0.375231832
1670500 -0.895814597 0.385655343
1719700 -0.889937281 0.395736902
1768800 -0.883815884 0.406266689
1817900 -0.877313971 0.416074037
1867000 -0.870666861 0.425924241
1916100 -0.863983988 0.435250729
1965200 -0.857002615 0.444757282
2014300 -0.84983617 0.454145699
2063400 -0.84240812 0.463082373
2112500 -0.834900438 0.471845716
2161600 -0.827588796 0.480583161
2210700 -0.819600105 0.489174365
2259900 -0.811661005 0.497239142
2309000 -0.803438842 0.505568027
2358100 -0.795520067 0.513006746
2407200 -0.78751713 0.520597219
2456300 -0.779122352 0.527825474
2505400 -0.770803272 0.534678041
2554500 -0.762874722 0.541527867
2603600 -0.754431366 0.548373401
2652700 -0.746085464 0.554673492
2701800 -0.737613558 0.560941457
2750900 -0.729271054 0.566979169
2800100 -0.720865845 0.572850227
2849200 -0.712582945 0.578451991
2898300 -0.704106986 0.583989024
2947400 -0.695783019 0.589183509
2996500 -0.687409222 0.594268739
3045600 -0.679080903 0.599298775
3094700 -0.670576095 0.604008376
3143800 -0.662747085 0.608438074
3192900 -0.654300332 0.612928211
3242000 -0.646146357 0.617416441
3291100 -0.637867748 0.621470212
3340300 -0.629967391 0.625402271
3389400 -0.621856808 0.62940663
3438500 -0.613625407 0.633070707
3487600 -0.6057868 0.636773645
3536700 -0.598006784 0.640252232
3585800 -0.589774787 0.643626153
3634900 -0.582078695 0.646892666
3684000 -0.574273407 0.65029633
3733100 -0.566397905 0.65346384
3782200 -0.558891952 0.656252801
3831300 -0.55107057 0.659114062
3880500 -0.54381299 0.661872804
3929600 -0.536112725 0.664361178
3978700 -0.52876389 0.666874349
4027800 -0.521385729 0.66956073
4076900 -0.513942837 0.672085702
4126000 -0.506562709 0.674432456
4175100 -0.499410122 0.676636278
4224200 -0.492074847 0.678739368
4273300 -0.485136061 0.680826425
4322400 -0.478189796 0.682887613
4371500 -0.471102029 0.684830129
4420700 -0.464103847 0.686911404
4469800 -0.457120537 0.688503563
4518900 -0.450486838 0.690227448
4568000 -0.443276107 0.691978096
4617100 -0.436791479 0.693814575
4666200 -0.430055439 0.69539237
4715300 -0.423454433 0.696859836
4764400 -0.416580051 0.698441267
4813500 -0.4100959 0.699804723
4862600 -0.403547435 0.701318442
4911700 -0.397091448 0.702840089
4960900 -0.390459358 0.703859627
5010409 -0.383943319 0.705148577
5059909 -0.377437114 0.706478059
5109409 -0.371009677 0.707557141
5158909 -0.364586293 0.70895332
5208409 -0.358211725 0.709911525
5257909 -0.351969927 0.711043238
5307409 -0.34572196 0.711712658
5356909 -0.339604973 0.712997376
5406409 -0.333447664 0.713945209
5455909 -0.327391475 0.714784383
5505409 -0.321054726 0.715823769
5554909 -0.314876943 0.716387391
5604509 -0.308774113 0.717394888
5654009 -0.302829593 0.717878282
5703509 -0.296797931 0.718611598
5753009 -0.290901958 0.719350695
5802509 -0.285073965 0.720176875
5852009 -0.278963983 0.720617413
5901509 -0.273208826 0.721282899
5951009 -0.267588019 0.722015798
6000509 -0.261574655 0.722423672
6050009 -0.255776584 0.722609996
6099509 -0.250423043 0.723302245
6149109 -0.244822695 0.723757088
6198609 -0.239352121 0.724233806
6248109 -0.234078183 0.724591314
6297609 -0.228704288 0.724886536
6347109 -0.223719403 0.725280165
6396609 -0.218849867 0.725484073
6446109 -0.213877394 0.726211667
6495609 -0.208873704 0.726672589
6545109 -0.203608095 0.727261424
6594609 -0.197610825 0.727694749
6644109 -0.190971195 0.727829277
6693709 -0.184365034 0.727875292
6743209 -0.177779883 0.727548122
6792709 -0.171332657 0.727360308
6842209 -0.164962425 0.727091073
6891709 -0.158926978 0.72704488
6941209 -0.152763903 0.727146685
6990709 -0.146912127 0.727283179
7040209 -0.141387894 0.72724539
7089709 -0.136052474 0.727255046
7139209 -0.130986958 0.727213203
7188709 -0.125925719 0.727173388
7238309 -0.120718039 0.726742446
7287809 -0.115843206 0.72625041
7337309 -0.110854692 0.725959718
7386809 -0.105876229 0.725799202
7436309 -0.100837051 0.725179791
7485809 -0.095875196 0.724901497
7535309 -0.090605899 0.724424362
7584809 -0.085647888 0.723796606
7634309 -0.080599687 0.723359346
7683809 -0.075425192 0.722919225
7733309 -0.070656754 0.722691059
7782909 -0.065492518 0.721880555
7832409 -0.060553971 0.721535563
7881909 -0.055455505 0.720808744
7931409 -0.05063508 0.720210254
7980909 -0.045721031 0.719704389
8030409 -0.040681894 0.719028413
8079909 -0.035861004 0.718327939
8129409 -0.03095466 0.717568516
8178909 -0.026278546 0.716841876
8228409 -0.021172311 0.716259419
8277909 -0.016529183 0.715542197
8327509 -0.011692606 0.714733481
8377009 -0.006707283 0.714111924
8426509 -0.002050246 0.713036596
8476009 0.00275616 0.712420105
8525509 0.007695874 0.711496531
8575009 0.012288034 0.710554122
8624509 0.016977049 0.709866046
8674009 0.021710403 0.708754777
8723509 0.026401316 0.707810461
8773009 0.031050328 0.706939935
8822509 0.035728674 0.70564419
8872109 0.040286224 0.704991936
8921609 0.04518878 0.703864753
8971109 0.049704145 0.702862381
9020609 0.054209534 0.701738536
9070109 0.058586131 0.700757384
9119609 0.063302241 0.69950062
9169109 0.067912958 0.698730528
9218609 0.072460286 0.697338759
9268109 0.076925374 0.696271538
9317609 0.081471338 0.695105075
9367109 0.085974082 0.693841636
9416709 0.090491406 0.692652761
9466209 0.09487091 0.691311061
9515709 0.099276401 0.69007945
9565209 0.103842116 0.688785254
9614709 0.108294829 0.687414407
9664209 0.112484507 0.686039686
9713709 0.116955675 0.684819519
9763209 0.121219448 0.683313369
9812709 0.125799536 0.682004809
9862209 0.130183875 0.680529713
9911709 0.13432008 0.679272115
9961309 0.138628676 0.677859783
10010818 0.142786636 0.676386058
10060318 0.147095844 0.674785852
10109818 0.151434123 0.673346936
10159318 0.155437663 0.67187047
10208818 0.159543633 0.670219361
10258318 0.163995251 0.668648123
10307818 0.167989507 0.66729778
10357318 0.172364369 0.665380656
10406818 0.176171258 0.664006054
10456318 0.180398225 0.662396252
10505818 0.184358477 0.660761356
10555318 0.188426658 0.659030377
10604918 0.192728385 0.657347798
10654418 0.196520879 0.655757784
10703918 0.200667038 0.653912544
10753418 0.204661831 0.652315199
10802918 0.20868276 0.650407791
10852418 0.212688609 0.64874053
10901918 0.216462969 0.64693135
10951418 0.220486491 0.645068883
11000918 0.224384441 0.643281638
11050418 0.228355616 0.64162749
11099918 0.232196509 0.639733552
11149518 0.236101254 0.637873053
11199018 0.239959999 0.63584733
11248518 0.243837758 0.633894681
11298018 0.247568055 0.632038891
11347518 0.251200109 0.630239427
11397018 0.255257487 0.62845093
11446518 0.258868426 0.626408278
11496018 0.262637972 0.624349832
11545518 0.266427725 0.622222185
11595018 0.269970476 0.620360255
11644518 0.273784577 0.618363201
11694118 0.277461588 0.616338014
11743618 0.281227707 0.614248156
11793118 0.284654915 0.612430512
11842618 0.288463979 0.610161721
11892118 0.291998714 0.607955932
11941618 0.295491814 0.606050133
11991118 0.299138754 0.603795826
12040618 0.302684962 0.601731121
12090118 0.306428968 0.599456965
12139618 0.309609174 0.597390711
12189118 0.313315182 0.595123648
12238718 0.316821277 0.592997372
12288218 0.320272654 0.590807795
12337718 0.323622882 0.58863765
12387218 0.326985478 0.586276352
12436718 0.330561071 0.584090769
12486218 0.333907425 0.581955552
12535718 0.337329387 0.579498827
12585218 0.340654522 0.577324688
12634718 0.343919098 0.575064182
12684218 0.347358375 0.572696208
12733718 0.350607246 0.570146501
12783318 0.35390681 0.568049311
12832818 0.35707876 0.56563133
12882318 0.360479235 0.563357055
12931818 0.363660752 0.560878157
12981318 0.366882681 0.558626949
13030818 0.370156854 0.556113243
13080318 0.373046249 0.553678989
13129818 0.376362144 0.551271259
13179318 0.379662036 0.548771917
13228818 0.382976949 0.54642713
13278318 0.385857403 0.543894469
13327918 0.389083921 0.541466176
13377418 0.392061054 0.538972496
13426918 0.395235747 0.536616504
13476418 0.398161977 0.534009456
13525918 0.401240557 0.53158456
13575418 0.404283881 0.529030084
13624918 0.407273769 0.526302218
13674418 0.41018325 0.523973226
13723918 0.413265317 0.521373748
13773418 0.416185766 0.518702328
13822918 0.419118225 0.516158103
13872518 0.422084987 0.513706743
13922018 0.424865633 0.511095583
13971518 0.427898168 0.508369088
14021018 0.43081668 0.50575
14070518 0.433572292 0.503058731
14120018 0.43644455 0.500404775
14169518 0.439063251 0.497757852
14219018 0.441926777 0.495135635
14268518 0.444682925 0.492467164
14318018 0.447308987 0.489773005
14367518 0.450257897 0.487082451
14417118 0.452913463 0.484236478
14466618 0.455540478 0.481703728
14516118 0.458301007 0.47885558
14565618 0.460913449 0.476220816
14615118 0.463654309 0.473416984
14664618 0.466368407 0.470695257
14714118 0.468892902 0.467934101
14763618 0.471387714 0.465003043
14813118 0.474049061 0.462373346
14862618 0.476493179 0.459605425
14912118 0.479151457 0.456600666
14961718 0.48184207 0.453882366
15011227 0.484225779 0.451000332
15060727 0.486791253 0.448101401
15110227 0.489171922 0.445395886
15159727 0.491681396 0.442232012
15209227 0.49417603 0.439552307
15258727 0.496515929 0.436675369
15308227 0.499157279 0.433941662
15357727 0.501383781 0.431094288
15407227 0.503691315 0.428173124
15456727 0.506153702 0.425311267
15506227 0.508554756 0.422293305
15555727 0.510879814 0.41929993
15605327 0.51320064 0.416478574
15654827 0.515369296 0.413431733
15704327 0.51759839 0.410458713
15753827 0.519923627 0.407550126
15803327 0.522303044 0.404693931
15852827 0.524400293 0.401643484
15902327 0.526759624 0.398694366
15951827 0.528800904 0.395570725
16001327 0.530952215 0.392728239
16050827 0.533123373 0.389809012
16100327 0.535473167 0.386678457
16149927 0.537300229 0.38361901
16199427 0.539591252 0.380612999
16248927 0.541607081 0.377691775
16298427 0.543715119 0.374680757
16347927 0.545664906 0.37165302
16397427 0.547702968 0.368554443
16446927 0.54965943 0.365663021
16496427 0.551822543 0.362303048
16545927 0.553895115 0.359384924
16595427 0.555632829 0.356238484
16644927 0.557548582 0.353350162
16694527 0.559657275 0.349996864
16744027 0.561502039 0.3470169
16793527 0.563332378 0.344050586
16843027 0.565237045 0.34079492
16892527 0.56713742 0.337875753
16942027 0.568837046 0.334640294
16991527 0.570661783 0.331549286
17041027 0.572734951 0.328410923
17090527 0.574446141 0.325282871
17140027 0.576089143 0.322151124
17189527 0.57796669 0.318770915
17239127 0.579612553 0.315930366
17288627 0.581534743 0.312518507
17338127 0.583117842 0.309446752
17387627 0.584686577 0.306484371
17437127 0.586367547 0.303189307
17486627 0.588063716 0.300130158
17536127 0.589704811 0.296913951
17585627 0.591288268 0.29374811
17635127 0.592945337 0.290505588
17684627 0.594548761 0.287316083
17734127 0.59603852 0.284139186
17783727 0.597504317 0.280805587
17833227 0.599252998 0.277751743
17882727 0.600720286 0.274507761
17932227 0.602256238 0.271366506
17981727 0.603957474 0.267951786
18031227 0.605342268 0.264972567
18080727 0.606608033 0.261656522
18130227 0.608100414 0.258427113
18179727 0.609425127 0.255086362
18229227 0.610862314 0.252134591
18278727 0.612275898 0.248670294
18328327 0.613584578 0.245311424
18377827 0.614870905 0.242260798
18427327 0.61648631 0.238936617
18476827 0.617553114 0.235753953
18526327 0.618867039 0.232452794
18575827 0.620182871 0.229189798
18625327 0.621609091 0.225832387
18674827 0.622564673 0.222617745
18724327 0.624044835 0.219379216
18773827 0.625300228 0.216009229
18823327 0.626477837 0.212795943
18872927 0.627545654 0.209599748
18922427 0.628688871 0.206245332
18971927 0.629875659 0.203087791
19021427 0.631120681 0.199593588
19070927 0.632129132 0.196365118
19120427 0.63327974 0.192993447
19169927 0.634251236 0.189695954
19219427 0.635341465 0.186430945
19268927 0.636365294 0.183261558
19318427 0.637456476 0.179900303
19367927 0.638514518 0.176505684
19417527 0.639654636 0.173212975
19467027 0.640324532 0.170023664
19516527 0.641425907 0.166616693
19566027 0.642335295 0.163225889
19615527 0.643364846 0.159922271
19665027 0.644295275 0.15651673
19714527 0.645152449 0.153396174
19764027 0.646025657 0.149999529
19813527 0.64692378 0.146809443
19863027 0.647835254 0.143121704
19912527 0.648588478 0.140008479
19962127 0.649398267 0.13690117
20011636 0.650391936 0.13334544
20061136 0.651054918 0.130173027
20110636 0.651743769 0.126934751
20160136 0.652536928 0.123502843
20209636 0.653461933 0.120102934
20259136 0.653773605 0.116963416
20308636 0.654805123 0.113615885
20358136 0.65535593 0.110061131
20407636 0.65607053 0.106849499
20457136 0.656652271 0.103578165
20506636 0.657361149 0.100344114
20556136 0.657868027 0.096759751
20605736 0.65848416 0.0934133
20655236 0.659287333 0.089964494
20704736 0.659754991 0.086750596
20754236 0.660196781 0.083368085
20803736 0.660972952 0.079991534
20853236 0.661177575 0.076781265
20902736 0.661741018 0.073446571
20952236 0.662245333 0.070137776
21001736 0.662849366 0.066509164
21051236 0.663211464 0.063542351
21100736 0.663737297 0.06010938
21150336 0.66405338 0.056779943
21199836 0.664671361 0.0533415
21249336 0.664940595 0.049909759
21298836 0.665534913 0.046794913
21348336 0.665614664 0.043312322
21397836 0.665895879 0.039984468
21447336 0.666311085 0.036825351
21496836 0.666683673 0.033381175
21546336 0.666994631 0.030029023
21595836 0.667316377 0.026646517
21645336 0.667698919 0.02332429
21694936 0.667942404 0.019998408
21744436 0.667971372 0.016590034
21793936 0.668208897 0.013395472
21843436 0.668401241 0.010072326
21892936 0.668814599 0.006773318
21942436 0.668857693 0.003353517
21991936 0.669009506 6.0291e-05
22041436 0.669255375 -0.003170052
22090936 0.669283986 -0.006622186
22140436 0.669536054 -0.009946862
22189936 0.669493913 -0.013195583
22239536 0.669435858 -0.016356529
22289036 0.669682264 -0.019751863
22338536 0.669659495 -0.023298427
22388036 0.669765412 -0.026522092
22437536 0.669799745 -0.029829904
22487036 0.669791698 -0.033112831
22536536 0.669692933 -0.036377813
22586036 0.669867575 -0.039783123
22635536 0.669836699 -0.04306817
22685036 0.669639527 -0.046371027
22734536 0.669472634 -0.049623824
22784136 0.669417738 -0.05292901
22833636 0.669445753 -0.056040383
22883136 0.669184565 -0.059392131
22932636 0.669261813 -0.062795713
22982136 0.66900283 -0.066014088
23031636 0.668759942 -0.069311127
23081136 0.668642878 -0.072488434
23130636 0.668542265 -0.075685091
23180136 0.668229699 -0.079222507
23229636 0.668088078 -0.082376845
23279136 0.667899608 -0.085553504
23328736 0.667414486 -0.089116118
23378236 0.667075753 -0.092257827
23427736 0.66696304 -0.09558887
23477236 0.666784405 -0.098682485
23526736 0.666089892 -0.102108672
23576236 0.666151046 -0.105092473
23625736 0.665685474 -0.108584277
23675236 0.665222346 -0.111542776
23724736 0.664999485 -0.114918276
23774236 0.664696872 -0.118334695
23823736 0.664216399 -0.121316224
23873336 0.663776636 -0.124788172
23922836 0.663181722 -0.127953052
23972336 0.662873208 -0.131191283
24021836 0.662522792 -0.134275227
24071336 0.661933004 -0.137479141
24120836 0.661382794 -0.140686228
24170336 0.661079943 -0.143874168
24219836 0.660666704 -0.147102445
24269336 0.659884512 -0.15024358
24318836 0.659433782 -0.153652116
24368336 0.658806443 -0.156651362
24417936 0.658177077 -0.159873038
24467436 0.657509088 -0.163038104
24516936 0.656948029 -0.166276767
24566436 0.656482517 -0.169512555
24615936 0.655687987 -0.172612085
24665436 0.655327439 -0.175822257
24714936 0.654519796 -0.178967043
24764436 0.653671622 -0.182145446
24813936 0.652887046 -0.185166195
24863436 0.652482569 -0.188449785
24912936 0.65177071 -0.191587164
24962536 0.651035249 -0.19474551
25012044 0.650345981 -0.197650283
25061544 0.649263322 -0.201072216
25111044 0.648742318 -0.203997775
25160544 0.647959053 -0.206960216
25210044 0.647067964 -0.210195064
25259544 0.646209418 -0.213424146
25309044 0.645395278 -0.216587319
25358544 0.644536793 -0.219452202
25408044 0.643788099 -0.222563922
25457544 0.642787337 -0.225736349
25507044 0.642036378 -0.228880479
25556544 0.64101541 -0.231980547
25606144 0.640303373 -0.234864503
25655644 0.639059424 -0.238156899
25705144 0.638294756 -0.241269215
25754644 0.637293756 -0.244427949
25804144 0.636285722 -0.247227743
25853644 0.635360717 -0.250309407
25903144 0.634360849 -0.253339797
25952644 0.633243739 -0.256212204
26002144 0.632187187 -0.259318053
26051644 0.631117701 -0.262363165
26101144 0.630361616 -0.265503287
26150744 0.629267632 -0.268518596
26200244 0.628118932 -0.271612226
26249744 0.626962125 -0.274686127
26299244 0.625988841 -0.277522861
26348744 0.624776721 -0.280472308
26398244 0.623758316 -0.283383995
26447744 0.622448384 -0.286284297
26497244 0.621306478 -0.289324909
26546744 0.620100259 -0.292414367
26596244 0.618851244 -0.295309484
26645744 0.617679417 -0.298294275
26695344 0.616595327 -0.301225155
26744844 0.615468382 -0.303949862
26794344 0.614013433 -0.307013541
26843844 0.61267656 -0.309977531
26893344 0.611560165 -0.312750101
26942844 0.610343873 -0.315675765
26992344 0.609029769 -0.318681746
27041844 0.607886135 -0.321570068
27091344 0.606374442 -0.324470996
27140844 0.6052199 -0.327343732
27190344 0.603652775 -0.330240279
27239944 0.60221523 -0.332998871
27289444 0.60102427 -0.335807532
27338944 0.599551677 -0.338730216
27388444 0.598184645 -0.34170112
27437944 0.596775233 -0.34456554
27487444 0.595272839 -0.347298264
27536944 0.594007313 -0.350092887
27586444 0.592463731 -0.352926522
27635944 0.590831816 -0.355695009
27685444 0.589598417 -0.358306854
27734944 0.588156878 -0.360953509
27784544 0.586449027 -0.363860696
27834044 0.585044384 -0.366564422
27883544 0.583510696 -0.369226723
27933044 0.581802845 -0.37200281
27982544 0.580336749 -0.374752819
28032044 0.578824937 -0.377398043
28081544 0.577199995 -0.380323588
28131044 0.575648307 -0.382985115
28180544 0.57399398 -0.385662943
28230044 0.572309076 -0.388224661
28279544 0.5705868 -0.391044676
28329144 0.569020509 -0.39367634
28378644 0.567491054 -0.396409213
28428144 0.565620958 -0.398824304
28477644 0.56406182 -0.401484727
28527144 0.562596499 -0.403835445
28576644 0.560836911 -0.406620562
28626144 0.559191524 -0.408973664
28675644 0.557247042 -0.411562561
28725144 0.555511772 -0.414131581
28774644 0.554112255 -0.416662603
28824144 0.552195072 -0.419241935
28873744 0.550510048 -0.421689033
28923244 0.548854053 -0.424158781
28972744 0.547028005 -0.426716893
29022244 0.54528445 -0.429301887
29071744 0.543552339 -0.431698262
29121244 0.54178822 -0.43410179
29170744 0.540077567 -0.436553239
29220244 0.538344621 -0.438861757
29269744 0.536683201 -0.441397726
29319244 0.534911155 -0.44368872
29368744 0.533137142 -0.44613856
29418344 0.531046569 -0.448765575
29467844 0.529313683 -0.451212972
29517344 0.527559936 -0.453484952
29566844 0.525824248 -0.455851346
29616344 0.52388364 -0.458194166
29665844 0.522227525 -0.460808247
29715344 0.520313322 -0.462901264
29764844 0.518600344 -0.465616911
29814344 0.516673326 -0.467920899
29863844 0.514650225 -0.470237433
29913344 0.512833893 -0.472393572
