# HZ S RI R 50
50000 -0.78075236 0.597089588
89600 -0.457601487 0.87398827
129200 -0.133272826 0.972387254
168800 0.126902893 0.969883263
208400 0.320274382 0.921578764
248000 0.461433887 0.858063578
287600 0.565047204 0.792711257
327200 0.641790091 0.731251478
366800 0.699951589 0.675511658
406400 0.744749367 0.625684261
446000 0.779802024 0.581455111
485600 0.807610809 0.542170524
525200 0.830012023 0.507274329
564800 0.848384857 0.47625339
604400 0.863683223 0.448413074
644000 0.876396894 0.423540413
683600 0.887265861 0.400975763
723200 0.896119892 0.380486339
762800 0.903871536 0.361838251
802400 0.910927772 0.344873458
842000 0.916871488 0.329613924
881600 0.921868085 0.315274089
921200 0.926498889 0.302005589
960800 0.93067795 0.289910495
1000400 0.934143245 0.278556168
1040000 0.937705874 0.268132597
1079600 0.940184056 0.25826016
1119200 0.942777633 0.249219179
1158800 0.945208191 0.24049516
1198400 0.947343766 0.232567802
1238000 0.949488222 0.22517395
1277600 0.950876116 0.218220397
1317200 0.952821195 0.211286053
1356800 0.954368472 0.204956769
1396500 0.955577671 0.198746159
1436100 0.956906497 0.193104103
1475700 0.958061277 0.187758356
1515300 0.959110915 0.182535573
1554900 0.960039436 0.177689015
1594500 0.9611063 0.172948613
1634100 0.961941421 0.16870746
1673700 0.962710976 0.164525702
1713300 0.963654756 0.160451039
1752900 0.964229464 0.156583875
1792500 0.964928627 0.152911767
1832100 0.9657045 0.149249732
1871700 0.966385722 0.145750701
1911300 0.966665267 0.142592683
1950900 0.967298328 0.139379039
1990500 0.967826485 0.136377811
2030100 0.968519389 0.133461952
2069700 0.968823313 0.130882307
2109300 0.969415307 0.127961263
2148900 0.969740867 0.125708863
2188500 0.970172941 0.123125083
2228100 0.970812499 0.120514474
2267700 0.97090435 0.117941789
2307300 0.970990478 0.115502409
2346900 0.971681475 0.113445475
2386500 0.971812903 0.111082598
2426100 0.972250282 0.108976073
2465700 0.972450137 0.107072003
2505300 0.972696006 0.104975067
2544900 0.972621321 0.103418856
2584500 0.973008513 0.101450569
2624100 0.973551869 0.099794954
2663700 0.973502099 0.098116502
2703400 0.973727166 0.096234627
2743000 0.974161922 0.094407297
2782600 0.974218726 0.093052744
2822200 0.974274635 0.091124184
2861800 0.974690437 0.090013109
2901400 0.974951863 0.088406577
2941000 0.975113332 0.086942277
2980600 0.975062131 0.085435904
3020200 0.975297987 0.083955146
3059800 0.975541591 0.082927122
3099400 0.975600779 0.081369534
3139000 0.975655317 0.079976715
3178600 0.975850939 0.078915297
3218200 0.97601062 0.077495932
3257800 0.976430833 0.076526753
3297400 0.976210355 0.075060598
3337000 0.976465523 0.074125267
3376600 0.976802289 0.072913721
3416200 0.976873278 0.071914896
3455800 0.976953804 0.070887267
3495400 0.97715336 0.06991744
3535000 0.977069735 0.068714238
3574600 0.97706145 0.067531779
3614200 0.977402508 0.06649997
3653800 0.977252364 0.065383918
3693400 0.977523446 0.064748883
3733000 0.977545082 0.063946157
3772600 0.977787256 0.062641277
3812200 0.977781891 0.061877682
3851800 0.977741718 0.060991503
3891400 0.978011369 0.059853993
3931000 0.978064537 0.059429552
3970600 0.978156149 0.058569345
4010300 0.978513896 0.057528521
4049903 0.978494167 0.056639164
4089503 0.978397011 0.055881172
4129103 0.978723108 0.055211111
4168703 0.978706538 0.054404482
4208303 0.978707015 0.0535857
4247903 0.978862881 0.052785202
4287503 0.978760659 0.051932416
4327103 0.978887498 0.051261596
4366703 0.979037821 0.050355177
4406303 0.979135811 0.049924306
4445903 0.979116559 0.049185708
4485503 0.97907269 0.048427175
4525103 0.979422092 0.048017915
4564703 0.979167819 0.047062695
4604303 0.979174256 0.046280696
4643903 0.979325234 0.046038549
4683503 0.979684531 0.045364607
4723103 0.979617178 0.044557973
4762703 0.979452669 0.043866954
4802303 0.979618072 0.043220173
4841903 0.979725897 0.042820625
4881503 0.97977072 0.04200948
4921103 0.979834556 0.041775025
4960703 0.979997634 0.040939994
5000303 0.979982256 0.04045603
5039903 0.980026125 0.040041666
5079503 0.979969143 0.03940279
5119103 0.980068862 0.038672778
5158703 0.980193257 0.038089357
5198303 0.980344772 0.037769518
5237903 0.980051755 0.037036783
5277503 0.980316221 0.036479897
5317103 0.980148732 0.036018557
5356703 0.980120599 0.035537946
5396403 0.980463862 0.035206273
5436003 0.980554938 0.034511178
5475603 0.980529427 0.034161809
5515203 0.980544269 0.033714648
5554803 0.980502247 0.033121179
5594403 0.980544924 0.032743666
5634003 0.980784356 0.032221265
5673603 0.980845272 0.031885713
5713203 0.980671286 0.031518984
5752803 0.980962097 0.031105257
5792403 0.980876624 0.030421627
5832003 0.980966806 0.030142271
5871603 0.980830371 0.029614895
5911203 0.981136918 0.029234826
5950803 0.981093704 0.028938166
5990403 0.981076598 0.028505003
6030003 0.981368064 0.028393866
6069603 0.981077671 0.028005167
6109203 0.981398761 0.027866836
6148803 0.981263816 0.027655988
6188403 0.981577396 0.027345366
6228003 0.981853961 0.027649935
6267603 0.981951713 0.02737102
6307203 0.9821648 0.027643213
6346803 0.982525289 0.027914965
6386403 0.982761025 0.028159381
6426003 0.983342111 0.028708852
6465603 0.98360151 0.029059156
6505203 0.984273493 0.029184674
6544803 0.984591543 0.02861209
6584403 0.985102415 0.027810074
6624003 0.984865725 0.026497228
6663603 0.984365463 0.024952054
6703303 0.984068572 0.023290963
6742903 0.983159899 0.021803781
6782503 0.982601523 0.020343201
6822103 0.982321679 0.019076097
6861703 0.981776416 0.017967876
6901303 0.981756925 0.016942644
6940903 0.98189646 0.016003401
6980503 0.98161292 0.015284948
7020103 0.982106864 0.014328543
7059703 0.982242941 0.014292193
7099303 0.982546448 0.013888443
7138903 0.982771337 0.014043317
7178503 0.983157098 0.013700512
7218103 0.983036935 0.013879775
7257703 0.983129858 0.013750154
7297303 0.983267068 0.013802865
7336903 0.983270943 0.013539334
7376503 0.983354568 0.013338443
7416103 0.983401834 0.012998742
7455703 0.983199715 0.012935623
7495303 0.983019411 0.012623563
7534903 0.983354806 0.012456806
7574503 0.983241498 0.012213519
7614103 0.98348838 0.012108296
7653703 0.983371436 0.011743054
7693303 0.983200311 0.011448041
7732903 0.983212471 0.011291367
7772503 0.983078002 0.011006253
7812103 0.983053684 0.01089896
7851703 0.983182907 0.01008759
7891303 0.983116745 0.010302922
7930903 0.982913374 0.009888815
7970503 0.983285129 0.009521992
8010203 0.983130991 0.009374132
8049806 0.982934772 0.00902832
8089406 0.983086466 0.008723511
8129006 0.982934713 0.008662805
8168606 0.983278512 0.008212725
8208206 0.983120679 0.00795737
8247806 0.983177185 0.007777166
8287406 0.982806324 0.007604633
8327006 0.983232975 0.007185088
8366606 0.982908487 0.006755016
8406206 0.983005881 0.006575691
8445806 0.983115732 0.006243544
8485406 0.982942223 0.006230535
8525006 0.983173489 0.005554207
8564606 0.983038842 0.005685612
8604206 0.982943534 0.005310511
8643806 0.983091354 0.00527
8683406 0.983193993 0.004798182
8723006 0.982986509 0.004531886
8762606 0.982982456 0.004196654
8802206 0.983030259 0.003990872
8841806 0.983193516 0.00371045
8881406 0.982943236 0.003462592
8921006 0.983102202 0.003344853
8960606 0.983044326 0.003051045
9000206 0.983303546 0.00245918
9039806 0.982886493 0.002686846
9079406 0.98313266 0.002207486
9119006 0.983268201 0.001891442
9158606 0.98320657 0.001578666
9198206 0.983031094 0.001309651
9237806 0.983329832 0.000986858
9277406 0.983018279 0.000697622
9317006 0.98332262 0.000352868
9356606 0.983171224 9.0619e-05
9396306 0.983349561 -0.000253134
9435906 0.983186364 -0.000394077
9475506 0.98351407 -0.000803709
9515106 0.983240008 -0.001260746
9554706 0.983346462 -0.001264236
9594306 0.98326075 -0.001473882
9633906 0.983304083 -0.001626677
9673506 0.983197212 -0.00218385
9713106 0.983127236 -0.002514946
9752706 0.983411252 -0.002702045
9792306 0.983578324 -0.002990893
9831906 0.983349561 -0.003378037
9871506 0.983407616 -0.003429576
9911106 0.983370363 -0.003779524
9950706 0.983473539 -0.00408421
9990306 0.983495354 -0.004458125
10029906 0.98335582 -0.004754971
10069506 0.98343569 -0.005059127
10109106 0.983528554 -0.005177556
10148706 0.983724474 -0.005529661
10188306 0.983389556 -0.005888302
10227906 0.983388483 -0.006211108
10267506 0.983502626 -0.006515639
10307106 0.983501851 -0.006626982
10346706 0.983580589 -0.00691996
10386306 0.983684062 -0.007092857
10425906 0.983694314 -0.007588545
10465506 0.98367846 -0.007547804
10505106 0.983538866 -0.007863249
10544706 0.983722448 -0.0080523
10584306 0.983711481 -0.008565
10623906 0.983605444 -0.008542354
10663506 0.983575522 -0.009057717
10703206 0.983826577 -0.009191616
10742806 0.983702301 -0.009501134
10782406 0.983787894 -0.00985137
10822006 0.983683526 -0.01007905
10861606 0.98391956 -0.010483897
10901206 0.983699023 -0.010589382
10940806 0.983540773 -0.010915964
10980406 0.983836889 -0.010953423
11020006 0.983779013 -0.011624704
11059606 0.983810126 -0.011629456
11099206 0.98364681 -0.011897007
11138806 0.983974337 -0.0120679
11178406 0.983823657 -0.012331525
11218006 0.983739018 -0.012354569
11257606 0.983873188 -0.012745752
11297206 0.984021008 -0.013218029
11336806 0.983909964 -0.013348351
11376406 0.983749806 -0.013776773
11416006 0.983972907 -0.013749644
11455606 0.983960032 -0.01412391
11495206 0.98403716 -0.014338809
11534806 0.983850538 -0.014612535
11574406 0.983983278 -0.014868484
11614006 0.983821928 -0.015045205
11653606 0.984044611 -0.015120417
11693206 0.984079957 -0.015648683
11732806 0.983936548 -0.015910919
11772406 0.984127998 -0.015982016
11812006 0.983872592 -0.016395496
11851606 0.983931899 -0.01675288
11891206 0.984124243 -0.016770234
11930806 0.983870089 -0.017071608
11970406 0.984060227 -0.017155492
12010106 0.983783662 -0.017639763
12049709 0.983871042 -0.017562059
12089309 0.984173357 -0.0177825
12128909 0.984074652 -0.018416196
12168509 0.984026312 -0.018352711
12208109 0.984088778 -0.018727548
12247709 0.983888268 -0.019003534
12287309 0.984152138 -0.018970703
12326909 0.984204649 -0.019472906
12366509 0.984124779 -0.019661074
12406109 0.984239935 -0.020039694
12445709 0.983987033 -0.020301675
12485309 0.98424828 -0.020258272
12524909 0.984432339 -0.020782835
12564509 0.984116017 -0.020792851
12604109 0.984441578 -0.021055649
12643709 0.984347403 -0.021196618
12683309 0.984318912 -0.021689806
12722909 0.984100282 -0.021699467
12762509 0.984151601 -0.022007489
12802109 0.984181046 -0.022377267
12841709 0.984076976 -0.02240925
12881309 0.984155595 -0.022569559
12920909 0.984413325 -0.022983957
12960509 0.984147191 -0.023094447
13000109 0.984234452 -0.023657632
13039709 0.984241545 -0.023702524
13079309 0.984070777 -0.023677824
13118909 0.984028816 -0.023961706
13158509 0.984379291 -0.024196507
13198109 0.984321653 -0.024769699
13237709 0.984211325 -0.024713944
13277309 0.984260141 -0.024935765
13316909 0.984136164 -0.025228507
13356509 0.984209656 -0.025265233
13396209 0.984348654 -0.025644239
13435809 0.984153509 -0.026091337
13475409 0.984320938 -0.026200942
13515009 0.984318196 -0.026345297
13554609 0.984259366 -0.0266664
13594209 0.98429799 -0.02670354
13633809 0.984217524 -0.027059767
13673409 0.984294116 -0.027110481
13713009 0.984308838 -0.027421014
13752609 0.984083414 -0.027628287
13792209 0.98437947 -0.02793486
13831809 0.984358847 -0.028191547
13871409 0.984342575 -0.028368242
13911009 0.984118223 -0.028614854
13950609 0.984540343 -0.028820721
13990209 0.984309434 -0.029132906
14029809 0.984200358 -0.029288828
14069409 0.984137713 -0.029390849
14109009 0.984288871 -0.029606815
14148609 0.984313845 -0.02983842
14188209 0.984490454 -0.029935656
14227809 0.984317779 -0.030311768
14267409 0.984179735 -0.030507719
14307009 0.98431766 -0.030911136
14346609 0.984334766 -0.030721941
14386209 0.984253644 -0.031346779
14425809 0.984163045 -0.031405285
14465409 0.984179854 -0.031447395
14505009 0.984485268 -0.03177106
14544609 0.98438704 -0.031952831
14584209 0.984248101 -0.032480701
14623809 0.984327554 -0.032561939
14663409 0.984368801 -0.032739326
14703109 0.984328389 -0.032910015
14742709 0.984258472 -0.03313918
14782309 0.984412729 -0.033025395
14821909 0.98435992 -0.033761546
14861509 0.984327733 -0.033762522
14901109 0.98410499 -0.033904347
14940709 0.984328329 -0.034174721
14980309 0.98456788 -0.034316003
15019909 0.984318375 -0.034712281
15059509 0.984313905 -0.03483881
15099109 0.984217345 -0.035017378
15138709 0.984560966 -0.035194158
15178309 0.984230577 -0.035588476
15217909 0.984281241 -0.035732634
15257509 0.984249413 -0.035953216
15297109 0.984401643 -0.036113634
15336709 0.984355628 -0.036075275
15376309 0.984349071 -0.036632075
15415909 0.984126448 -0.03669789
15455509 0.984356462 -0.036835908
15495109 0.984308481 -0.037100367
15534709 0.984311342 -0.037359938
15574309 0.98425281 -0.037494309
15613909 0.984221398 -0.037508208
15653509 0.984341561 -0.037995159
15693109 0.984372794 -0.038209944
15732709 0.984197258 -0.038488
15772309 0.984300017 -0.038724683
15811909 0.984228909 -0.038656491
15851509 0.984299182 -0.0391597
15891109 0.98424977 -0.039216134
15930709 0.984177708 -0.039522048
15970309 0.98441863 -0.039465516
16010009 0.984332799 -0.039655532
16049612 0.984217882 -0.039791282
16089212 0.984430551 -0.04021766
16128812 0.984169125 -0.040489971
16168412 0.984331429 -0.040944848
16208012 0.984176874 -0.040552824
16247612 0.984368562 -0.04127299
16287212 0.984412848 -0.041325166
16326812 0.984107196 -0.04133588
16366412 0.984528422 -0.041892465
16406012 0.984159529 -0.041842233
16445612 0.984155833 -0.042133953
16485212 0.984209001 -0.042035728
16524812 0.984326243 -0.042342517
16564412 0.984339118 -0.042724382
16604012 0.98414123 -0.042839221
16643612 0.984159946 -0.043168038
16683212 0.984008491 -0.043099947
16722812 0.984343469 -0.043493177
16762412 0.984282433 -0.043759509
16802012 0.984322905 -0.044096492
16841612 0.983971118 -0.044104631
16881212 0.984423756 -0.044362671
16920812 0.984045326 -0.044308654
16960412 0.984178841 -0.044466465
17000012 0.984376192 -0.044937897
17039612 0.984113812 -0.045129902
17079212 0.984274566 -0.045173875
17118812 0.984015345 -0.045426022
17158412 0.984439432 -0.045715473
17198012 0.983958721 -0.045840397
17237612 0.984133899 -0.046216823
17277212 0.984172046 -0.046171423
17316812 0.98405832 -0.046658642
17356412 0.984174191 -0.046835821
17396112 0.983848214 -0.046915698
17435712 0.984369874 -0.046968683
17475312 0.984068989 -0.047417704
17514912 0.984214425 -0.047602307
17554512 0.984214663 -0.04754332
17594112 0.984029531 -0.047929134
17633712 0.983953893 -0.048088591
17673312 0.983859717 -0.048176381
17712912 0.983979165 -0.048594139
17752512 0.984069943 -0.048830617
17792112 0.98410511 -0.048933081
17831712 0.984037995 -0.048890508
17871312 0.984016656 -0.049247615
17910912 0.984075725 -0.049571584
17950512 0.984025657 -0.049463383
17990112 0.983814656 -0.049820933
18029712 0.984003543 -0.050123207
18069312 0.983976781 -0.050368711
18108912 0.984072983 -0.050448883
18148512 0.98375988 -0.050737224
18188112 0.984304964 -0.050790015
18227712 0.984107375 -0.051001943
18267312 0.983972907 -0.051105845
18306912 0.98384881 -0.051378492
18346512 0.983923494 -0.051752999
18386112 0.983964741 -0.051925014
18425712 0.984061479 -0.052135866
18465312 0.984095156 -0.052267521
18504912 0.984094142 -0.052218157
18544512 0.983841121 -0.052676543
18584112 0.984061419 -0.052910007
18623712 0.983977198 -0.053000826
18663312 0.983693242 -0.052954327
18703012 0.98412913 -0.053324341
18742612 0.983772218 -0.053753577
18782212 0.983862161 -0.05382362
18821812 0.983773052 -0.0539103
18861412 0.983671724 -0.054025042
18901012 0.983844041 -0.054320219
18940612 0.98385936 -0.054727584
18980212 0.983765959 -0.054807472
19019812 0.983779549 -0.054938144
19059412 0.983822107 -0.054907552
19099012 0.983639001 -0.055430084
19138612 0.983831465 -0.055691793
19178212 0.983790099 -0.055597115
19217812 0.983891606 -0.055819112
19257412 0.983906626 -0.056390792
19297012 0.983965456 -0.056166827
19336612 0.983650386 -0.056411538
19376212 0.983961582 -0.056686751
19415812 0.983696579 -0.056782208
19455412 0.983805477 -0.0571318
19495012 0.983775198 -0.056948672
19534612 0.98410505 -0.05728418
19574212 0.983689129 -0.057599499
19613812 0.983726561 -0.057715725
19653412 0.983952641 -0.057999897
19693012 0.983910918 -0.058011665
19732612 0.983491599 -0.058384437
19772212 0.984036147 -0.05873315
19811812 0.983606517 -0.058663517
19851412 0.983752846 -0.059139292
19891012 0.983580231 -0.058947756
19930612 0.983495175 -0.059552889
19970212 0.983834862 -0.059595968
20009912 0.983633577 -0.059722386
20049516 0.983578801 -0.059844594
20089116 0.983741044 -0.060070831
20128716 0.98365873 -0.060101117
20168316 0.983866512 -0.06052279
20207916 0.983792483 -0.060866076
20247516 0.983670771 -0.060906309
20287116 0.983706772 -0.060930315
20326716 0.983733475 -0.061279203
20366316 0.983587324 -0.061345886
20405916 0.983641564 -0.061659555
20445516 0.983395636 -0.061863999
20485116 0.983640372 -0.061752215
20524716 0.98379296 -0.062240548
20564316 0.983449101 -0.06249741
20603916 0.983503401 -0.062516205
20643516 0.983671426 -0.062676854
20683116 0.983622789 -0.062920913
20722716 0.983408987 -0.06316781
20762316 0.98363763 -0.063316188
20801916 0.98362559 -0.063783183
20841516 0.983444511 -0.063658691
20881116 0.983576416 -0.06381905
20920716 0.9832502 -0.064117625
20960316 0.983625769 -0.064242891
20999916 0.983449041 -0.064586661
21039516 0.983642935 -0.064579203
21079116 0.983417153 -0.06462159
21118716 0.983660936 -0.065222576
21158316 0.983326852 -0.065061025
21197916 0.983346104 -0.065548725
21237516 0.983462631 -0.065488971
21277116 0.983540534 -0.065837137
21316716 0.983507335 -0.065894551
21356316 0.983570456 -0.066151961
21396016 0.983328402 -0.066433303
21435616 0.983313262 -0.066736154
21475216 0.983386158 -0.066607221
21514816 0.983212053 -0.066905036
21554416 0.983196854 -0.067002013
21594016 0.983271956 -0.06733039
21633616 0.983472704 -0.067500032
21673216 0.983275234 -0.067534945
21712816 0.983210206 -0.068065084
21752416 0.983338773 -0.068043544
21792016 0.983406901 -0.068326182
21831616 0.983302891 -0.06847468
21871216 0.983314871 -0.068441838
21910816 0.9830783 -0.06875842
21950416 0.983368694 -0.069072186
21990016 0.98303771 -0.068924725
22029616 0.983202517 -0.069398693
22069216 0.983161032 -0.069371491
22108816 0.983441889 -0.06963963
22148416 0.983202755 -0.069880709
22188016 0.983035981 -0.070163942
22227616 0.983296811 -0.070091195
22267216 0.98326987 -0.07039503
22306816 0.983007371 -0.070549145
22346416 0.983338952 -0.070748187
22386016 0.983039975 -0.070845834
22425616 0.982950568 -0.071017108
22465216 0.98303163 -0.071414545
22504816 0.982992827 -0.07158187
22544416 0.98321402 -0.071684435
22584016 0.982925534 -0.071901746
22623616 0.983026921 -0.072150714
22663216 0.983040511 -0.072082765
22702916 0.983085215 -0.072441682
22742516 0.982929289 -0.072624206
22782116 0.982913374 -0.072957441
22821716 0.982928097 -0.07278113
22861316 0.982925593 -0.073367089
22900916 0.982914566 -0.073264643
22940516 0.983001351 -0.073723927
22980116 0.982718646 -0.073716372
23019716 0.983122467 -0.073823444
23059316 0.982839345 -0.074108205
23098916 0.982707738 -0.074101224
23138516 0.98302257 -0.074460931
23178116 0.982867538 -0.07469622
23217716 0.982743382 -0.074883736
23257316 0.982682049 -0.074963778
23296916 0.982864797 -0.075053401
23336516 0.982931196 -0.075624503
23376116 0.982625842 -0.075435012
23415716 0.982704877 -0.075577497
23455316 0.982718765 -0.075919471
23494916 0.982907533 -0.076177783
23534516 0.982503294 -0.076202772
23574116 0.982777774 -0.076278492
23613716 0.982760906 -0.076757699
23653316 0.982550144 -0.076647959
23692916 0.982787907 -0.077013567
23732516 0.98261547 -0.077092908
23772116 0.982388377 -0.077382698
23811716 0.982826888 -0.077513664
23851316 0.982633709 -0.077864289
23890916 0.98254621 -0.077800288
23930516 0.982699215 -0.078068971
23970116 0.982217252 -0.078358657
24009816 0.982350409 -0.078314132
24049418 0.982698023 -0.078499943
