# HZ S RI R 50
50000 -0.996111214 0.020893899
63200 -0.998434126 0.027905941
76400 -0.997954845 0.034791737
89600 -0.997759401 0.041091699
102800 -0.99758023 0.04741669
116000 -0.997280895 0.053471479
129200 -0.996641933 0.059331282
142400 -0.996622085 0.065564632
155600 -0.996024608 0.07143069
168800 -0.995460927 0.077497355
182000 -0.995008468 0.08335904
195200 -0.994170486 0.089003399
208400 -0.993954181 0.094882979
221600 -0.993005573 0.100652977
234800 -0.992508172 0.106560923
248000 -0.991727828 0.112210236
261200 -0.991118371 0.118065774
274400 -0.990374684 0.123931445
287600 -0.98946613 0.129404067
300800 -0.988474845 0.135374143
314000 -0.987721502 0.140706509
327200 -0.986679077 0.146705731
340400 -0.985814332 0.15200977
353600 -0.984680593 0.157869085
366800 -0.983848333 0.163390055
380000 -0.982547044 0.169175073
393200 -0.98169279 0.174838051
406400 -0.980546295 0.180294394
419600 -0.979503393 0.186028346
432800 -0.978165686 0.191528648
446000 -0.976932466 0.197239518
459200 -0.975669145 0.202771604
472400 -0.974496066 0.208408445
485600 -0.972949624 0.21373707
498800 -0.971750378 0.219566628
512000 -0.970154881 0.22489275
525200 -0.969031989 0.230602085
538400 -0.967397212 0.236078962
551600 -0.965895175 0.241626679
564800 -0.964176714 0.246961563
578000 -0.962866842 0.25273174
591200 -0.961116313 0.257956236
604400 -0.959529757 0.263641238
617600 -0.95787698 0.268828272
630800 -0.956245005 0.274509221
644000 -0.954424083 0.279708266
657200 -0.952657341 0.285434275
670400 -0.950833022 0.290636867
683600 -0.949023067 0.296240925
696800 -0.947130322 0.301301896
710000 -0.944925308 0.306782484
723200 -0.943422317 0.312162667
736400 -0.941302716 0.317675888
749600 -0.939063608 0.322949051
762800 -0.937059462 0.328297704
776000 -0.935110509 0.3335509
789200 -0.932872653 0.338878661
802400 -0.930931329 0.344148844
815600 -0.928578853 0.349560856
828800 -0.92648369 0.354559838
842000 -0.924144625 0.360054105
855200 -0.922052681 0.364959746
868400 -0.919461667 0.37045589
881600 -0.917240262 0.375488609
894800 -0.914814591 0.380969703
908000 -0.912349283 0.385896861
921200 -0.909766316 0.39123851
934400 -0.907521069 0.396199762
947600 -0.904679536 0.401652604
960800 -0.902376234 0.406520038
974000 -0.899610519 0.41171807
987200 -0.897155046 0.416738867
1000400 -0.894372344 0.42189753
1013600 -0.891688406 0.426952868
1026800 -0.88890165 0.432163685
1040000 -0.886303544 0.437008917
1053200 -0.883128106 0.442020833
1066400 -0.880526959 0.447175115
1079600 -0.877649486 0.451914906
1092800 -0.874700546 0.457021862
1106000 -0.871588289 0.461805552
1119200 -0.868669748 0.466936051
1132400 -0.865565836 0.471690207
1145600 -0.862616658 0.476720839
1158800 -0.859465241 0.481506884
1172000 -0.856395781 0.486443758
1185200 -0.853040039 0.491053283
1198400 -0.84998846 0.495838016
1211600 -0.84647113 0.500919282
1224800 -0.843417942 0.505647003
1238000 -0.839773178 0.510028123
1251200 -0.836681067 0.515047073
1264400 -0.833126187 0.519625604
1277600 -0.829761922 0.524448871
1290800 -0.826094567 0.528858244
1304000 -0.822885394 0.53366065
1317200 -0.81907922 0.538109779
1330400 -0.81557554 0.542876303
1343600 -0.811654269 0.547180354
1356800 -0.808343231 0.551708102
1370000 -0.804485619 0.556072413
1383200 -0.80053097 0.560757756
1396400 -0.796737372 0.56498003
1409600 -0.792939364 0.569613933
1422800 -0.788908481 0.573685586
1436000 -0.784964025 0.57817918
1449200 -0.78114897 0.58234632
1462400 -0.777077794 0.586877167
1475600 -0.773015558 0.590698838
1488800 -0.768932998 0.595080673
1502000 -0.764768421 0.598914563
1515200 -0.760867595 0.603214263
1528400 -0.756402015 0.607175707
1541600 -0.752251505 0.611396014
1554800 -0.747867703 0.615083992
1568000 -0.743642687 0.619167983
1581200 -0.739122211 0.622889935
1594400 -0.734967112 0.626863002
1607600 -0.730487823 0.630682647
1620800 -0.726353287 0.634390056
1634000 -0.721461594 0.638117194
1647200 -0.717145621 0.641626536
1660400 -0.712576746 0.64526844
1673600 -0.708173692 0.648731112
1686800 -0.703450441 0.652565836
1700000 -0.69870156 0.655696094
1713200 -0.694087862 0.659234344
1726400 -0.689658164 0.662442028
1739600 -0.684706568 0.665796279
1752800 -0.680096387 0.668934643
1766000 -0.675286471 0.67216295
1779200 -0.670754611 0.675228238
1792400 -0.665826737 0.678336322
1805600 -0.661036849 0.681134462
1818800 -0.656211853 0.684270381
1832000 -0.651529192 0.686945915
1845200 -0.646514534 0.68992412
1858400 -0.64164555 0.69261229
1871600 -0.636877059 0.695310473
1884800 -0.631750524 0.698000848
1898000 -0.627026557 0.700714707
1911200 -0.62210679 0.703212976
1924400 -0.617166578 0.705522239
1937600 -0.612120985 0.707948565
1950800 -0.607295632 0.710332512
1964000 -0.602344691 0.712791621
1977200 -0.597413837 0.714913904
1990400 -0.592298269 0.717206716
2003600 -0.587683856 0.719176113
2016800 -0.582601606 0.72140491
2030000 -0.577729046 0.723442137
2043200 -0.57263422 0.725467979
2056400 -0.567754447 0.727158427
2069600 -0.562902212 0.729284942
2082800 -0.558026254 0.730974435
2096000 -0.553077936 0.732657611
2109200 -0.548163533 0.734283447
2122400 -0.543261349 0.736141502
2135600 -0.538459122 0.737537324
2148800 -0.533635258 0.739242792
2162000 -0.528550267 0.74053502
2175200 -0.52415812 0.742111682
2188400 -0.518845021 0.743350028
2201600 -0.514214336 0.744891881
2214800 -0.509323835 0.746071875
2228000 -0.504565775 0.747361958
2241200 -0.49961695 0.748322844
2254400 -0.494900733 0.749583661
2267600 -0.49006024 0.750819325
2280800 -0.485506922 0.751775503
2294000 -0.480472147 0.752688825
2307200 -0.475678861 0.753620922
2320400 -0.470931857 0.754567682
2333600 -0.466478049 0.755250334
2346800 -0.46179682 0.756311893
2360000 -0.457142859 0.75690639
2373200 -0.452416837 0.757865488
2386400 -0.447789341 0.758396565
2399600 -0.443431854 0.758951008
2412800 -0.438670128 0.759616494
2426000 -0.4344047 0.760065376
2439200 -0.429775893 0.760818481
2452400 -0.4253771 0.761240541
2465600 -0.420835375 0.761675953
2478800 -0.416551113 0.761980354
2492000 -0.412174522 0.762579619
2505200 -0.407667696 0.762836575
2518400 -0.403554439 0.763102114
2531600 -0.399101108 0.763460814
2544800 -0.394913226 0.763626217
2558000 -0.390591174 0.763693094
2571200 -0.386309981 0.763989984
2584400 -0.382150709 0.764284074
2597600 -0.378094226 0.764453947
2610800 -0.373779088 0.764485299
2624000 -0.36977899 0.764500379
2637200 -0.365597784 0.764544367
2650400 -0.36143434 0.764400541
2663600 -0.357412248 0.764566898
2676800 -0.353368341 0.764431416
2690000 -0.34949544 0.764391005
2703200 -0.345411002 0.764455497
2716400 -0.341722011 0.76428759
2729600 -0.337502986 0.764111816
2742800 -0.333629429 0.764031171
2756000 -0.32970786 0.763699054
2769200 -0.326048284 0.763539075
2782400 -0.322184979 0.763411104
2795600 -0.318308711 0.763098835
2808800 -0.314458817 0.762762486
2822000 -0.310873836 0.762382566
2835200 -0.307305544 0.762186765
2848400 -0.303542286 0.76174587
2861600 -0.299822419 0.761578202
2874800 -0.296148657 0.761044621
2888000 -0.292688727 0.760773956
2901200 -0.288967102 0.760211884
2914400 -0.285370498 0.759888768
2927600 -0.281765878 0.759354829
2940800 -0.278536796 0.759091198
2954000 -0.274987846 0.75868237
2967200 -0.27151364 0.758031368
2980400 -0.268046706 0.757546663
2993600 -0.264797985 0.75699675
3006800 -0.261558443 0.75655514
3020000 -0.257953703 0.755937993
3033200 -0.254610598 0.755393326
3046400 -0.251484692 0.754917502
3059600 -0.248288914 0.753859877
3072800 -0.245064258 0.753736555
3086000 -0.241804033 0.753197491
3099200 -0.238493278 0.752457439
3112400 -0.235568493 0.751865863
3125600 -0.232242792 0.751178264
3138800 -0.229245737 0.750622391
3152000 -0.225971147 0.74995321
3165200 -0.223162516 0.749351382
3178400 -0.219755724 0.748527646
3191600 -0.216803058 0.747802436
3204800 -0.213819608 0.747314333
3218000 -0.210849508 0.746368646
3231200 -0.207922711 0.745975315
3244400 -0.204938888 0.745056331
3257600 -0.201922118 0.744381964
3270800 -0.199156776 0.743613123
3284000 -0.19633466 0.743069171
3297200 -0.193425774 0.742298543
3310400 -0.190603867 0.741456389
3323600 -0.187721073 0.740715265
3336800 -0.185038447 0.739799737
3350000 -0.18225944 0.739198625
3363200 -0.179550319 0.738283634
3376400 -0.17688404 0.737608969
3389600 -0.174184933 0.736857235
3402800 -0.171585083 0.735975205
3416000 -0.168790996 0.73529464
3429200 -0.166275247 0.734389185
3442400 -0.163720622 0.73362863
3455600 -0.161255106 0.732735753
3468800 -0.158482864 0.731866061
3482000 -0.1559394 0.731095135
3495200 -0.153582289 0.730276703
3508400 -0.151045292 0.729534626
3521600 -0.148512586 0.728826582
3534800 -0.145976498 0.727921128
3548000 -0.143467813 0.727249324
3561200 -0.141093388 0.726073026
3574400 -0.138701885 0.725299537
3587600 -0.136225268 0.724568545
3600800 -0.133993223 0.723577797
3614000 -0.131581112 0.722804188
3627200 -0.129245236 0.722041785
3640400 -0.126931488 0.721152365
3653600 -0.124485544 0.720227718
3666800 -0.122363276 0.719514191
3680000 -0.119953952 0.718429923
3693200 -0.117906995 0.717697381
3706400 -0.115399412 0.716756403
3719600 -0.113293379 0.716136276
3732800 -0.110995434 0.715071678
3746000 -0.108941525 0.714227437
3759200 -0.10672564 0.713476359
3772400 -0.104559965 0.712564945
3785600 -0.102392524 0.711702108
3798800 -0.100393161 0.710964322
3812000 -0.098182685 0.709975421
3825200 -0.096150159 0.709102749
3838400 -0.094030171 0.708288013
3851600 -0.092161938 0.707248687
3864800 -0.089975424 0.706516504
3878000 -0.087961018 0.705618202
3891200 -0.085961788 0.70479542
3904400 -0.083807423 0.703906357
3917600 -0.082004033 0.703181385
3930800 -0.079923115 0.702340543
3944000 -0.077957451 0.701369583
3957200 -0.076041251 0.70057851
3970400 -0.074111215 0.699630796
3983600 -0.072275266 0.698803067
3996800 -0.070356458 0.697956621
4010000 -0.068380095 0.697271704
4023200 -0.066525682 0.696228682
4036400 -0.064639456 0.6954571
4049600 -0.062687665 0.694614052
4062800 -0.060969009 0.693971395
4076000 -0.05921429 0.692878544
4089200 -0.057258389 0.692198753
4102400 -0.055400472 0.691198587
4115600 -0.05378995 0.690490782
4128800 -0.051900688 0.689439117
4142000 -0.050299625 0.688858568
4155200 -0.048249058 0.687983989
4168400 -0.046564605 0.687173426
4181600 -0.044900525 0.686234414
4194800 -0.043287448 0.685270726
4208000 -0.041674237 0.684491991
4221200 -0.039830904 0.683764696
4234400 -0.038350246 0.682853758
4247600 -0.036464527 0.682060122
4260800 -0.034986399 0.681143879
4274000 -0.033320114 0.680495738
4287200 -0.031727142 0.679349899
4300400 -0.029782159 0.678701937
4313600 -0.02844447 0.677866578
4326800 -0.026774451 0.677160024
4340000 -0.025061884 0.676311671
4353200 -0.023472502 0.675503253
4366400 -0.022022547 0.674557268
4379600 -0.020433777 0.673911273
4392800 -0.018955659 0.673129916
4406000 -0.017327897 0.672296464
4419200 -0.015745976 0.671419918
4432400 -0.014500536 0.670687854
4445600 -0.012747069 0.670027792
4458800 -0.011284505 0.668998718
4472000 -0.009760664 0.668250024
4485200 -0.008371765 0.667471051
4498400 -0.006719174 0.666696488
4511600 -0.005147877 0.665932595
4524800 -0.003861336 0.665094673
4538000 -0.002414176 0.664387524
4551200 -0.001089552 0.6634382
4564400 0.000412937 0.662920773
4577600 0.001871911 0.662210285
4590800 0.0033579 0.661320805
4604000 0.004838882 0.660409867
4617200 0.005889392 0.659799396
4630400 0.007579069 0.658923029
4643600 0.008935469 0.658326685
4656800 0.010315938 0.657442688
4670000 0.011515738 0.656894981
4683200 0.013012902 0.655945658
4696400 0.014411645 0.655162334
4709600 0.015810562 0.654520988
4722800 0.016923753 0.653683006
4736000 0.018281664 0.653188765
4749200 0.019613089 0.652333915
4762400 0.020720401 0.651550889
4775600 0.021999953 0.650561451
4788800 0.023400999 0.649942159
4802000 0.024686586 0.649329066
4815200 0.026067748 0.648634254
4828400 0.027362925 0.647867023
4841600 0.028683302 0.647074937
4854800 0.029866266 0.646408319
4868000 0.030997354 0.645720124
4881200 0.032274305 0.645058572
4894400 0.033572629 0.64425379
4907600 0.034753024 0.643576145
4920800 0.036103583 0.642789363
4934000 0.037295754 0.642071366
4947200 0.038603272 0.641467511
4960400 0.039661839 0.640629351
4973600 0.040856741 0.64000374
4986800 0.042211949 0.639408051
5000000 0.043321639 0.638747096
5013200 0.044448975 0.637974798
5026400 0.045665379 0.637248277
5039600 0.046887312 0.636547327
5052800 0.047933749 0.63608253
5066000 0.049282763 0.635377347
5079200 0.050327654 0.634625136
5092400 0.051489777 0.633871853
5105600 0.052601516 0.633240342
5118800 0.053745534 0.632641017
5132000 0.054912682 0.631898581
5145200 0.055860172 0.631283104
5158400 0.057151205 0.630544662
5171600 0.058231636 0.629749417
5184800 0.059350732 0.629323899
5198000 0.060451749 0.628497362
5211200 0.061516292 0.627942383
5224400 0.062684811 0.627327561
5237600 0.063687741 0.626717865
5250800 0.064691327 0.62589991
5264000 0.06583289 0.625228881
5277200 0.066866964 0.624681591
5290400 0.068042516 0.624080598
5303600 0.068961724 0.623345851
5316800 0.070044405 0.622672736
5330000 0.071022711 0.622122585
5343200 0.072183653 0.621540725
5356400 0.073116704 0.620880663
5369600 0.074204497 0.620152592
5382800 0.07520911 0.619565367
5396000 0.076221875 0.6192016
5409200 0.077074274 0.618364095
5422400 0.078292429 0.617786943
5435600 0.079247169 0.617231547
5448800 0.080424278 0.616642653
5462000 0.081163302 0.615871787
5475200 0.082226745 0.615231275
5488400 0.083161242 0.614756762
5501600 0.084267072 0.614215493
5514800 0.085284441 0.613504767
5528000 0.086227297 0.61282736
5541200 0.087034031 0.612322568
5554400 0.088170066 0.611756682
5567600 0.089139491 0.6111418
5580800 0.090069718 0.610554099
5594000 0.090922862 0.609964668
5607200 0.092129543 0.609370708
5620400 0.092904001 0.608813583
5633600 0.093875601 0.608085632
5646800 0.094787724 0.607602059
5660000 0.09570381 0.60706067
5673200 0.096670173 0.606519818
5686400 0.097645007 0.605933725
5699600 0.098444014 0.605193734
5712800 0.099427923 0.604626297
5726000 0.100272178 0.604063332
5739200 0.101250126 0.603439152
5752400 0.102095723 0.603080272
5765600 0.102937608 0.602490901
5778800 0.103881768 0.601870059
5792000 0.104866363 0.601260542
5805200 0.105590261 0.600729525
5818400 0.10666994 0.60020411
5831600 0.10735616 0.599724829
5844800 0.108342632 0.599117219
5858000 0.10913784 0.598635196
5871200 0.110075421 0.59810239
5884400 0.110812082 0.5974586
5897600 0.111890994 0.59695965
5910800 0.112790167 0.596423923
5924000 0.113393381 0.595788598
5937200 0.114535689 0.595335543
5950400 0.115248389 0.594677805
5963600 0.116083942 0.594230592
5976800 0.116836994 0.593713283
5990000 0.117682889 0.593409955
6003200 0.118607521 0.592811703
6016400 0.119383037 0.592174291
6029600 0.120253875 0.591696321
6042800 0.12103264 0.591152608
6056000 0.121812842 0.590693533
6069200 0.122601628 0.590211391
6082400 0.1234916 0.589775264
6095600 0.124246403 0.589075863
6108800 0.124923415 0.58851248
6122000 0.125682964 0.5881446
6135200 0.126558914 0.587730348
6148400 0.127096742 0.587171077
6161600 0.127970099 0.586543858
6174800 0.128789037 0.586078166
6188000 0.129610508 0.585712075
6201200 0.130335018 0.585366904
6214400 0.131153523 0.584693491
6227600 0.13177742 0.584251344
6240800 0.132381558 0.583959877
6254000 0.133210375 0.583481907
6267200 0.133901715 0.583023488
6280400 0.134536996 0.582429528
6293600 0.135252863 0.582090854
6306800 0.136053353 0.581739604
6320000 0.136566594 0.581343889
6333200 0.137365788 0.580735325
6346400 0.13789238 0.580375909
6359600 0.13866572 0.580017864
6372800 0.139289692 0.579748749
6386000 0.140105187 0.579408168
6399200 0.14060381 0.578835666
6412400 0.14112921 0.578576803
6425600 0.141736522 0.578334689
6438800 0.142423361 0.577882051
6452000 0.143224343 0.577480733
6465200 0.143687337 0.577171027
6478400 0.144195452 0.576999485
6491600 0.145127177 0.576465964
6504800 0.145713105 0.576123297
6518000 0.146434217 0.575755178
6531200 0.147170782 0.575343191
6544400 0.148028418 0.574990212
6557600 0.148771658 0.574692904
6570800 0.14966391 0.574182271
6584000 0.150638103 0.573532223
6597200 0.151228502 0.572999894
6610400 0.152166634 0.572540104
6623600 0.153119817 0.572040617
6636800 0.154012471 0.571652889
6650000 0.154916122 0.570847928
6663200 0.155740782 0.57035917
6676400 0.156640991 0.569640636
6689600 0.157634794 0.569011926
6702800 0.158614411 0.568479478
6716000 0.159331902 0.567807614
6729200 0.160111427 0.567228198
6742400 0.160817235 0.566658616
6755600 0.161929771 0.565990209
6768800 0.16279231 0.565383434
6782000 0.163669615 0.564824938
6795200 0.164282724 0.564120471
6808400 0.165285721 0.563745498
6821600 0.166116759 0.562873959
6834800 0.16679351 0.562383532
6848000 0.167629331 0.562013328
6861200 0.168609052 0.56147474
6874400 0.169475764 0.560924112
6887600 0.170144736 0.560266852
6900800 0.170905932 0.559899866
6914000 0.17183727 0.559293389
6927200 0.172527506 0.558979153
6940400 0.17332296 0.558311104
6953600 0.174233794 0.55795449
6966800 0.1748517 0.557535886
6980000 0.175604164 0.557189166
6993200 0.176304802 0.556599736
7006400 0.177363768 0.556414186
7019600 0.177906617 0.555752933
7032800 0.178547874 0.555563688
7046000 0.179230332 0.555168628
7059200 0.180022746 0.554727733
7072400 0.180481195 0.554172992
7085600 0.181122183 0.553840994
7098800 0.181704103 0.553521454
7112000 0.182436406 0.553199708
7125200 0.183204188 0.552654504
7138400 0.183702856 0.552182734
7151600 0.184272155 0.551825165
7164800 0.184773713 0.551491737
7178000 0.185522243 0.551145493
7191200 0.186148375 0.55079776
7204400 0.186517685 0.550169944
7217600 0.187096536 0.55013442
7230800 0.187739863 0.549746274
7244000 0.188384622 0.549304127
7257200 0.189016029 0.548643589
7270400 0.189310953 0.54836142
7283600 0.189972624 0.548047423
7296800 0.190490618 0.547540128
7310000 0.191113129 0.547066211
7323200 0.191679581 0.546835005
7336400 0.192131102 0.546405553
7349600 0.192704558 0.545893013
7362800 0.193418502 0.54550451
7376000 0.193867236 0.545224785
7389200 0.194364696 0.544718325
7402400 0.194924756 0.544507026
7415600 0.195517212 0.543951272
7428800 0.196074113 0.54365009
7442000 0.196715012 0.54316914
7455200 0.197015926 0.542818367
7468400 0.197662711 0.542514562
7481600 0.198410376 0.542208135
7494800 0.198802456 0.541500389
7508000 0.199420109 0.541190624
7521200 0.199778735 0.540912508
7534400 0.200576364 0.540485382
7547600 0.20102261 0.540064394
7560800 0.201641738 0.539622485
7574000 0.202061608 0.539465904
7587200 0.202704146 0.538939833
7600400 0.203310653 0.538606405
7613600 0.203948274 0.538115143
7626800 0.204334259 0.537873089
7640000 0.204875558 0.537487983
7653200 0.205442965 0.537187814
7666400 0.206060037 0.536757946
7679600 0.206567317 0.536236345
7692800 0.206934794 0.535962939
7706000 0.207748159 0.535705983
7719200 0.208255127 0.53527373
7732400 0.208469524 0.53482002
7745600 0.209155961 0.534540176
7758800 0.209807306 0.534138619
7772000 0.210327968 0.533640921
7785200 0.210875034 0.53335005
7798400 0.211448207 0.532897293
7811600 0.211932659 0.53247416
7824800 0.212491467 0.532225966
7838000 0.212965413 0.531915426
7851200 0.213664442 0.531419694
7864400 0.214128956 0.531049787
7877600 0.214497327 0.530948519
7890800 0.215270608 0.530510723
7904000 0.215681225 0.530227124
7917200 0.216391161 0.529775738
7930400 0.216793507 0.529340088
7943600 0.217190459 0.529062032
7956800 0.217684432 0.528699994
7970000 0.218101501 0.528374433
7983200 0.218982234 0.52789992
7996400 0.21936582 0.527410089
8009600 0.219749882 0.527103006
8022800 0.22020626 0.52698183
8036000 0.220932438 0.526843428
8049200 0.22128801 0.526043653
8062400 0.221828311 0.525760054
8075600 0.222311079 0.52550894
8088800 0.223005563 0.525240242
8102000 0.223590046 0.524763047
8115200 0.223941072 0.524355411
8128400 0.224316865 0.524118781
8141600 0.225029751 0.523830056
8154800 0.225486919 0.523345828
8168000 0.225940525 0.523106157
8181200 0.22644329 0.522625923
8194400 0.226859346 0.522354781
8207600 0.2274248 0.522121071
8220800 0.227982819 0.521786808
