# HZ S RI R 50
50000 -0.995103955 0.020669227
79700 -0.998006582 0.036797493
109400 -0.996491491 0.050695631
139100 -0.995212197 0.064294174
168800 -0.994015634 0.077620744
198500 -0.992818892 0.090836629
228200 -0.991261482 0.103646874
257900 -0.989819765 0.116821631
287600 -0.987887144 0.129475161
317300 -0.985653281 0.142123207
347000 -0.983621895 0.154939144
376700 -0.981480836 0.167450264
406400 -0.97863537 0.180101335
436100 -0.976274669 0.192620694
465800 -0.973249137 0.204972937
495500 -0.9702304 0.217500105
525200 -0.966889977 0.229934111
554900 -0.963746547 0.242114648
584600 -0.960121393 0.254408836
614300 -0.95660448 0.266487419
644000 -0.95249927 0.278614759
673700 -0.948671162 0.290704876
703400 -0.944458186 0.302781045
733100 -0.940231502 0.31454122
762800 -0.935676813 0.326695621
792500 -0.931159317 0.338344782
822200 -0.925973713 0.350254505
851900 -0.921326994 0.361851841
881600 -0.9159379 0.373319894
911300 -0.910798668 0.385013669
941000 -0.905196845 0.39633879
970700 -0.8995682 0.407995492
1000400 -0.893690168 0.419121742
1030100 -0.887658476 0.430496066
1059800 -0.881472527 0.441555798
1089500 -0.87545377 0.452537566
1119200 -0.868562281 0.463624745
1148900 -0.862113416 0.474581837
1178600 -0.855058848 0.485347241
1208300 -0.848132848 0.49602434
1238000 -0.841080427 0.506590187
1267700 -0.83361715 0.51693052
1297400 -0.825957357 0.527430295
1327100 -0.818300008 0.537661194
1356800 -0.810357749 0.547979056
1386500 -0.802248179 0.557910501
1416200 -0.793681442 0.567759692
1445900 -0.785344958 0.577376425
1475600 -0.776478409 0.58707422
1505300 -0.767983078 0.596248686
1535000 -0.758685886 0.605631649
1564700 -0.749578416 0.614541292
1594400 -0.740024626 0.623370885
1624100 -0.730611085 0.631837368
1653800 -0.721046864 0.64036256
1683500 -0.710913181 0.648536741
1713200 -0.701145231 0.656699001
1742900 -0.690807938 0.664253711
1772600 -0.680742204 0.671611249
1802300 -0.670138657 0.679000556
1832000 -0.659412622 0.685818791
1861700 -0.649041831 0.692691564
1891400 -0.638140857 0.698955655
1921100 -0.627447724 0.705169498
1950800 -0.616537749 0.711227416
1980500 -0.605739176 0.716586709
2010200 -0.594902873 0.722088992
2039900 -0.583668112 0.727068781
2069600 -0.572653949 0.731964826
2099300 -0.561747908 0.736145377
2129000 -0.550901949 0.740574181
2158700 -0.539973855 0.744540035
2188400 -0.529247879 0.7481637
2218100 -0.518211603 0.751743257
2247800 -0.507211208 0.754657447
2277500 -0.496296793 0.75774002
2307200 -0.485619574 0.760452926
2336900 -0.474690705 0.762797534
2366600 -0.464416384 0.765176057
2396300 -0.453727245 0.766984224
2426000 -0.443632334 0.768682479
2455700 -0.433282405 0.770386636
2485400 -0.422934085 0.771679878
2515100 -0.413169205 0.772644758
2544800 -0.403219193 0.773723363
2574500 -0.393429368 0.774551391
2604200 -0.383554309 0.775326907
2633900 -0.37400642 0.775656223
2663600 -0.364766925 0.77612555
2693300 -0.35539323 0.776225984
2723000 -0.346261829 0.776325345
2752700 -0.337097585 0.776270866
2782400 -0.328171074 0.77586013
2812100 -0.319359093 0.775725722
2841800 -0.310672879 0.775126576
2871500 -0.302266806 0.774440944
2901200 -0.293979644 0.773990929
2930900 -0.285616934 0.773272812
2960600 -0.277431696 0.772300779
2990300 -0.269546568 0.771239161
3020100 -0.261618793 0.770278275
3049801 -0.253878414 0.768998146
3079501 -0.246290683 0.767777085
3109201 -0.238726586 0.766637504
3138901 -0.231418967 0.765244841
3168601 -0.224290743 0.763901293
3198301 -0.217150866 0.762374937
3228001 -0.210101127 0.760953485
3257701 -0.203143253 0.759432613
3287401 -0.1963986 0.757917642
3317101 -0.189725592 0.756253659
3346801 -0.183308616 0.754580259
3376501 -0.176791042 0.752821624
3406201 -0.170488491 0.751098036
3435901 -0.164245426 0.749377489
3465601 -0.158210426 0.747771978
3495301 -0.152322128 0.745983779
3525001 -0.14632751 0.744082272
3554701 -0.140497073 0.742135465
3584401 -0.134839907 0.740261018
3614101 -0.129375755 0.738252937
3643801 -0.1239371 0.736327409
3673501 -0.118355065 0.734418809
3703201 -0.113152645 0.732366144
3732901 -0.10787113 0.730462849
3762601 -0.102760888 0.728492081
3792301 -0.097526103 0.726595163
3822001 -0.092674911 0.724653363
3851701 -0.087620079 0.722413778
3881401 -0.083001136 0.720545589
3911101 -0.07814788 0.718589723
3940801 -0.073567621 0.716659307
3970501 -0.069079048 0.714768707
4000201 -0.064468719 0.712773144
4029901 -0.060014586 0.710797846
4059601 -0.055629458 0.70886749
4089301 -0.051435075 0.706823229
4119001 -0.047169931 0.70483607
4148701 -0.04318967 0.702760219
4178401 -0.039038412 0.700944423
4208101 -0.034928768 0.699002802
4237801 -0.031098261 0.697040438
4267501 -0.027107143 0.69516462
4297201 -0.023270566 0.693119585
4326901 -0.019598852 0.69129616
4356601 -0.015801323 0.689433693
4386301 -0.012189934 0.687503993
4416001 -0.008590077 0.685554087
4445701 -0.004892039 0.683731198
4475401 -0.001426525 0.681998074
4505101 0.001930387 0.679933726
4534801 0.005346732 0.678241372
4564501 0.008870407 0.676378965
4594201 0.012150766 0.674514949
4623901 0.015353029 0.672635555
4653601 0.018617985 0.670793354
4683301 0.021842975 0.66920787
4713001 0.0249728 0.667415618
4742701 0.028042715 0.665552616
4772401 0.03098873 0.663874387
4802101 0.034195452 0.662237644
4831801 0.037118244 0.660536766
4861501 0.040090158 0.658654808
4891201 0.042900148 0.657094717
4920901 0.045702707 0.655373513
4950601 0.048543423 0.65386343
4980301 0.051422562 0.652022659
5010001 0.054195731 0.650450587
5039701 0.056926921 0.648853123
5069401 0.059588789 0.647189557
5099101 0.062257401 0.645620942
5128801 0.064802408 0.643904924
5158501 0.067456088 0.642450869
5188201 0.069999016 0.640796184
5217901 0.072499416 0.639282226
5247601 0.075054436 0.637729585
5277301 0.077689647 0.636316299
5307001 0.07999204 0.634729146
5336701 0.082506746 0.633382499
5366401 0.08473768 0.631806433
5396101 0.087101683 0.63036412
5425801 0.089519709 0.628766179
5455501 0.091872759 0.627253472
5485201 0.094162791 0.625754892
5514901 0.096393592 0.624353647
5544601 0.098692424 0.62311697
5574301 0.100978001 0.621730208
5604001 0.103041768 0.620262682
5633701 0.105313003 0.618850648
5663401 0.107414335 0.617567479
5693101 0.109575673 0.616241395
5722801 0.111701495 0.614667415
5752501 0.113817147 0.613393902
5782201 0.115891776 0.612015366
5811901 0.117996715 0.610803782
5841601 0.119955129 0.609514892
5871301 0.121988274 0.608405351
5901001 0.123989611 0.606999874
5930701 0.125855445 0.605678498
5960401 0.127811655 0.604347705
5990101 0.129674643 0.60336399
6019901 0.131522819 0.602045714
6049602 0.133484631 0.600811719
6079302 0.135377436 0.599702119
6109002 0.137312099 0.598420321
6138702 0.139014452 0.597291171
6168402 0.140888482 0.596050918
6198102 0.142434149 0.594953715
6227802 0.144143879 0.593770503
6257502 0.14579074 0.592890202
6287202 0.147303715 0.591768026
6316902 0.149029403 0.590746343
6346602 0.150501787 0.589687108
6376302 0.151992887 0.588833212
6406002 0.153314113 0.58814311
6435702 0.15493308 0.587297081
6465402 0.156317278 0.586398959
6495102 0.157920718 0.585509061
6524802 0.159580275 0.584711313
6554502 0.161367431 0.583568692
6584202 0.163276284 0.582615494
6613902 0.165180295 0.581297457
6643602 0.167370483 0.580017089
6673302 0.169465288 0.578561305
6703002 0.171543121 0.577089071
6732702 0.173266693 0.575634598
6762402 0.175320327 0.574093878
6792102 0.177327722 0.572868466
6821802 0.179358184 0.571519613
6851502 0.181186065 0.570209681
6881202 0.183099478 0.569072604
6910902 0.184858962 0.567707002
6940602 0.186584994 0.566839396
6970302 0.188321903 0.565642774
7000002 0.190168723 0.564807057
7029702 0.191718772 0.563788235
7059402 0.193373307 0.562968015
7089102 0.194747835 0.561906874
7118802 0.196025863 0.560959994
7148502 0.197552829 0.560030758
7178202 0.19886443 0.559024274
7207902 0.200285896 0.558245539
7237602 0.201500505 0.557377755
7267302 0.202797546 0.556449115
7297002 0.204233139 0.55546683
7326702 0.205433309 0.554494261
7356402 0.206756219 0.553444683
7386102 0.207891449 0.552614986
7415802 0.209139838 0.551665902
7445502 0.210502207 0.550450861
7475202 0.211848095 0.549727797
7504902 0.213128313 0.548967719
7534602 0.2142625 0.548028826
7564302 0.215580806 0.547138452
7594002 0.21692799 0.546246051
7623702 0.21800071 0.545333147
7653402 0.219390705 0.544450283
7683102 0.220456406 0.543555378
7712802 0.221812948 0.542786777
7742502 0.223123699 0.541789174
7772202 0.224536523 0.54085052
7801902 0.225550934 0.54010117
7831602 0.226735502 0.53938055
7861302 0.228105351 0.538406074
7891002 0.229250431 0.537641823
7920702 0.230576008 0.536795318
7950402 0.231632679 0.535842001
7980102 0.232917189 0.535112798
8009802 0.233981534 0.534416258
8039502 0.235097706 0.533371746
8069202 0.236461102 0.532621085
8098902 0.237498089 0.531769335
8128602 0.238625034 0.530939519
8158302 0.239892274 0.530110955
8188002 0.240868449 0.52919799
8217702 0.242104738 0.52853614
8247402 0.243209391 0.527672827
8277102 0.244582667 0.526813268
8306802 0.245671749 0.526148021
8336502 0.246882662 0.525516867
8366202 0.247897133 0.52472639
8395902 0.249087467 0.523890078
8425602 0.25018087 0.523015916
8455302 0.25122109 0.522401332
8485002 0.252398997 0.521710455
8514702 0.253300875 0.520904541
8544402 0.254332751 0.519934594
8574102 0.25542882 0.519291222
8603802 0.256497263 0.518421292
8633502 0.257603943 0.517758548
8663202 0.258884757 0.516965806
8692902 0.259776532 0.516359746
8722602 0.260725766 0.515609204
8752302 0.261906653 0.51499176
8782002 0.262958347 0.514233529
8811702 0.263893216 0.51324445
8841402 0.264945507 0.512677371
8871102 0.266097426 0.512062311
8900802 0.267061561 0.511258184
8930502 0.268017917 0.510667026
8960202 0.269008338 0.509845018
8989902 0.270002007 0.509047925
9019702 0.271074473 0.508357822
9049403 0.27185297 0.507683694
9079103 0.273088961 0.507003664
9108803 0.274277895 0.506362676
9138503 0.275128424 0.505676448
9168203 0.275999933 0.504941105
9197903 0.276900231 0.504190564
9227603 0.277980536 0.503727912
9257303 0.278894931 0.502955615
9287003 0.279890596 0.502275764
9316703 0.281056195 0.50164175
9346403 0.281935662 0.500917613
9376103 0.282809257 0.500379383
9405803 0.283829838 0.49963656
9435503 0.284797221 0.498947203
9465203 0.285632848 0.498416215
9494903 0.286790251 0.497623831
9524603 0.287672638 0.497063487
9554303 0.288431882 0.496283084
9584003 0.289438098 0.495723009
9613703 0.290399193 0.494931906
9643403 0.291417419 0.494485408
9673103 0.292413413 0.493928641
9702803 0.293224275 0.493122398
9732503 0.294124126 0.492598891
9762203 0.295010566 0.491824179
9791903 0.295992076 0.491140484
9821603 0.296920895 0.49074164
9851303 0.297729045 0.489955753
9881003 0.298700302 0.489380955
9910703 0.299565583 0.488727092
9940403 0.300428599 0.488239705
9970103 0.30132243 0.487493425
9999803 0.302262425 0.486870765
10029503 0.302910476 0.486405313
10059203 0.303909987 0.485688537
10088903 0.304708063 0.485276609
10118603 0.305649608 0.484524458
10148303 0.306442975 0.48406127
10178003 0.307307064 0.483333796
10207703 0.308188259 0.482835829
10237403 0.309073209 0.482251226
10267103 0.309925377 0.481495499
10296803 0.310620814 0.480946123
10326503 0.311645716 0.480372071
10356203 0.312354505 0.479899108
10385903 0.31299591 0.479184508
10415603 0.314000815 0.478641182
10445303 0.314858824 0.47798708
10475003 0.315733313 0.477448046
10504703 0.316348671 0.476835548
10534403 0.317341417 0.476414233
10564103 0.317913353 0.475778967
10593803 0.318891495 0.475190937
10623503 0.319749712 0.474615722
10653203 0.320549279 0.474143981
10682903 0.321296513 0.473598152
10712603 0.321866422 0.472972869
10742303 0.322672158 0.472517043
10772003 0.323578864 0.471925884
10801703 0.324406445 0.471315264
10831403 0.325137823 0.470789015
10861103 0.32601884 0.470290631
10890803 0.326662778 0.469700127
10920503 0.327477574 0.469108372
10950203 0.328209608 0.468549698
10979903 0.32898271 0.46812573
11009603 0.329686015 0.467567533
11039303 0.330560535 0.467020332
11069003 0.331393897 0.466604113
11098703 0.331959307 0.465904891
11128403 0.33276984 0.465485334
11158103 0.333510637 0.464756548
11187803 0.334105193 0.464358448
11217503 0.334948539 0.463925004
11247203 0.335607498 0.463329553
11276903 0.336429387 0.462638139
11306603 0.337179154 0.46241793
11336303 0.337898313 0.461931526
11366003 0.338651925 0.46127507
11395703 0.339074581 0.460704684
11425403 0.340103268 0.460200726
11455103 0.340706348 0.459792196
11484803 0.341486483 0.459258735
11514503 0.342157006 0.458675205
11544203 0.342853456 0.458167999
11573903 0.343689352 0.457689195
11603603 0.34440416 0.45719403
11633303 0.344990849 0.45658192
11663003 0.345682233 0.456168085
11692703 0.346300423 0.455852419
11722403 0.347114264 0.45521596
11752103 0.347795814 0.454788386
11781803 0.348305791 0.454250931
11811503 0.348959416 0.453694701
11841203 0.349827677 0.453342527
11870903 0.350488156 0.452824383
11900603 0.351284891 0.452304184
11930303 0.351662874 0.451793789
11960003 0.352597743 0.451373517
11989703 0.353141635 0.45094493
12019503 0.353846251 0.450433105
12049204 0.354708254 0.449776649
12078904 0.355143815 0.449477046
12108604 0.356065094 0.448985695
12138304 0.356701344 0.448565006
12168004 0.357219457 0.447979062
12197704 0.35789591 0.447509676
12227404 0.358355402 0.447137892
12257104 0.359356552 0.446666717
12286804 0.359657526 0.446118831
12316504 0.3603338 0.445629715
12346204 0.360958725 0.444983482
12375904 0.361725538 0.444847702
12405604 0.362219095 0.444314628
12435304 0.362819164 0.443788737
12465004 0.363456577 0.443433851
12494704 0.364216387 0.44301483
12524404 0.364741623 0.442537456
12554104 0.365600883 0.442071884
12583804 0.366102427 0.441740393
12613504 0.366750329 0.441121995
12643204 0.367294341 0.440758019
12672904 0.367888152 0.440273642
12702604 0.368587404 0.439873903
12732304 0.369239896 0.439514547
12762004 0.369793713 0.438984066
12791704 0.370336085 0.438583999
12821404 0.371075361 0.438005626
12851104 0.371587395 0.437660306
12880804 0.372188299 0.437281787
12910504 0.372564673 0.436684668
12940204 0.373404771 0.436459451
12969904 0.373972684 0.436007976
12999604 0.374465644 0.43552652
13029304 0.375288039 0.435027241
13059004 0.375612318 0.434482634
13088704 0.376429736 0.434233099
13118404 0.376967728 0.4336389
13148104 0.377482175 0.433416694
13177804 0.377951145 0.432840138
13207504 0.378763139 0.432520687
13237204 0.379172205 0.432129919
13266904 0.379786312 0.431661754
13296604 0.380330741 0.431343913
13326304 0.381047755 0.430908113
13356004 0.381611168 0.430439591
13385704 0.382040411 0.429997175
13415404 0.382766187 0.429496616
13445104 0.383237391 0.429123818
13474804 0.383758902 0.428682059
13504504 0.384351074 0.428251862
13534204 0.384824395 0.427906453
13563904 0.385460227 0.42748776
13593604 0.386059373 0.427256107
13623304 0.38646689 0.426742672
13653004 0.387062132 0.426330357
13682704 0.387803226 0.425841778
13712404 0.388265609 0.425545722
13742104 0.388799309 0.425246536
13771804 0.389307409 0.424660891
13801504 0.389777362 0.424303591
13831204 0.390425711 0.42400521
13860904 0.390902251 0.423497766
13890604 0.391435623 0.423146694
13920304 0.392043292 0.422744631
13950004 0.392302095 0.422255188
13979704 0.3930597 0.422019451
14009404 0.39351353 0.421658307
14039104 0.39411807 0.421344757
14068804 0.394754469 0.420735329
14098504 0.395278036 0.420474469
14128204 0.39572817 0.420065104
14157904 0.396193802 0.419707924
14187604 0.396547168 0.419308185
14217304 0.397325158 0.418897718
14247004 0.397735595 0.418406367
14276704 0.398393899 0.418264865
14306404 0.398983299 0.41783601
14336104 0.399203211 0.417399942
14365804 0.399809449 0.416895776
14395504 0.400436103 0.416702836
14425204 0.400873601 0.416141241
14454904 0.401493012 0.415863126
14484604 0.401940941 0.415472507
14514304 0.402488619 0.415038764
14544004 0.402795433 0.414698779
14573704 0.403469592 0.414259582
14603404 0.403983443 0.414154678
14633104 0.404397696 0.413653641
14662804 0.404797941 0.413178235
14692504 0.405412048 0.412674188
14722204 0.405947655 0.412455558
14751904 0.406340241 0.412157148
14781604 0.406834632 0.411809951
14811304 0.407511532 0.411469936
14841004 0.407965242 0.411036252
14870704 0.408387333 0.410655438
14900404 0.408877313 0.410286575
14930104 0.409247279 0.409938454
14959804 0.409814208 0.409576296
14989504 0.410281747 0.409239739
15019304 0.41075471 0.408899456
15049005 0.411133229 0.408637195
15078705 0.411899209 0.408223718
15108405 0.412118226 0.407720834
15138105 0.4125216 0.407500326
15167805 0.413360804 0.407068818
15197505 0.413469731 0.406755596
15227205 0.413992315 0.406443595
15256905 0.414547383 0.406115561
15286605 0.415170133 0.40571314
15316305 0.415540218 0.405331581
15346005 0.415844202 0.405029118
15375705 0.416498899 0.404642134
15405405 0.416938841 0.404476732
15435105 0.417390644 0.404021292
15464805 0.417724758 0.403591722
15494505 0.418206781 0.403231084
15524205 0.41859427 0.402956008
15553905 0.419184505 0.40271905
15583605 0.419723629 0.402212679
15613305 0.42018339 0.40205717
15643005 0.420624315 0.401580184
15672705 0.421003788 0.401356965
15702405 0.421427607 0.400728762
15732105 0.421890318 0.400487571
15761805 0.422365665 0.400318473
15791505 0.422785401 0.399897038
15821205 0.423275023 0.39969179
15850905 0.423686861 0.399221032
15880605 0.424078494 0.398894816
15910305 0.424624025 0.39854151
15940005 0.425087124 0.398349016
15969705 0.42539376 0.397937059
15999405 0.425870925 0.397540301
16029105 0.426187515 0.397193372
16058805 0.426640421 0.397040873
16088505 0.427184939 0.396757751
16118205 0.427610754 0.396366268
16147905 0.428049355 0.395996689
16177605 0.428390264 0.395635098
16207305 0.428947359 0.395206749
16237005 0.429418325 0.395025759
16266705 0.429884552 0.394746452
16296405 0.430186122 0.394584745
16326105 0.430670291 0.394040226
16355805 0.431019604 0.393652021
16385505 0.431484878 0.393337815
16415205 0.431959092 0.393144607
16444905 0.432220935 0.392943799
16474605 0.432742118 0.392409861
16504305 0.433160066 0.392083942
16534005 0.43369463 0.391907751
16563705 0.433976292 0.391544491
16593405 0.434441447 0.391189694
16623105 0.434815436 0.390815526
16652805 0.43515706 0.39065209
16682505 0.435591697 0.3903099
16712205 0.436031371 0.38992989
16741905 0.436553537 0.389693826
16771605 0.436876535 0.389236867
16801305 0.437310934 0.389125108
16831005 0.437690913 0.388695627
16860705 0.438214123 0.388448596
16890405 0.438420951 0.388130903
16920105 0.438899636 0.38784939
16949805 0.439189076 0.387515127
16979505 0.439761251 0.387120395
17009205 0.439989656 0.386771231
17038905 0.440577149 0.386613905
17068605 0.440954864 0.38616541
17098305 0.441309928 0.385890871
17128005 0.441780388 0.385494768
17157705 0.442208796 0.385320663
17187405 0.442477256 0.384945601
17217105 0.442951828 0.384871125
17246805 0.44323799 0.38445279
17276505 0.443612426 0.384244829
17306205 0.444234877 0.383956998
17335905 0.444420635 0.383489996
17365605 0.444834172 0.383277773
17395305 0.445193767 0.382880002
17425005 0.445718288 0.382639199
17454705 0.445910662 0.382348895
17484405 0.446514427 0.382060915
17514105 0.446838885 0.381662458
17543805 0.447313636 0.38153395
17573505 0.447550535 0.381210774
17603205 0.447852671 0.380946427
17632905 0.44837892 0.380671471
17662605 0.44900462 0.380484223
17692305 0.449073165 0.379975169
17722005 0.449629753 0.379866868
17751705 0.449803322 0.379403144
17781405 0.450236678 0.379145026
17811105 0.450653493 0.378860861
17840805 0.4509525 0.378680735
17870505 0.451372623 0.378390133
17900205 0.451766312 0.378087908
17929905 0.452169597 0.377664387
17959605 0.452360004 0.377487927
17989305 0.452801764 0.377134978
18019005 0.453421175 0.37696281
18048806 0.453637152 0.376560717
18078506 0.453875571 0.376314938
18108206 0.45411235 0.37605071
18137906 0.454672008 0.375724077
18167606 0.455065041 0.375486642
18197306 0.45537889 0.375057995
18227006 0.455682635 0.374891698
18256706 0.45620051 0.37460345
18286406 0.456519126 0.374388426
18316106 0.456651389 0.374028146
