# HZ S RI R 50
50000 -0.744973957 0.638294756
94500 -0.341291904 0.928141534
139100 0.029131134 0.988469123
183700 0.298365443 0.94315356
228300 0.48342961 0.863744378
272800 0.610175192 0.780065238
317400 0.698897838 0.702346026
362000 0.762579202 0.63333851
406600 0.808998703 0.573089718
451200 0.844293713 0.520474433
495700 0.871073126 0.47453165
540300 0.891949951 0.433696597
584900 0.908561706 0.397985994
629500 0.92208302 0.366187363
674100 0.933091461 0.337508618
718600 0.942203164 0.311849653
763200 0.94959414 0.288219869
807800 0.955818653 0.266681522
852400 0.961231112 0.2472741
897000 0.965978145 0.229095667
941500 0.969667553 0.212117269
986100 0.972925901 0.196207299
1030700 0.975692451 0.181413501
1075300 0.978020191 0.167557254
1119800 0.980295538 0.154554322
1164400 0.981990098 0.142294034
1209000 0.983542561 0.130573213
1253600 0.984774172 0.11957255
1298200 0.986026704 0.108968578
1342700 0.986872494 0.098905481
1387300 0.987534582 0.089034341
1431900 0.987956345 0.079765565
1476500 0.988423764 0.070841312
1521100 0.988857388 0.06220268
1565600 0.989015936 0.054015319
1610200 0.98908174 0.045986745
1654800 0.988855957 0.038193657
1699400 0.988683998 0.030874716
1744000 0.988744974 0.023627419
1788500 0.988507926 0.01657762
1833100 0.988151073 0.009955293
1877700 0.987924277 0.003223624
1922300 0.98721826 -0.00298726
1966800 0.986895561 -0.009236299
2011400 0.986320912 -0.015322245
2056000 0.98585689 -0.020955553
2100600 0.985474705 -0.026693072
2145200 0.984874129 -0.032068554
2189700 0.984332323 -0.037665415
2234300 0.983649551 -0.042921014
2278900 0.982830107 -0.048161104
2323500 0.982038676 -0.053526066
2368100 0.981295228 -0.058611709
2412600 0.980748951 -0.063223175
2457200 0.980087161 -0.067895919
2501800 0.979268908 -0.072718217
2546400 0.978409469 -0.077093958
2591000 0.978031933 -0.081726893
2635500 0.977124392 -0.08611948
2680100 0.976324856 -0.090293481
2724700 0.975654006 -0.094792082
2769300 0.974806725 -0.098942697
2813800 0.974340796 -0.103157892
2858400 0.973526537 -0.106966599
2903000 0.972718238 -0.111368581
2947600 0.97192949 -0.115355357
2992200 0.971213221 -0.11931838
3036700 0.970668852 -0.123201422
3081300 0.969641804 -0.126927942
3125900 0.969150066 -0.130933523
3170500 0.968154609 -0.134855106
3215100 0.967588961 -0.138475731
3259600 0.966847896 -0.142117455
3304200 0.965973258 -0.145959571
3348800 0.965475976 -0.149424493
3393400 0.964315414 -0.15298219
3438000 0.963806271 -0.156507372
3482500 0.963104009 -0.16007404
3527100 0.962239444 -0.163598641
3571700 0.961388826 -0.167351603
3616300 0.96057415 -0.170790374
3660800 0.959845125 -0.174201637
3705400 0.959225714 -0.177634254
3750000 0.958442926 -0.181043475
3794600 0.957579016 -0.18443416
3839200 0.956884562 -0.18779473
3883700 0.955804228 -0.191234618
3928300 0.95511049 -0.194505676
3972900 0.954343557 -0.197822406
4017500 0.953781008 -0.200884565
4062100 0.952662229 -0.20436801
4106600 0.95197159 -0.207528069
4151200 0.951079547 -0.210834473
4195800 0.950370907 -0.214188769
4240400 0.949365258 -0.217179611
4285000 0.948735296 -0.220300853
4329500 0.947750747 -0.223628357
4374100 0.947004139 -0.226767063
4418700 0.945910811 -0.229833304
4463300 0.945204317 -0.233033344
4507900 0.944470226 -0.236233592
4552479 0.943563163 -0.239062502
4596979 0.942480504 -0.242538914
4641579 0.941569566 -0.245622366
4686179 0.940927028 -0.248502567
4730779 0.940184354 -0.251488715
4775279 0.939032375 -0.254505336
4819879 0.938512206 -0.257712393
4864479 0.937456965 -0.260686874
4909079 0.936464667 -0.263385176
4953679 0.935495615 -0.266724973
4998179 0.934689104 -0.269712239
5042779 0.933831155 -0.272731065
5087379 0.932810485 -0.275463372
5131979 0.931819796 -0.278377741
5176579 0.930887341 -0.281630098
5221079 0.930064439 -0.284436553
5265679 0.929134368 -0.287521809
5310279 0.928282201 -0.290388047
5354879 0.927258074 -0.293053865
5399479 0.926098525 -0.29619199
5443979 0.925131499 -0.298873245
5488579 0.924214959 -0.302039176
5533179 0.923651039 -0.304791092
5577779 0.922305524 -0.30747044
5622279 0.921267211 -0.310355484
5666879 0.920468568 -0.313248515
5711479 0.919368386 -0.316119253
5756079 0.918377518 -0.318988472
5800679 0.917363762 -0.321758896
5845179 0.916405022 -0.324707359
5889779 0.915399074 -0.327183067
5934379 0.914312243 -0.330099225
5978979 0.913367927 -0.332980126
6023579 0.912627518 -0.335611015
6068079 0.911474883 -0.338014155
6112679 0.910497665 -0.340909421
6157279 0.909641802 -0.343301504
6201879 0.908821821 -0.346141815
6246479 0.908079504 -0.348530232
6290979 0.90750873 -0.350975871
6335579 0.90686649 -0.353089511
6380179 0.906400918 -0.355216592
6424779 0.905910134 -0.357410818
6469279 0.905537128 -0.359676241
6513879 0.905070543 -0.362185359
6558479 0.904304683 -0.365257829
6603079 0.903064846 -0.368689
6647679 0.901144266 -0.372361272
6692179 0.89897859 -0.375818252
6736779 0.896584212 -0.379514664
6781379 0.894508779 -0.382790774
6825979 0.892237603 -0.386387258
6870579 0.890400886 -0.389853507
6915079 0.889044344 -0.393095135
6959679 0.887440323 -0.396539241
7004279 0.886092245 -0.399351567
7048879 0.884867608 -0.402400255
7093479 0.884299933 -0.405009031
7137979 0.883210003 -0.407412409
7182579 0.882383346 -0.409858405
7227179 0.881613254 -0.412530541
7271779 0.880388736 -0.414545595
7316279 0.878953516 -0.417184561
7360879 0.877888381 -0.419818967
7405479 0.87675184 -0.422218531
7450079 0.875649571 -0.424713045
7494679 0.874406099 -0.427234172
7539179 0.873231649 -0.429867058
7583779 0.871606349 -0.432125478
7628379 0.870277106 -0.434484511
7672979 0.869041025 -0.437382876
7717579 0.867953419 -0.439819544
7762079 0.866443514 -0.442430853
7806679 0.865276396 -0.444837421
7851279 0.863902926 -0.447217255
7895879 0.862370967 -0.44988197
7940479 0.861358582 -0.452441543
7984979 0.859968364 -0.454923003
8029579 0.858360767 -0.45751512
8074179 0.857016921 -0.459996104
8118779 0.855645358 -0.462621808
8163279 0.854407846 -0.465144425
8207879 0.852880716 -0.467474788
8252479 0.851458966 -0.470013499
8297079 0.850252866 -0.472615838
8341679 0.848482608 -0.474850654
8386179 0.847243368 -0.477859109
8430779 0.84590888 -0.480065256
8475379 0.844358682 -0.482297658
8519979 0.842983067 -0.485174238
8564579 0.841407418 -0.487360268
8609079 0.840162098 -0.489977061
8653679 0.83870995 -0.492267221
8698279 0.837040543 -0.494789421
8742879 0.835425794 -0.497425407
8787479 0.834274828 -0.500044286
8831979 0.832623958 -0.502427816
8876579 0.831302165 -0.504600882
8921179 0.82969439 -0.507279038
8965779 0.828422844 -0.509384512
9010379 0.826548755 -0.512093424
9054958 0.825429141 -0.514592111
9099458 0.823785006 -0.51689887
9144058 0.822133302 -0.519329845
9188658 0.820313155 -0.521862447
9233258 0.818931639 -0.524095177
9277758 0.817422032 -0.526800334
9322358 0.815900802 -0.529150545
9366958 0.814176321 -0.531556725
9411558 0.812528133 -0.533792793
9456158 0.810865163 -0.536432743
9500658 0.809394538 -0.538889706
9545258 0.807754576 -0.541466653
9589858 0.806313574 -0.543835222
9634458 0.804486513 -0.54591763
9679058 0.802984297 -0.548255205
9723558 0.801376879 -0.550711154
9768158 0.799607038 -0.553189694
9812758 0.798120796 -0.55562663
9857358 0.796393573 -0.558131754
9901958 0.794940531 -0.560283541
9946458 0.793012559 -0.562752962
9991058 0.791528165 -0.564992368
10035658 0.789804816 -0.567256212
10080258 0.78824836 -0.569618999
10124758 0.786286234 -0.572162389
10169358 0.784783363 -0.574602961
10213958 0.783070981 -0.576585948
10258558 0.780980587 -0.579028725
10303158 0.779409408 -0.581332981
10347658 0.777628123 -0.583877742
10392258 0.776197254 -0.586123287
10436858 0.774204194 -0.588116645
10481458 0.772574305 -0.590668439
10526058 0.770791471 -0.592723071
10570558 0.768948018 -0.595259249
10615158 0.767264425 -0.597380459
10659758 0.765639901 -0.59960699
10704358 0.763671159 -0.601938188
10748958 0.762019157 -0.60414958
10793458 0.760274708 -0.606355845
10838058 0.758281052 -0.608689188
10882658 0.756452083 -0.610878288
10927258 0.754844546 -0.613341689
10971758 0.753116548 -0.615316331
11016358 0.751014709 -0.617596924
11060958 0.74940896 -0.620005488
11105558 0.747435033 -0.62185949
11150158 0.745595514 -0.62427622
11194658 0.743622183 -0.626214981
11239258 0.741962373 -0.628555059
11283858 0.739881038 -0.630560517
11328458 0.738032281 -0.633099436
11373058 0.736422538 -0.635056018
11417558 0.734388768 -0.637012302
11462158 0.732407927 -0.639521598
11506758 0.730767488 -0.641648352
11551358 0.728846728 -0.643781661
11595958 0.726929962 -0.646084189
11640458 0.724903404 -0.647999048
11685058 0.723086357 -0.650199532
11729658 0.721182942 -0.65237075
11774258 0.719176888 -0.65432924
11818758 0.71730417 -0.656406998
11863358 0.715463519 -0.658617258
11907958 0.713429212 -0.660895764
11952558 0.711711108 -0.662894725
11997158 0.709611654 -0.664894223
12041658 0.707643985 -0.666889846
12086258 0.705611944 -0.668892383
12130858 0.703640282 -0.671295523
12175458 0.701825201 -0.67311871
12220058 0.699688374 -0.675010204
12264558 0.69773823 -0.67711538
12309158 0.695556402 -0.679139852
12353758 0.693999767 -0.6813156
12398358 0.691731512 -0.683338224
12442958 0.689633965 -0.685294508
12487458 0.687779188 -0.687566816
12532058 0.685842335 -0.689220845
12576658 0.683610916 -0.691296994
12621258 0.681611239 -0.693357348
12665758 0.679614305 -0.695417463
12710358 0.677738428 -0.69744569
12754958 0.67540884 -0.699197053
12799558 0.673477947 -0.701345801
12844158 0.671572923 -0.703393697
12888658 0.669228613 -0.705327093
12933258 0.667157649 -0.707019627
12977858 0.665196597 -0.709222137
13022458 0.663057446 -0.711070775
13067058 0.661249935 -0.713090658
13111558 0.658905327 -0.714760541
13156158 0.657051682 -0.716944098
13200758 0.654843986 -0.718454837
13245358 0.652927935 -0.720662891
13289958 0.650481045 -0.722454726
13334458 0.648483276 -0.724166572
13379058 0.646211862 -0.726320087
13423658 0.644317388 -0.728214859
13468258 0.642130017 -0.730098724
13512858 0.640176773 -0.731642186
13557437 0.638073384 -0.733730077
13601937 0.635620594 -0.735440135
13646537 0.6335119 -0.737462222
13691137 0.631411075 -0.7393229
13735737 0.629235625 -0.741125643
13780237 0.627076506 -0.742901682
13824837 0.624858915 -0.74468857
13869437 0.62269926 -0.746415734
13914037 0.620607912 -0.748305559
13958637 0.618246138 -0.750075817
14003137 0.61616522 -0.751917541
14047737 0.614075183 -0.753721773
14092337 0.61185348 -0.755524337
14136937 0.609691202 -0.757333457
14181437 0.607352852 -0.759041845
14226037 0.605185091 -0.760751605
14270637 0.603070259 -0.762512445
14315237 0.600668013 -0.764133036
14359837 0.598431825 -0.766027092
14404337 0.596235394 -0.767593026
14448937 0.593960642 -0.769346535
14493537 0.591813087 -0.77116388
14538137 0.589446365 -0.772737622
14582637 0.587263882 -0.774574875
14627237 0.584964275 -0.776076912
14671837 0.582680463 -0.777768433
14716437 0.580250501 -0.779639422
14761037 0.578297436 -0.781153917
14805537 0.576159358 -0.78292936
14850137 0.573656916 -0.784553229
14894737 0.571384251 -0.786196887
14939337 0.569231808 -0.787926137
14983837 0.56695652 -0.789594292
15028437 0.564498603 -0.790964901
15073037 0.562297821 -0.792806923
15117637 0.559899508 -0.794316053
15162237 0.557706832 -0.795854687
15206737 0.555345535 -0.797438144
15251337 0.553155183 -0.799073517
15295937 0.5507676 -0.800647675
15340537 0.548233747 -0.802335202
15385037 0.546364665 -0.803843319
15429637 0.543667256 -0.805516481
15474237 0.541312992 -0.806950449
15518837 0.538969755 -0.808511435
15563437 0.536744654 -0.810121357
15607937 0.534506618 -0.811771631
15652537 0.532021045 -0.812989354
15697137 0.529739439 -0.814599394
15741737 0.527449786 -0.816363632
15786337 0.524968445 -0.817636489
15830837 0.522722542 -0.819264829
15875437 0.520020008 -0.820913493
15920037 0.51789242 -0.822231113
15964637 0.515491068 -0.823847472
16009137 0.513079941 -0.825249433
16053737 0.510570585 -0.826534569
16098337 0.508190572 -0.828024685
16142937 0.505806982 -0.829455375
16187537 0.503448486 -0.830944001
16232037 0.501038789 -0.832188963
16276637 0.498690277 -0.833796441
16321237 0.496370792 -0.835247635
16365837 0.493799269 -0.836613416
16410337 0.491500198 -0.838124573
16454937 0.48906359 -0.839371263
16499537 0.486706852 -0.840809345
16544137 0.48418644 -0.842113137
16588737 0.481911212 -0.843502104
16633237 0.479383707 -0.844873011
16677837 0.476822108 -0.846214175
16722437 0.474240958 -0.847596347
16767037 0.471963644 -0.848990797
16811537 0.469618082 -0.850269496
16856137 0.467153251 -0.85171765
16900737 0.464679539 -0.852886438
16945337 0.462217628 -0.854268312
16989937 0.459628164 -0.855653822
17034437 0.4572649 -0.857055008
17079037 0.454834073 -0.858359813
17123637 0.452196717 -0.859489262
17168237 0.449847489 -0.860726416
17212737 0.447390735 -0.862041592
17257337 0.444877773 -0.86320275
17301937 0.442380905 -0.864572346
17346537 0.439880818 -0.865829408
17391137 0.437370955 -0.866934895
17435637 0.43478325 -0.868373394
17480237 0.432371586 -0.869455099
17524837 0.42985475 -0.870673596
17569437 0.427482813 -0.871845543
17613937 0.424862384 -0.873215317
17658537 0.422386467 -0.874315202
17703137 0.419921666 -0.875527381
17747737 0.417369872 -0.876954495
17792337 0.414820253 -0.877768337
17836837 0.412392318 -0.879108786
17881437 0.409961789 -0.880326211
17926037 0.40733543 -0.88152951
17970637 0.404802411 -0.882495462
18015237 0.402034074 -0.883631944
18059916 0.399682879 -0.884671688
18104416 0.397188425 -0.885999619
18149016 0.394588857 -0.886946558
18193616 0.392137169 -0.888254642
18238216 0.389641135 -0.889543592
18282716 0.386912941 -0.890427947
18327316 0.384432613 -0.891507923
18371916 0.381617784 -0.892543315
18416516 0.379412353 -0.893806517
18461116 0.376819282 -0.894368767
18505616 0.374184101 -0.895807325
18550216 0.371598511 -0.896796822
18594816 0.368991345 -0.897858619
18639416 0.366503626 -0.898758172
18684016 0.363689929 -0.899998188
18728516 0.361384302 -0.901025772
18773116 0.35851258 -0.902014195
18817716 0.356076568 -0.90321505
18862316 0.35359615 -0.904245615
18906916 0.350766718 -0.905059993
18951416 0.348147869 -0.906203985
18996016 0.345675975 -0.907005846
19040616 0.343085825 -0.907956779
19085216 0.340508222 -0.908836483
19129716 0.337818861 -0.91000539
19174316 0.335244178 -0.910816252
19218916 0.333746016 -0.911471188
19263516 0.330204665 -0.912828505
19308116 0.327518254 -0.91370809
19352616 0.324760138 -0.914658904
19397216 0.322357416 -0.915662348
19441816 0.319532454 -0.916511476
19486416 0.317040562 -0.917150557
19531016 0.314307183 -0.918125212
19575516 0.31204161 -0.919258296
19620116 0.309364408 -0.919892311
19664716 0.30643028 -0.92060101
19709316 0.303910613 -0.921579599
19753916 0.301097452 -0.922486424
19798416 0.298704087 -0.923405349
19843016 0.296185016 -0.924025058
19887616 0.293432146 -0.924984633
19932216 0.290714412 -0.925971329
19976716 0.288190841 -0.926645219
20021316 0.285330533 -0.927402555
20065916 0.282915145 -0.928249299
20110516 0.280227422 -0.928966104
20155116 0.277548015 -0.929700195
20199616 0.274847388 -0.930401682
20244216 0.272314965 -0.93118155
20288816 0.269736498 -0.931769073
20333416 0.266832351 -0.932759404
20378016 0.26413086 -0.933500349
20422516 0.261661648 -0.934163093
20467116 0.259120136 -0.93502742
20511716 0.256323784 -0.935673475
20556316 0.253790557 -0.93643105
20600916 0.250973403 -0.936960875
20645416 0.248478114 -0.937778711
20690016 0.245756402 -0.938465297
20734616 0.242977216 -0.939010977
20779216 0.240504518 -0.939514577
20823716 0.237684145 -0.940567493
20868316 0.234949558 -0.941112935
20912916 0.232377663 -0.941691517
20957516 0.229737475 -0.942332327
21002116 0.227112799 -0.94305545
21046616 0.22413662 -0.943361997
21091216 0.221691742 -0.944038271
21135816 0.218898981 -0.944770693
21180416 0.21613191 -0.945513725
21225016 0.213329806 -0.946158766
21269516 0.210886701 -0.946684896
21314116 0.208180427 -0.947192847
21358716 0.205651938 -0.947923183
21403316 0.202878475 -0.948292851
21447916 0.20023261 -0.948798656
21492416 0.197410225 -0.949443519
21537016 0.194665968 -0.950089037
21581616 0.192199066 -0.950522005
21626216 0.189275652 -0.950999021
21670716 0.18670687 -0.95150572
21715316 0.184192076 -0.952094733
21759916 0.181342735 -0.952539265
21804516 0.178623139 -0.953062653
21849116 0.175960749 -0.953314185
21893616 0.173282042 -0.95376718
21938216 0.170370936 -0.954406321
21982816 0.167877614 -0.954979956
22027416 0.16518411 -0.95529586
22072016 0.162406966 -0.955955266
22116516 0.159812092 -0.95636928
22161116 0.157019138 -0.956749558
22205716 0.154340013 -0.957120418
22250316 0.151586443 -0.95757246
22294916 0.148782491 -0.957872807
22339416 0.146186828 -0.958319783
22384016 0.143310368 -0.958560764
22428616 0.140732645 -0.959094226
22473216 0.138104021 -0.95927447
22517816 0.135434255 -0.959986031
22562396 0.132831782 -0.960094213
22606896 0.129960402 -0.960381269
22651496 0.127278476 -0.960652351
22696096 0.124466232 -0.961131572
22740696 0.121844768 -0.961632549
22785196 0.119202323 -0.961697757
22829796 0.116406068 -0.961906671
22874396 0.11366605 -0.962370455
22918996 0.110848933 -0.962822496
22963596 0.108284153 -0.962961852
23008096 0.105544887 -0.963321566
23052696 0.10265991 -0.963676214
23097296 0.099924042 -0.9638291
23141896 0.097434774 -0.964048922
23186496 0.094641499 -0.964560329
23230996 0.091787211 -0.964561641
23275596 0.089438475 -0.96516478
23320196 0.086477532 -0.965159296
23364796 0.083597712 -0.965290129
23409396 0.081199049 -0.965376317
23453896 0.078343227 -0.965610086
23498496 0.075553447 -0.965855836
23543096 0.07306385 -0.965985238
23587696 0.070101939 -0.966352939
23632196 0.067461989 -0.966285526
23676796 0.064623109 -0.96660912
23721396 0.062108892 -0.966421306
23765996 0.059501685 -0.966900527
23810596 0.056471019 -0.966944515
23855096 0.053816609 -0.967081189
23899696 0.051078371 -0.967356741
23944296 0.048229899 -0.967399835
23988896 0.045589737 -0.967499971
24033496 0.042847558 -0.967582345
24077996 0.040147852 -0.967735528
24122596 0.037384536 -0.967535197
24167196 0.034829542 -0.967670619
24211796 0.032156269 -0.968136966
24256396 0.029253449 -0.967695236
24300896 0.026547918 -0.968100488
24345496 0.023910555 -0.968083798
24390096 0.021045999 -0.968099713
24434696 0.018488077 -0.968100547
24479196 0.01570365 -0.967916786
24523796 0.013119782 -0.968178093
24568396 0.010213938 -0.968236804
24612996 0.007469469 -0.968161821
24657596 0.004814954 -0.967980504
24702096 0.001987958 -0.968200325
24746696 -0.000709465 -0.96804744
24791296 -0.003360381 -0.968310415
24835896 -0.006025008 -0.968095421
24880496 -0.008974143 -0.9679057
24924996 -0.01159555 -0.968117117
24969596 -0.014348766 -0.967926681
25014196 -0.017200263 -0.967708885
25058796 -0.01987183 -0.967870891
25103396 -0.022583886 -0.967623531
25147896 -0.025179712 -0.967511534
25192496 -0.027788188 -0.967320978
25237096 -0.030559899 -0.9672302
25281696 -0.033361051 -0.967160105
25326196 -0.03588074 -0.966950774
25370796 -0.038802511 -0.967183411
25415396 -0.041459757 -0.966863751
25459996 -0.044331673 -0.966589689
25504596 -0.046879295 -0.96658349
25549096 -0.049807116 -0.966490685
25593696 -0.052354961 -0.966031491
25638296 -0.055253073 -0.96598035
25682896 -0.057964943 -0.965626597
25727496 -0.060769747 -0.965503633
25771996 -0.063281551 -0.965384602
25816596 -0.065880596 -0.965290486
25861196 -0.06863977 -0.964967012
25905796 -0.071495838 -0.964673042
25950396 -0.074294321 -0.964489698
25994896 -0.076664261 -0.964214026
26039496 -0.079503431 -0.963855385
26084096 -0.082228593 -0.96362394
26128696 -0.085078045 -0.963516235
26173196 -0.087741896 -0.963163793
26217796 -0.09034536 -0.962812185
26262396 -0.093002811 -0.96263796
26306996 -0.095718994 -0.961972713
26351596 -0.098368458 -0.96172589
26396096 -0.101292379 -0.961341023
26440696 -0.10394179 -0.961112976
26485296 -0.106542907 -0.960844099
26529896 -0.10915748 -0.960517048
26574496 -0.111867636 -0.960189521
26618996 -0.114741705 -0.959760308
26663596 -0.11746665 -0.95951265
