# HZ S RI R 50
1000000 -0.989746391 0.096675597
1296300 -0.9810009 0.12762092
1592600 -0.966483116 0.157417938
1888900 -0.947657406 0.183425828
2185300 -0.927228212 0.204208269
2481600 -0.905652165 0.221572279
2777900 -0.885084748 0.234365895
3074300 -0.865307033 0.244927972
3370600 -0.847433567 0.2532579
3666900 -0.830881714 0.259593486
3963300 -0.815152585 0.265483349
4259600 -0.800759792 0.270244807
4555900 -0.787221431 0.274103999
4852300 -0.774971067 0.277618497
5148600 -0.762968957 0.280904889
5444900 -0.751861155 0.283679306
5741300 -0.741428434 0.285870343
6037600 -0.731719493 0.288288742
6333900 -0.72373569 0.288925766
6630300 -0.716053724 0.290964633
6926600 -0.703475415 0.297139823
7222900 -0.695876598 0.298876941
7519300 -0.687943577 0.300272166
7815600 -0.680104017 0.301918208
8111900 -0.672105252 0.303762614
8408300 -0.664823532 0.305779725
8704600 -0.65785104 0.307590693
9000900 -0.650765478 0.309338688
9297300 -0.643897354 0.311302751
9593600 -0.637431442 0.312910795
9889900 -0.631003499 0.314533561
10186300 -0.624905586 0.316163182
10482600 -0.618901073 0.317364662
10778900 -0.612915873 0.31857258
11075300 -0.607117652 0.320135921
11371600 -0.601678848 0.321231096
11667900 -0.59615451 0.322554498
11964300 -0.590812444 0.3235448
12260600 -0.585513591 0.324855893
12556900 -0.580485165 0.325917989
12853300 -0.575263381 0.327094793
13149600 -0.570464253 0.328176468
13445900 -0.565655291 0.329052478
13742300 -0.56091392 0.330003201
14038600 -0.556259751 0.331161558
14334900 -0.551517784 0.332107454
14631300 -0.547052741 0.332855105
14927600 -0.542608737 0.333820641
15223900 -0.538254201 0.334622025
15520300 -0.533953487 0.335448712
15816600 -0.529845237 0.336482912
16112900 -0.525609731 0.337222367
16409300 -0.521436214 0.33793199
16705600 -0.51744163 0.338708132
17001900 -0.513467192 0.339672535
17298300 -0.509374141 0.340257614
17594600 -0.505633711 0.340773969
17890900 -0.501782894 0.34147796
18187300 -0.497828871 0.342192441
18483600 -0.494112014 0.342777311
18779900 -0.490417122 0.343373805
19076300 -0.48660174 0.344092845
19372600 -0.483019769 0.344469875
19668900 -0.479498803 0.345073014
19965300 -0.475960701 0.345635503
20261600 -0.472725749 0.346121728
20557900 -0.469113022 0.346544563
20854300 -0.465918153 0.34696415
21150600 -0.462450146 0.347294598
21446900 -0.459425449 0.347939223
21743300 -0.455999553 0.348301738
22039600 -0.452825695 0.34860599
22335900 -0.449569046 0.348832249
22632300 -0.446481764 0.349278479
22928600 -0.443525433 0.349788367
23224900 -0.440181046 0.350192815
23521300 -0.43734306 0.350375264
23817600 -0.434188693 0.350570797
24113900 -0.43145892 0.350978791
24410300 -0.42852661 0.351306349
24706600 -0.425535053 0.351599574
25002900 -0.422755181 0.351899266
25299300 -0.420113831 0.352137953
25595600 -0.417276978 0.352181732
25891900 -0.414475679 0.352493494
26188300 -0.411833822 0.352719962
26484600 -0.409259885 0.352813571
26780900 -0.406547307 0.352986574
27077300 -0.40402019 0.353125512
27373600 -0.401555925 0.353250861
27669900 -0.399027019 0.353426605
27966300 -0.396574437 0.353685081
28262600 -0.39402166 0.35370621
28558900 -0.391632944 0.353980243
28855300 -0.389398872 0.35414198
29151600 -0.386996001 0.354292333
29447900 -0.384596645 0.3544887
29744300 -0.382506668 0.354542016
30040600 -0.380081802 0.354648709
30336900 -0.377953588 0.354684293
30633300 -0.375746786 0.354926049
30929632 -0.37343353 0.355316966
31225932 -0.371204048 0.355223894
31522232 -0.369180858 0.355387359
31818532 -0.36720854 0.355208188
32114932 -0.365019738 0.355535686
32411232 -0.362952172 0.355566471
32707532 -0.360992372 0.355659127
33003932 -0.358905404 0.356003314
33300232 -0.356827467 0.355946302
33596532 -0.354836314 0.35608986
33892932 -0.352742105 0.356090903
34189232 -0.350950598 0.35611388
34485532 -0.348992288 0.356335878
34781932 -0.34713146 0.356366276
35078232 -0.345278799 0.356523066
35374532 -0.343521535 0.356520146
35670932 -0.341524988 0.356788724
35967232 -0.339974135 0.356824964
36263532 -0.338236808 0.356938093
36559932 -0.336508512 0.357162058
36856232 -0.334478527 0.357104688
37152532 -0.332656443 0.357202887
37448932 -0.330892413 0.35730502
37745232 -0.329324424 0.35752049
38041532 -0.327818512 0.357689052
38337932 -0.325677633 0.357671856
38634232 -0.324014693 0.357691138
38930532 -0.322386234 0.357867181
39226932 -0.320710599 0.357786089
39523232 -0.319112956 0.357952266
39819532 -0.317523717 0.358233153
40115932 -0.31573525 0.358170241
40412232 -0.314262837 0.358227312
40708532 -0.312592417 0.358254611
41004932 -0.311166584 0.358576267
41301232 -0.309772521 0.358730703
41597532 -0.308088213 0.358908832
41893932 -0.306709408 0.358995318
42190232 -0.305150687 0.359271228
42486532 -0.303539127 0.359465003
42782932 -0.302531152 0.359438061
43079232 -0.300738215 0.359434336
43375532 -0.299433082 0.359428524
43671932 -0.298029154 0.359733641
43968232 -0.296405732 0.359794288
44264532 -0.294879019 0.359889626
44560932 -0.293844521 0.36004278
44857232 -0.292425602 0.360181897
45153532 -0.291118949 0.359826982
45449932 -0.289755761 0.360168635
45746232 -0.288409471 0.360299468
46042532 -0.286982148 0.360566735
46338932 -0.28590241 0.360591471
46635232 -0.284310221 0.360891401
46931532 -0.283092767 0.360646903
47227932 -0.281702816 0.360872089
47524232 -0.280411392 0.361039906
47820532 -0.279328107 0.361085295
48116932 -0.277915716 0.361166387
48413232 -0.27651906 0.361206769
48709532 -0.275106549 0.361128807
49005932 -0.274134516 0.361512213
49302232 -0.27290067 0.361555695
49598532 -0.271895349 0.361443549
49894932 -0.270653218 0.361521422
50191232 -0.26930356 0.36181426
50487532 -0.26804924 0.362012684
50783932 -0.26700896 0.362184852
51080232 -0.265691369 0.36210525
51376532 -0.264582097 0.362333029
51672932 -0.263643264 0.362408131
51969232 -0.262437164 0.362612187
52265532 -0.261283576 0.362743735
52561932 -0.260056465 0.362830817
52858232 -0.25920391 0.362993121
53154532 -0.257967799 0.363139897
53450932 -0.256854027 0.363309979
53747232 -0.255764484 0.363352268
54043532 -0.254739344 0.363452374
54339932 -0.253772467 0.363862693
54636232 -0.252541393 0.363754123
54932532 -0.251690715 0.364111185
55228932 -0.250397115 0.363941252
55525232 -0.249372437 0.364337503
55821532 -0.248472794 0.364402174
56117932 -0.247466802 0.364941269
56414232 -0.246493279 0.365215033
56710532 -0.245421439 0.364941209
57006932 -0.244181916 0.365225702
57303232 -0.243349269 0.365335643
57599532 -0.242168724 0.365355104
57895932 -0.241279855 0.365522295
58192232 -0.240397423 0.365831673
58488532 -0.239369034 0.366040527
58784932 -0.238528057 0.366260588
59081232 -0.237291872 0.366256982
59377532 -0.236787855 0.366418868
59673932 -0.235819488 0.366629004
59970232 -0.234649345 0.366805374
60266532 -0.233802363 0.366695791
60562932 -0.232987269 0.366908848
60859264 -0.232139036 0.367443412
61155564 -0.231180027 0.367463201
61451864 -0.230326443 0.367673635
61748164 -0.229070872 0.368067622
62044564 -0.228325575 0.36790955
62340864 -0.227126672 0.368348121
62637164 -0.226501584 0.368690699
62933564 -0.225745618 0.368656545
63229864 -0.224360644 0.368984729
63526164 -0.224228486 0.368927538
63822564 -0.223232597 0.369161009
64118864 -0.22196567 0.369426459
64415164 -0.221261829 0.369686722
64711564 -0.220038637 0.369997739
65007864 -0.219425469 0.369921982
65304164 -0.218619734 0.369865059
65600564 -0.217647984 0.37014535
65896864 -0.217104241 0.370337545
66193164 -0.216103628 0.371085017
66489564 -0.215280979 0.370723694
66785864 -0.214568257 0.371355682
67082164 -0.213690117 0.371122092
67378564 -0.213137984 0.37159425
67674864 -0.211803615 0.371831476
67971164 -0.211103245 0.371882736
68267564 -0.210707738 0.371646791
68563864 -0.209431782 0.371796071
68860164 -0.208533525 0.372660905
69156564 -0.2080888 0.372766911
69452864 -0.207178726 0.373023092
69749164 -0.206566572 0.373461633
70045564 -0.204942047 0.372582703
70341864 -0.205145314 0.374012172
70638164 -0.204056486 0.373625099
70934564 -0.203087344 0.375050008
71230864 -0.202649533 0.375012099
71527164 -0.202514231 0.374450385
71823564 -0.201334521 0.375179231
72119864 -0.200581729 0.375736415
72416164 -0.198982834 0.375307381
72712564 -0.19884555 0.376247286
73008864 -0.19796577 0.375777363
73305164 -0.19725725 0.376800835
73601564 -0.196712106 0.37703529
73897864 -0.195656031 0.377448707
74194164 -0.195612385 0.377670884
74490564 -0.194562077 0.377851456
74786864 -0.194278955 0.378105014
75083164 -0.193451702 0.378586322
75379564 -0.192347362 0.378747165
75675864 -0.191248148 0.379249483
75972164 -0.191029146 0.379199296
76268564 -0.190133944 0.379823595
76564864 -0.189021244 0.380156785
76861164 -0.18805702 0.380291759
77157564 -0.187781646 0.380198359
77453864 -0.187101751 0.381766408
77750164 -0.186302244 0.381403714
78046564 -0.185545101 0.381756842
78342864 -0.185591608 0.382177114
78639164 -0.183879747 0.381832659
78935564 -0.18317601 0.382706701
79231864 -0.182665839 0.382891654
79528164 -0.182294458 0.383478403
79824564 -0.180611521 0.383528918
80120864 -0.180472478 0.384087711
80417164 -0.180442124 0.384177029
80713564 -0.180089816 0.385075122
81009864 -0.1791258 0.385334253
81306164 -0.17794986 0.384435117
81602564 -0.178109854 0.385608971
81898864 -0.176514267 0.385557979
82195164 -0.176881298 0.386684715
82491564 -0.175034925 0.386204898
82787864 -0.17435795 0.386748552
83084164 -0.173902317 0.386357069
83380564 -0.173417881 0.387780845
83676864 -0.173299312 0.388133913
83973164 -0.17239575 0.387579202
84269564 -0.170122206 0.387441605
84565864 -0.171222209 0.389436423
84862164 -0.1706371 0.389256328
85158564 -0.169149979 0.389150261
85454864 -0.1695721 0.390385001
85751164 -0.168371289 0.389352828
86047564 -0.16763854 0.390191495
86343864 -0.166447728 0.390357702
86640164 -0.165817573 0.390604943
86936564 -0.16561596 0.391113251
87232864 -0.16469945 0.391872823
87529164 -0.164367064 0.391429364
87825564 -0.163298115 0.39228627
88121864 -0.163369894 0.393227994
88418164 -0.163158908 0.393847435
88714564 -0.161973372 0.393068939
89010864 -0.160807341 0.393257081
89307164 -0.160180225 0.394092589
89603564 -0.16015622 0.394101947
89899864 -0.160115346 0.395476758
90196164 -0.159093812 0.394929617
90492564 -0.157847806 0.396299719
90788896 -0.15712659 0.396531343
91085196 -0.156821757 0.396696746
91381496 -0.155981436 0.397243142
91677796 -0.155267998 0.396423995
91974196 -0.155235156 0.397770971
92270496 -0.154900401 0.398328691
92566796 -0.153523221 0.397667348
92863196 -0.152712389 0.398043781
93159496 -0.1522585 0.398168057
93455796 -0.151348114 0.398331373
93752196 -0.150108158 0.399325847
94048496 -0.150421485 0.399980753
94344796 -0.150764197 0.400438278
94641196 -0.149220749 0.399647951
94937496 -0.148729279 0.401611059
95233796 -0.147709965 0.400827258
95530196 -0.146977007 0.402040392
95826496 -0.14690335 0.401482075
96122796 -0.146159067 0.402766227
96419196 -0.145084768 0.401334583
96715496 -0.145547226 0.403999894
97011796 -0.14524506 0.403700649
97308196 -0.143853619 0.403192192
97604496 -0.144040048 0.404403626
97900796 -0.142317131 0.403489232
98197196 -0.141488507 0.405036181
98493496 -0.141580432 0.404848664
98789796 -0.140739157 0.40649721
99086196 -0.14057742 0.407090842
99382496 -0.140240743 0.406735926
99678796 -0.138424649 0.407226085
99975196 -0.138193503 0.407743126
100271496 -0.138053461 0.407666623
100567796 -0.137061759 0.407857686
100864196 -0.136719956 0.408369004
101160496 -0.136341169 0.409006029
101456796 -0.135324165 0.409056812
101753196 -0.134598746 0.409667849
102049496 -0.134528964 0.410241514
102345796 -0.133773684 0.410094201
102642196 -0.132999867 0.410907268
102938496 -0.132675319 0.411492377
103234796 -0.131831824 0.411565065
103531196 -0.1315016 0.412078797
103827496 -0.130980968 0.412257343
104123796 -0.129820108 0.412485897
104420196 -0.129319772 0.413365989
104716496 -0.128990396 0.41370055
105012796 -0.128166705 0.41397351
105309196 -0.127568051 0.414088606
105605496 -0.127227619 0.414386421
105901796 -0.126502528 0.415042489
106198196 -0.125830307 0.415413647
106494496 -0.125152498 0.415631175
106790796 -0.124671161 0.416146397
107087196 -0.124268412 0.416749745
107383496 -0.123129561 0.416679203
107679796 -0.122842773 0.417416244
107976196 -0.122079446 0.418070495
108272496 -0.121574275 0.418132632
108568796 -0.121107779 0.41876024
108865196 -0.120273269 0.418956309
109161496 -0.12001127 0.419854313
109457796 -0.119248837 0.419966101
109754196 -0.118696279 0.420566201
110050496 -0.11846555 0.420514225
110346796 -0.117631144 0.421134293
110643196 -0.11705134 0.421332985
110939496 -0.116765774 0.422000437
111235796 -0.115979798 0.422030687
111532196 -0.115210153 0.422335624
111828496 -0.114773474 0.423174202
112124796 -0.11392147 0.423196166
112421196 -0.113205194 0.423839122
112717496 -0.112787038 0.42432028
113013796 -0.112068429 0.424872547
113310196 -0.111599572 0.425066471
113606496 -0.110906288 0.425567507
113902796 -0.110709369 0.426064372
114199196 -0.109959647 0.426356345
114495496 -0.109164364 0.426695406
114791796 -0.10850615 0.426934897
115088196 -0.108205638 0.427363902
115384496 -0.107609495 0.427536278
115680796 -0.106733225 0.428424656
115977196 -0.106092676 0.428688883
116273496 -0.106002032 0.428928196
116569796 -0.105426497 0.429801374
116866196 -0.104286797 0.429702341
117162496 -0.10386341 0.430227011
117458796 -0.103652775 0.430881917
117755196 -0.103247016 0.43121618
118051496 -0.102227002 0.431370347
118347796 -0.101678028 0.431750595
118644196 -0.101045899 0.432115495
118940496 -0.100796252 0.43270272
119236796 -0.100138008 0.43337506
119533196 -0.099484495 0.433719754
119829496 -0.099094502 0.434115409
120125796 -0.098373755 0.434630274
120422196 -0.09754578 0.434760034
120718528 -0.097340434 0.434969127
121014828 -0.096304491 0.435561746
121311128 -0.096020318 0.436054587
121607428 -0.09544105 0.436598718
121903828 -0.094606868 0.436546295
122200128 -0.094188265 0.437107175
122496428 -0.09366288 0.437794625
122792828 -0.09291242 0.437943905
123089128 -0.092155978 0.438126593
123385428 -0.091442398 0.438905537
123681828 -0.091005206 0.439660042
123978128 -0.090131781 0.440015286
124274428 -0.08972115 0.440259307
124570828 -0.089293003 0.440463066
124867128 -0.088263265 0.441095709
125163428 -0.087907791 0.441265255
125459828 -0.087311394 0.441668301
125756128 -0.087141178 0.442188203
126052428 -0.086025208 0.442491501
126348828 -0.085660859 0.443220287
126645128 -0.084804236 0.443652868
126941428 -0.084569901 0.443785518
127237828 -0.083466358 0.444282621
127534128 -0.083020746 0.444735944
127830428 -0.0827118 0.445308178
128126828 -0.08154039 0.445329099
128423128 -0.081440471 0.44596517
128719428 -0.080608911 0.446629643
129015828 -0.080245442 0.44709599
129312128 -0.07966315 0.447470933
129608428 -0.078792206 0.44754368
129904828 -0.078584253 0.44817835
130201128 -0.077982127 0.448382884
130497428 -0.077276952 0.448618173
130793828 -0.076391473 0.449478626
131090128 -0.075856074 0.449682086
131386428 -0.074836954 0.449718236
131682828 -0.074667513 0.450141251
131979128 -0.074420869 0.451212733
132275428 -0.073382481 0.451308876
132571828 -0.073064088 0.451647341
132868128 -0.072504684 0.452018976
133164428 -0.071488022 0.452401459
133460828 -0.071163125 0.453148752
133757128 -0.070681959 0.453184247
134053428 -0.070060454 0.453651994
134349828 -0.069187417 0.454292833
134646128 -0.068367615 0.454678624
134942428 -0.067589148 0.454787045
135238828 -0.067013144 0.45495218
135535128 -0.066917449 0.455871164
135831428 -0.066174261 0.455944776
136127828 -0.065492816 0.457109183
136424128 -0.064713038 0.457116246
136720428 -0.063732065 0.457231402
137016828 -0.064071625 0.458182036
137313128 -0.063221439 0.457891136
137609428 -0.062519699 0.458611637
137905828 -0.061674851 0.459004849
138202128 -0.06128183 0.459678143
138498428 -0.060729026 0.459916859
138794828 -0.059872716 0.46022427
139091128 -0.059455994 0.460892647
139387428 -0.058652468 0.46078518
139683828 -0.058214321 0.461483955
139980128 -0.057552367 0.461640149
140276428 -0.056923102 0.462005794
140572828 -0.056157071 0.462631672
140869128 -0.05569772 0.463236451
141165428 -0.054851487 0.463089227
141461828 -0.054186649 0.463967472
141758128 -0.05403161 0.464226394
142054428 -0.053125198 0.464583694
142350828 -0.052353609 0.464558869
142647128 -0.051687221 0.465253472
142943428 -0.050987899 0.465565085
143239828 -0.050701186 0.465956389
143536128 -0.049995128 0.466727137
143832428 -0.049755197 0.466953247
144128828 -0.048419605 0.466989785
144425128 -0.048333171 0.467587828
144721428 -0.047367732 0.467746734
145017828 -0.047169104 0.468896836
145314128 -0.046371888 0.468949228
145610428 -0.045367762 0.469108283
145906828 -0.044768389 0.469571411
146203128 -0.044190611 0.470077812
146499428 -0.043424155 0.470416635
146795828 -0.043029848 0.471189409
147092128 -0.042195994 0.471111923
147388428 -0.042087104 0.47174704
147684828 -0.041267093 0.472093969
147981128 -0.040224362 0.472768962
148277428 -0.039783325 0.472728908
148573828 -0.03929869 0.473122239
148870128 -0.038735307 0.473809689
149166428 -0.037697423 0.474124222
149462828 -0.037276752 0.474420279
149759128 -0.036389399 0.474842607
150055428 -0.036117538 0.475119918
150351828 -0.035501025 0.475627094
150648160 -0.03475761 0.475996404
150944460 -0.034312557 0.476373881
151240760 -0.033464994 0.476738333
151537060 -0.033094536 0.477131545
151833460 -0.032377805 0.477458119
152129760 -0.031799335 0.4776555
152426060 -0.031061407 0.478080838
152722460 -0.030543403 0.478751182
153018760 -0.029911916 0.478831499
153315060 -0.029263334 0.479291051
153611460 -0.028765592 0.479554653
153907760 -0.028002697 0.479836404
154204060 -0.02730895 0.480434507
154500460 -0.026624495 0.480740815
154796760 -0.026043327 0.481249302
155093060 -0.025377364 0.481605291
155389460 -0.024767059 0.481909632
155685760 -0.024216825 0.482160925
155982060 -0.023741032 0.482690542
156278460 -0.0229237 0.482804149
156574760 -0.02231276 0.483345299
156871060 -0.021888837 0.4839136
157167460 -0.021114774 0.483959585
157463760 -0.020341247 0.484479874
157760060 -0.019868884 0.484962701
158056460 -0.019427496 0.485125452
158352760 -0.018710456 0.485570341
158649060 -0.018062843 0.485952854
158945460 -0.01769749 0.486465036
159241760 -0.017027674 0.48669061
159538060 -0.016152834 0.487286359
159834460 -0.015720369 0.487401217
160130760 -0.014982591 0.487917691
160427060 -0.01423586 0.488157689
160723460 -0.013670955 0.488877445
161019760 -0.013051196 0.489098131
161316060 -0.012432984 0.489477366
161612460 -0.011827508 0.489834696
161908760 -0.01091538 0.490314513
162205060 -0.010314358 0.490520864
162501460 -0.009799798 0.490815758
162797760 -0.008922136 0.491053044
163094060 -0.008438387 0.491830676
163390460 -0.007766893 0.492151677
163686760 -0.007145432 0.492700397
163983060 -0.006354746 0.492683023
164279460 -0.005816434 0.492986023
164575760 -0.005230213 0.493526399
164872060 -0.004731969 0.493623137
165168460 -0.003954363 0.493968635
165464760 -0.003179462 0.494575589
165761060 -0.002587286 0.494487643
166057460 -0.002200652 0.495256245
166353760 -0.001498329 0.495649069
166650060 -0.000653174 0.495953321
166946460 -0.000250104 0.496268212
167242760 0.000220316 0.496654272
167539060 0.001065257 0.496931552
167835460 0.001612368 0.49738726
168131760 0.002112757 0.497704654
168428060 0.002826992 0.497925221
168724460 0.003577208 0.498171925
169020760 0.003954159 0.498572379
169317060 0.004786457 0.498810946
169613460 0.005483918 0.499082148
169909760 0.006109172 0.499653846
170206060 0.006702699 0.499869585
170502460 0.00733883 0.500119507
170798760 0.008312797 0.500546514
171095060 0.008616167 0.500855863
171391460 0.009276192 0.501234889
171687760 0.010033984 0.501466751
171984060 0.01068821 0.501864492
172280460 0.011099284 0.502267003
172576760 0.011988873 0.502382814
172873060 0.012350988 0.502708613
173169460 0.013287711 0.503235459
173465760 0.01359096 0.503696858
173762060 0.014530849 0.503993332
174058460 0.014993008 0.504259824
