# HZ S RI R 50
100000 -1.000292778 0.000467178
397200 -0.998519659 0.031103987
694400 -0.996058166 0.059262149
991600 -0.991188883 0.088076099
1288900 -0.983011722 0.117267258
1586100 -0.969324886 0.145634979
1883300 -0.951188802 0.169976636
2180500 -0.931347429 0.189367637
2477800 -0.910395026 0.204974576
2775000 -0.890432 0.216622471
3072200 -0.871488034 0.225531652
3369400 -0.854080557 0.232534229
3666700 -0.838099122 0.23782429
3963900 -0.823107063 0.242492631
4261100 -0.80926609 0.245646819
4558300 -0.796295821 0.248720854
4855600 -0.784380137 0.250970572
5152800 -0.773051559 0.252878278
5450000 -0.762828707 0.254519701
5747200 -0.752932846 0.25573036
6044500 -0.743481516 0.256697148
6341700 -0.735861778 0.256184935
6638900 -0.728647232 0.257215738
6936100 -0.716991424 0.262146711
7233400 -0.709565401 0.262978911
7530600 -0.702182054 0.263288885
7827800 -0.69493699 0.263848036
8125000 -0.687861204 0.264983713
8422300 -0.681022524 0.265760719
8719500 -0.674399495 0.26658234
9016700 -0.667810738 0.267427444
9313900 -0.661623537 0.268131971
9611200 -0.655706644 0.26894322
9908400 -0.649855852 0.269422829
10205600 -0.644132852 0.270123809
10502800 -0.638637423 0.270423114
10800100 -0.633519113 0.270965844
11097300 -0.628320038 0.271151304
11394500 -0.623322248 0.271451234
11691700 -0.618422627 0.271684825
11989000 -0.613615214 0.272210329
12286200 -0.608923494 0.272467494
12583400 -0.604254961 0.272493064
12880600 -0.59982866 0.272841364
13177900 -0.595560431 0.273032486
13475100 -0.591073453 0.273214727
13772300 -0.58700025 0.27318111
14069500 -0.582864999 0.273380994
14366800 -0.578656613 0.273515164
14664000 -0.57481724 0.273600131
14961200 -0.570817887 0.273738414
15258400 -0.56714648 0.27376765
15555700 -0.563211321 0.273659586
15852900 -0.559624314 0.273718833
16150100 -0.555987417 0.273778825
16447300 -0.552356898 0.273848682
16744600 -0.548828184 0.273770868
17041800 -0.545219719 0.274006426
17339000 -0.541844189 0.273844629
17636200 -0.538268804 0.273775458
17933500 -0.535049974 0.273664772
18230700 -0.532037377 0.273658126
18527900 -0.528616607 0.273490697
18825100 -0.525412917 0.273415327
19122400 -0.522259473 0.273346602
19419600 -0.519256234 0.273037999
19716800 -0.516122579 0.272958219
20014000 -0.513376533 0.272811949
20311300 -0.510279417 0.272616207
20608500 -0.5074597 0.272264838
20905700 -0.504596054 0.272123724
21202900 -0.50173074 0.271773129
21500200 -0.49900031 0.271519184
21797400 -0.496155291 0.271463781
22094600 -0.493304133 0.270902812
22391800 -0.490782737 0.270835787
22689100 -0.488257855 0.270578503
22986300 -0.485612869 0.270154893
23283500 -0.482993185 0.269834011
23580700 -0.480327486 0.269598901
23878000 -0.477933317 0.269277155
24175200 -0.475539475 0.268915772
24472400 -0.473179876 0.268376946
24769600 -0.470572918 0.268157213
25066900 -0.468240976 0.26781544
25364100 -0.466069906 0.267364144
25661300 -0.463773846 0.267129987
25958500 -0.461558252 0.266575396
26255800 -0.459426879 0.266065984
26553000 -0.457253903 0.265837758
26850200 -0.455052942 0.265380978
27147400 -0.452901422 0.26482439
27444700 -0.451028227 0.264477849
27741900 -0.448939591 0.263998627
28039100 -0.446882247 0.263442516
28336300 -0.44474104 0.263204872
28633600 -0.442912578 0.262717097
28930800 -0.440805763 0.262185037
29228000 -0.439116746 0.261740356
29525200 -0.437300145 0.26130402
29822500 -0.435578018 0.261009037
30119724 -0.433787107 0.260754197
30416924 -0.431922316 0.259994029
30714124 -0.430063396 0.259646564
31011324 -0.428294956 0.259141504
31308624 -0.426512002 0.258552104
31605824 -0.424845188 0.258375972
31903024 -0.423237264 0.257907569
32200224 -0.421702504 0.257393002
32497524 -0.419988662 0.256857901
32794724 -0.418374717 0.256460666
33091924 -0.416862815 0.25602594
33389124 -0.41522333 0.255505442
33686424 -0.413807988 0.255137652
33983624 -0.412131041 0.254473507
34280824 -0.410604029 0.254033684
34578024 -0.409184694 0.253642976
34875324 -0.407745063 0.253261476
35172524 -0.406300842 0.253026634
35469724 -0.404857337 0.2525177
35766924 -0.403503894 0.252008467
36064224 -0.402138411 0.251388639
36361424 -0.400818109 0.251044958
36658624 -0.399381428 0.250577986
36955824 -0.398067772 0.249997511
37253124 -0.396779835 0.249788075
37550324 -0.395324289 0.249267995
37847524 -0.394042283 0.248765379
38144724 -0.392829179 0.248596668
38442024 -0.391278386 0.247823014
38739224 -0.390067189 0.247497349
39036424 -0.388914942 0.247091144
39333624 -0.387737661 0.246493339
39630924 -0.386690765 0.246150359
39928124 -0.385436743 0.246316969
40225324 -0.384092926 0.245488643
40522524 -0.383002638 0.24512805
40819824 -0.382001399 0.244700282
41117024 -0.380712032 0.244145065
41414224 -0.379431694 0.243947967
41711424 -0.378404945 0.243270441
42008724 -0.37758398 0.243196278
42305924 -0.376492857 0.242803543
42603124 -0.375437915 0.242278397
42900324 -0.374237954 0.241944402
43197624 -0.373166054 0.24146007
43494824 -0.37217009 0.24080269
43792024 -0.371446937 0.240604639
44089224 -0.370330095 0.240340724
44386524 -0.369531869 0.239781886
44683724 -0.368424177 0.239301547
44980924 -0.367066264 0.239135444
45278124 -0.366509884 0.238543689
45575424 -0.365389943 0.238149389
45872624 -0.364602506 0.237886443
46169824 -0.363769024 0.237331286
46467024 -0.362643092 0.236947566
46764324 -0.361816257 0.236582636
47061524 -0.36107257 0.236042872
47358724 -0.360067665 0.235758483
47655924 -0.359085887 0.235353663
47953224 -0.358121603 0.234711259
48250424 -0.357306987 0.234502166
48547624 -0.356559425 0.234155327
48844824 -0.355651736 0.233681023
49142124 -0.354924589 0.233153462
49439324 -0.353998124 0.233045548
49736524 -0.353224635 0.232574507
50033724 -0.352361619 0.232113614
50331024 -0.351717114 0.231799364
50628224 -0.3509171 0.231546983
50925424 -0.350121945 0.231117218
51222624 -0.349372863 0.23077178
51519924 -0.348409712 0.230517432
51817124 -0.347857177 0.229936107
52114324 -0.347162485 0.229584321
52411524 -0.34654957 0.229104638
52708824 -0.345766037 0.228924825
53006024 -0.345056176 0.228456944
53303224 -0.344258427 0.228204488
53600424 -0.343866586 0.227792054
53897724 -0.342906355 0.227481216
54194924 -0.342257231 0.227257594
54492124 -0.341571569 0.226750075
54789324 -0.34097287 0.226234376
55086624 -0.340500235 0.22626236
55383824 -0.33973053 0.22571066
55681024 -0.339073359 0.225500971
55978224 -0.338441133 0.225146546
56275524 -0.337845712 0.224825114
56572724 -0.337245196 0.224861577
56869924 -0.336570411 0.224167034
57167124 -0.33588162 0.22375828
57464424 -0.335385292 0.223658442
57761624 -0.334729731 0.22299607
58058824 -0.33407244 0.222885891
58356024 -0.333462923 0.222697168
58653324 -0.333126187 0.222387224
58950524 -0.332131594 0.221839845
59247724 -0.332203954 0.221765577
59544924 -0.331402391 0.221149057
59842224 -0.330895334 0.221070706
60139448 -0.330429226 0.220873013
60436648 -0.330135196 0.220215678
60733848 -0.329368114 0.219971731
61031048 -0.329019635 0.219952285
61328348 -0.328633546 0.21937561
61625548 -0.327900469 0.219038218
61922748 -0.327487409 0.219033956
62219948 -0.326972305 0.218751654
62517248 -0.326508164 0.218253254
62814448 -0.32599318 0.218199312
63111648 -0.325417876 0.217758685
63408848 -0.324836164 0.217820584
63706148 -0.324410289 0.217571005
64003348 -0.32382214 0.217168718
64300548 -0.322997301 0.2164101
64597748 -0.323080748 0.21635656
64895048 -0.322494477 0.216222435
65192248 -0.322259902 0.215654805
65489448 -0.32161805 0.215288177
65786648 -0.321370869 0.215334519
66083948 -0.32087475 0.214787513
66381148 -0.320682883 0.214607998
66678348 -0.320182204 0.214138329
66975548 -0.319669544 0.214228183
67272848 -0.319306671 0.213908851
67570048 -0.318922549 0.213389098
67867248 -0.318699598 0.213479384
68164448 -0.318149596 0.213114365
68461748 -0.317740738 0.212855443
68758948 -0.317572623 0.212801307
69056148 -0.31710574 0.212644249
69353348 -0.316661059 0.212453454
69650648 -0.316315442 0.212135165
69947848 -0.31540662 0.211509257
70245048 -0.315507322 0.211712241
70542248 -0.315096199 0.211452409
70839548 -0.31518054 0.211422055
71136748 -0.31493631 0.210715457
71433948 -0.314148306 0.210891395
71731148 -0.313846051 0.210393831
72028448 -0.313259273 0.210480168
72325648 -0.312750697 0.20994465
72622848 -0.31302309 0.209750697
72920048 -0.312151521 0.209782317
73217348 -0.312232136 0.209804609
73514548 -0.312036186 0.20975998
73811748 -0.311928689 0.209655433
74108948 -0.311059355 0.208811044
74406248 -0.311067968 0.208624765
74703448 -0.310924291 0.208691895
75000648 -0.310034334 0.208349511
75297848 -0.309893727 0.20812118
75595148 -0.309195727 0.208081856
75892348 -0.310290515 0.208901762
76189548 -0.308981239 0.208020374
76486748 -0.308865666 0.207860618
76784048 -0.308774769 0.207341283
77081248 -0.308433294 0.207067832
77378448 -0.307650446 0.207071319
77675648 -0.308018088 0.206871047
77972948 -0.307405054 0.206778869
78270148 -0.307331442 0.20641607
78567348 -0.307014077 0.206161066
78864548 -0.306606888 0.206429079
79161848 -0.306446224 0.206172749
79459048 -0.306763708 0.2067606
79756248 -0.30607444 0.205981433
80053448 -0.306120276 0.205549895
80350748 -0.306165486 0.205554962
80647948 -0.305876284 0.205619037
80945148 -0.305292516 0.206069841
81242348 -0.305429011 0.2056524
81539648 -0.304894685 0.205468118
81836848 -0.304604351 0.205277204
82134048 -0.304286599 0.205150112
82431248 -0.303630411 0.204505532
82728548 -0.303900897 0.204670846
83025748 -0.303249686 0.204926878
83322948 -0.303639233 0.204661279
83620148 -0.303261399 0.203999713
83917448 -0.303186476 0.203785911
84214648 -0.302880883 0.20409879
84511848 -0.302844941 0.203976035
84809048 -0.30330339 0.203933522
85106348 -0.302443563 0.204156234
85403548 -0.30276829 0.203655153
85700748 -0.302770286 0.203401371
85997948 -0.3018651 0.204032167
86295248 -0.302243858 0.202946916
86592448 -0.301603257 0.203316316
86889648 -0.301563531 0.202573657
87186848 -0.301975488 0.203072533
87484148 -0.300777286 0.202834129
87781348 -0.301347732 0.202429354
88078548 -0.301179736 0.202396139
88375748 -0.300995051 0.202160432
88673048 -0.300484687 0.20260173
88970248 -0.300691336 0.201914235
89267448 -0.300045758 0.202259972
89564648 -0.299563825 0.201799958
89861948 -0.300159007 0.201769024
90159176 -0.300455182 0.201915189
90456376 -0.299257397 0.20167765
90753576 -0.299621611 0.202169746
91050776 -0.299565494 0.201452523
91347976 -0.299179524 0.202084392
91645276 -0.29883182 0.20128867
91942476 -0.299397051 0.20094417
92239676 -0.299016177 0.201128304
92536876 -0.299412727 0.201309144
92834176 -0.299168705 0.201109364
93131376 -0.298701345 0.20129171
93428576 -0.29881376 0.200914248
93725776 -0.298102676 0.200540199
94023076 -0.297716885 0.200492456
94320276 -0.29806289 0.200380206
94617476 -0.296802818 0.200743153
94914676 -0.297211855 0.20080012
95211976 -0.29748404 0.200131952
95509176 -0.297770768 0.200104922
95806376 -0.296644926 0.200559407
96103576 -0.296555399 0.200372144
96400876 -0.296865612 0.200195893
96698076 -0.296534597 0.200395077
96995276 -0.297383099 0.200340524
97292476 -0.296976983 0.200556457
97589776 -0.29694423 0.200316891
97886976 -0.296521186 0.200051456
98184176 -0.295896828 0.200051426
98481376 -0.295783281 0.199731141
98778576 -0.296135723 0.199755147
99075876 -0.296492785 0.199578568
99373076 -0.296753555 0.199738144
99670276 -0.295654177 0.199502468
99967476 -0.295858025 0.200436607
100264776 -0.295671939 0.199844032
100561976 -0.295729756 0.199829757
100859176 -0.295576453 0.19976589
101156376 -0.29538846 0.199595108
101453676 -0.29519236 0.199895799
101750876 -0.295716077 0.199590176
102048076 -0.295267552 0.199817806
102345276 -0.295011699 0.199436515
102642576 -0.294817507 0.199491232
102939776 -0.295027494 0.19939877
103236976 -0.295140713 0.199365243
103534176 -0.294689387 0.199457123
103831476 -0.294827908 0.199483424
104128676 -0.294662654 0.199505791
104425876 -0.294498562 0.1992141
104723076 -0.294506192 0.199466377
105020376 -0.29469335 0.199375063
105317576 -0.294469028 0.199277549
105614776 -0.294749855 0.199339777
105911976 -0.294451832 0.199254035
106209176 -0.29410094 0.199084669
106506476 -0.294314295 0.199371933
106803676 -0.294040411 0.199192732
107100876 -0.293911516 0.199208334
107398076 -0.293846637 0.199215471
107695376 -0.29390046 0.19906257
107992576 -0.293968707 0.199297755
108289776 -0.293499529 0.198949888
108586976 -0.293910205 0.199028998
108884276 -0.293721199 0.199180752
109181476 -0.293318122 0.199055641
109478676 -0.293590873 0.198888301
109775876 -0.293510168 0.198834866
110073176 -0.293316006 0.198894679
110370376 -0.293512284 0.198799252
110667576 -0.293560057 0.199179083
110964776 -0.293521165 0.199025869
111262076 -0.293527811 0.199112221
111559276 -0.293200075 0.198785156
111856476 -0.292988061 0.198981165
112153676 -0.293327033 0.199231714
112450976 -0.293287247 0.199099868
112748176 -0.292989641 0.199085384
113045376 -0.293091982 0.198895037
113342576 -0.292961686 0.199172541
113639776 -0.293035387 0.198863223
113937076 -0.293187022 0.198947712
114234276 -0.292813062 0.198853626
114531476 -0.292919039 0.19876796
114828676 -0.292809277 0.199034035
115125976 -0.2927275 0.199318736
115423176 -0.292708456 0.199145331
115720376 -0.293032348 0.199156641
116017576 -0.293050706 0.198904693
116314876 -0.292893558 0.19900535
116612076 -0.293021291 0.199192196
116909276 -0.29270035 0.199267312
117206476 -0.293171167 0.19935435
117503776 -0.293326944 0.199450105
117800976 -0.2930063 0.199207663
118098176 -0.292770683 0.199523836
118395376 -0.292834818 0.199242293
118692676 -0.293033123 0.199382513
118989876 -0.293073117 0.199367314
119287076 -0.292764544 0.19959788
119584276 -0.292858004 0.199772238
119881576 -0.292857259 0.199648827
120178896 -0.292712837 0.199475318
120476096 -0.292777329 0.199682623
120773296 -0.292487293 0.19971013
121070496 -0.292696058 0.199719771
121367796 -0.292490154 0.200118094
121664996 -0.292675912 0.199872627
121962196 -0.29236257 0.200179249
122259396 -0.292517095 0.200150012
122556696 -0.292292475 0.200021415
122853896 -0.292560636 0.200195372
123151096 -0.292195558 0.200219944
123448296 -0.292418658 0.200230032
123745596 -0.292520463 0.200350195
124042796 -0.292270958 0.200315684
124339996 -0.292388916 0.200199007
124637196 -0.292110264 0.200577557
124934496 -0.29209426 0.200731188
125231696 -0.29222238 0.200430765
125528896 -0.292001187 0.200277075
125826096 -0.292023807 0.200820654
126123396 -0.292201966 0.200817808
126420596 -0.292195141 0.200762227
126717796 -0.292441278 0.200941666
127014996 -0.291974008 0.200769886
127312296 -0.291832476 0.201051294
127609496 -0.291915178 0.200964644
127906696 -0.29210031 0.201111584
128203896 -0.292297899 0.201182067
128501196 -0.292119711 0.201227322
128798396 -0.291952908 0.20141983
129095596 -0.291969746 0.20153144
129392796 -0.292090624 0.20096977
129690096 -0.292186081 0.201583147
129987296 -0.291876345 0.20123744
130284496 -0.292135208 0.201221793
130581696 -0.29171428 0.20155695
130878996 -0.291836231 0.201420217
131176196 -0.291602313 0.20162104
131473396 -0.292168676 0.201670438
131770596 -0.291921794 0.201917454
132067896 -0.292003631 0.201547831
132365096 -0.292292863 0.201756671
132662296 -0.292124092 0.201914325
132959496 -0.292065858 0.201935619
133256796 -0.291763246 0.202483877
133553996 -0.292192339 0.202136322
133851196 -0.292150765 0.202427178
134148396 -0.292271792 0.202544182
134445696 -0.291941702 0.20241034
134742896 -0.291649341 0.202675655
135040096 -0.292182832 0.202834069
135337296 -0.292190045 0.202509433
135634596 -0.292066335 0.202696174
135931796 -0.292172878 0.202903985
136228996 -0.292001157 0.202716767
136526196 -0.292018353 0.202636271
136823496 -0.292111426 0.203228265
137120696 -0.291842699 0.203058511
137417896 -0.292070567 0.20331338
137715096 -0.292303502 0.203221365
138012396 -0.292002916 0.203339591
138309596 -0.292365968 0.203492581
138606796 -0.292259097 0.203854441
138903996 -0.292444646 0.203397035
139201296 -0.291957259 0.203615218
139498496 -0.292161375 0.203885823
139795696 -0.292065531 0.203850984
140092896 -0.29243496 0.20381318
140390196 -0.291772305 0.203999429
140687396 -0.292376518 0.204155147
140984596 -0.292018115 0.203924834
141281796 -0.292067557 0.20411989
141579096 -0.292166173 0.203810453
141876296 -0.292284727 0.20437695
142173496 -0.29230383 0.204212129
142470696 -0.292010009 0.204099386
142767996 -0.292351782 0.204861253
143065196 -0.292558431 0.204667925
143362396 -0.292400747 0.204726397
143659596 -0.292357206 0.204784065
143956896 -0.292431533 0.20480208
144254096 -0.292469769 0.204746812
144551296 -0.292070984 0.204779669
144848496 -0.292289853 0.205278068
145145796 -0.292572766 0.205207332
145442996 -0.292705088 0.205339103
145740196 -0.292256265 0.205568253
146037396 -0.292766749 0.205468595
146334696 -0.292439162 0.205527395
146631896 -0.292521923 0.2059412
146929096 -0.292687892 0.205660447
147226296 -0.292766481 0.205768108
147523596 -0.292954295 0.206288516
147820796 -0.29296863 0.206064194
148117996 -0.292590111 0.206693828
148415196 -0.292544573 0.206159591
148712496 -0.292576789 0.206244006
149009696 -0.292880773 0.206746757
149306896 -0.292836785 0.206593751
149604096 -0.292960375 0.206783264
149901396 -0.29273796 0.20678614
150198624 -0.292926788 0.20694974
150495824 -0.292957007 0.207173138
150793024 -0.292951375 0.207132518
151090224 -0.293132185 0.207302182
151387424 -0.292963653 0.207355484
151684724 -0.293045639 0.207553386
151981924 -0.293222695 0.207335531
152279124 -0.29317221 0.207593291
152576324 -0.293268799 0.207467973
152873624 -0.293210804 0.207630902
153170824 -0.292934834 0.207856953
153468024 -0.293293416 0.207816794
153765224 -0.293279826 0.208092927
154062524 -0.293365716 0.207946464
154359724 -0.293359398 0.208417356
154656924 -0.293345689 0.20842579
154954124 -0.293527245 0.208179414
155251424 -0.293175011 0.208655238
155548624 -0.293401539 0.208564579
155845824 -0.293472409 0.208865851
156143024 -0.293510556 0.208843842
156440324 -0.293689727 0.209155142
156737524 -0.293568849 0.209190353
157034724 -0.293590039 0.209300875
157331924 -0.293633401 0.209407806
157629224 -0.293879389 0.209451794
157926424 -0.29365766 0.209417179
158223624 -0.294080078 0.209405735
158520824 -0.294109404 0.209760993
158818024 -0.293940335 0.209723353
159115324 -0.294039905 0.209866493
159412524 -0.293879985 0.209777429
159709724 -0.294171988 0.209935247
160006924 -0.294169992 0.210249051
160304224 -0.294197678 0.2101987
160601424 -0.294306635 0.210491597
160898624 -0.294344484 0.210508257
161195824 -0.29419893 0.210706442
161493124 -0.294211506 0.211326181
161790324 -0.294271171 0.210948094
162087524 -0.294467836 0.211335986
162384724 -0.294372975 0.211265236
162682024 -0.294279217 0.211405277
162979224 -0.294453501 0.211561858
163276424 -0.294470667 0.211589977
163573624 -0.294472873 0.211690157
163870924 -0.294525146 0.211838349
164168124 -0.294703543 0.211895227
164465324 -0.294619679 0.211946174
164762524 -0.294788032 0.212330147
165059824 -0.294729173 0.212363243
165357024 -0.294632613 0.212344929
165654224 -0.294948279 0.212531805
165951424 -0.294785529 0.212586641
166248624 -0.294847726 0.212689265
166545924 -0.294996231 0.212766855
166843124 -0.295184105 0.212836086
167140324 -0.295370072 0.212799638
167437524 -0.295250892 0.21295084
167734824 -0.295263409 0.213167428
168032024 -0.295357644 0.213245242
168329224 -0.295248687 0.213286757
168626424 -0.295598089 0.213578179
168923724 -0.29568085 0.213472902
169220924 -0.295560598 0.213723808
169518124 -0.295620501 0.213647484
169815324 -0.295790016 0.214050054
170112624 -0.295756101 0.214088678
170409824 -0.295704156 0.214124038
170707024 -0.295689404 0.214313834
171004224 -0.295797049 0.21449171
171301524 -0.295830875 0.214633941
171598724 -0.295941889 0.214774504
171895924 -0.29593265 0.215100675
172193124 -0.296007037 0.214768141
172490424 -0.296011626 0.215154141
172787624 -0.296074986 0.215196907
173084824 -0.296064078 0.215261131
173382024 -0.296188116 0.215437978
173679224 -0.29626286 0.215762868
