# HZ S RI R 50
50000 -1.000826478 0.034823488
149000 -0.991519331 0.108627431
248100 -0.981580793 0.177929416
347100 -0.966144144 0.245251789
446200 -0.946909904 0.310747563
545200 -0.923592627 0.373637229
644300 -0.896277427 0.434067368
743400 -0.865922927 0.491785347
842400 -0.83224219 0.546273052
941500 -0.796038568 0.59796524
1040500 -0.757407605 0.645630717
1139600 -0.716898381 0.690311014
1238600 -0.674667894 0.731420695
1337700 -0.631222188 0.768879234
1436800 -0.587181508 0.802923262
1535800 -0.542022645 0.833682119
1634900 -0.497149616 0.8614434
1733900 -0.452044814 0.885705769
1833000 -0.407334417 0.90708816
1932100 -0.362492442 0.925607204
2031100 -0.31866011 0.941644966
2130200 -0.275827646 0.955176651
2229200 -0.233357116 0.966571629
2328300 -0.191438987 0.975338518
2427300 -0.151453644 0.982154726
2526400 -0.112191423 0.987690269
2625500 -0.073979802 0.991246461
2724500 -0.037084005 0.993284702
2823600 -0.001271903 0.993609607
2922600 0.033122159 0.993312239
3021700 0.066476769 0.991393566
3120700 0.098737008 0.988787114
3219800 0.129972085 0.985265851
3318900 0.159773528 0.980869889
3417900 0.188353642 0.975699365
3517000 0.216007888 0.97003889
3616000 0.242335468 0.96351093
3715100 0.267764329 0.956816494
3814200 0.292639702 0.949681818
3913200 0.315972506 0.942018926
4012300 0.338737279 0.934054017
4111300 0.360543161 0.925691068
4210400 0.381200224 0.917487561
4309400 0.401126354 0.909122765
4408500 0.420333206 0.900460064
4507600 0.438963115 0.891354024
4606600 0.456416487 0.882590055
4705700 0.473517179 0.873449921
4804700 0.489849627 0.864445865
4903800 0.505452275 0.855308055
5002900 0.520709693 0.846099376
5101900 0.535142183 0.837126314
5201000 0.549063265 0.828154802
5300000 0.562228143 0.819038152
5399100 0.575160503 0.810086488
5498100 0.587578713 0.80125755
5597200 0.599220395 0.791988968
5696300 0.610798954 0.783469557
5795300 0.621652901 0.774720251
5894400 0.63232249 0.766364336
5993400 0.642470061 0.757938683
6092500 0.651872217 0.749969363
6191500 0.66112411 0.742072045
6290600 0.669698178 0.734734714
6389700 0.677955031 0.728382825
6488700 0.68597871 0.722507119
6587800 0.695156812 0.714690387
6686800 0.704343795 0.704014837
6785900 0.712712407 0.692851364
6885000 0.720798611 0.683195829
6984000 0.729124546 0.674551486
7083100 0.736439645 0.667166411
7182100 0.743339419 0.660615324
7281200 0.749180197 0.653770864
7380200 0.754970431 0.646954476
7479300 0.760733187 0.639847755
7578400 0.76614654 0.63305819
7677400 0.771698951 0.626182317
7776500 0.777095735 0.619482696
7875500 0.782035887 0.612809717
7974600 0.786978006 0.606149554
8073600 0.791880428 0.599402785
8172700 0.796505987 0.593089759
8271800 0.800977826 0.586851537
8370800 0.805608749 0.580528736
8469900 0.810089886 0.574015676
8568900 0.813868522 0.568042755
8668000 0.818105459 0.562298953
8767100 0.821996688 0.555988013
8866100 0.825773179 0.550224065
8965200 0.829286992 0.544627785
9064200 0.832918047 0.538766205
9163300 0.836578726 0.533141613
9262300 0.840361475 0.527435541
9361400 0.843388676 0.521955728
9460500 0.846897065 0.516559004
9559500 0.849678456 0.510973632
9658600 0.852793216 0.505740046
9757600 0.855772197 0.500645935
9856700 0.858808338 0.495238155
9955800 0.861570954 0.489954411
10054858 0.864066243 0.485443174
10153858 0.866940855 0.480103135
10252958 0.869438588 0.475335776
10351958 0.871820569 0.47039619
10451058 0.874362409 0.465514749
10550058 0.876676678 0.46083337
10649158 0.879084706 0.456046253
10748258 0.881097733 0.451554983
10847258 0.883452594 0.446988433
10946358 0.8855232 0.442244887
11045358 0.887503385 0.437839984
11144458 0.889624536 0.433582037
11243458 0.891674458 0.429160594
11342558 0.893164217 0.425117015
11441658 0.895106792 0.420831173
11540658 0.896801054 0.41664502
11639758 0.898468315 0.412327855
11738758 0.900282323 0.408315926
11837858 0.901690602 0.404313564
11936958 0.903438448 0.400373041
12035958 0.904977083 0.396446526
12135058 0.906573593 0.392389208
12234058 0.907731413 0.388513445
12333158 0.909078896 0.384853571
12432158 0.910565674 0.381199121
12531258 0.911898255 0.377451896
12630358 0.913278996 0.373495966
12729358 0.914382159 0.369972288
12828458 0.915687382 0.366437107
12927458 0.916591763 0.362975448
13026558 0.917836308 0.359481334
13125558 0.918704509 0.356027632
13224658 0.919836819 0.352555721
13323758 0.921104431 0.349205642
13422758 0.922099471 0.345970004
13521858 0.923261821 0.342675805
13620858 0.923964738 0.339227586
13719958 0.924772739 0.336186259
13819058 0.925861775 0.332921326
13918058 0.926590442 0.329797357
14017158 0.92735815 0.326932966
14116158 0.928134679 0.323931545
14215258 0.928990185 0.32067275
14314258 0.929900288 0.317596703
14413358 0.930534541 0.314852446
14512458 0.931255519 0.311828315
14611458 0.931850731 0.308886557
14710558 0.932746827 0.305970907
14809558 0.933147788 0.303164422
14908658 0.93387407 0.300265789
15007758 0.934654533 0.297369152
15106758 0.935049891 0.294546604
15205858 0.935700654 0.291963487
15304858 0.936164021 0.289374709
15403958 0.937068581 0.286567717
15502958 0.937223136 0.284049004
15602058 0.937850356 0.281341642
15701158 0.938489973 0.27837944
15800158 0.938921093 0.276197314
15899258 0.939328253 0.273607909
15998258 0.939954876 0.271196752
16097358 0.940365791 0.268572509
16196358 0.940687716 0.266373783
16295458 0.941203653 0.263790428
16394558 0.941426336 0.261430233
16493558 0.941718161 0.2590487
16592658 0.942412197 0.256459921
16691658 0.942680656 0.25421819
16790758 0.942647039 0.251742839
16889858 0.943171203 0.249479621
16988858 0.943568527 0.247279807
17087958 0.943755865 0.244926571
17186958 0.944016039 0.242622345
17286058 0.944326043 0.240437105
17385058 0.944532692 0.238287165
17484158 0.944673776 0.235936522
17583258 0.944997072 0.233827516
17682258 0.945144176 0.231778994
17781358 0.945429027 0.229712083
17880358 0.945532023 0.227516278
17979458 0.945711195 0.225242286
18078458 0.945697247 0.223282039
18177558 0.945952355 0.221329078
18276658 0.946201443 0.219262048
18375658 0.946452319 0.217018589
18474758 0.946555376 0.21502833
18573758 0.94655162 0.213208198
18672858 0.946809053 0.211054369
18771958 0.946706771 0.209373056
18870958 0.946875929 0.207120418
18970058 0.946973085 0.205359458
19069058 0.946862697 0.203419789
19168158 0.947078466 0.20148456
19267158 0.947145342 0.19935961
19366258 0.947197318 0.197679221
19465358 0.947157919 0.195807367
19564358 0.947050929 0.194027736
19663458 0.946988403 0.192271053
19762458 0.947026371 0.190330117
19861558 0.947074413 0.188743263
19960658 0.947153329 0.186962291
20059716 0.946720182 0.185260474
20158716 0.946830213 0.183587193
20257816 0.947094678 0.181655347
20356816 0.946884095 0.179902672
20455916 0.94672811 0.178324773
20554916 0.946489393 0.176898404
20654016 0.946381986 0.175142899
20753116 0.946274042 0.173152253
20852116 0.946274518 0.171786174
20951216 0.946179211 0.170072421
21050216 0.94569832 0.16866517
21149316 0.945545911 0.166963145
21248316 0.945495426 0.165423855
21347416 0.945297181 0.164109706
21446516 0.945367932 0.162118017
21545516 0.944858431 0.160921454
21644616 0.944586694 0.1596338
21743616 0.944716036 0.158002957
21842716 0.944480895 0.156407967
21941816 0.944078207 0.155150011
22040816 0.943772256 0.153676867
22139916 0.943622767 0.152099981
22238916 0.94365698 0.150959491
22338016 0.943071901 0.149297595
22437016 0.942843317 0.148218333
22536116 0.942842423 0.146547853
22635216 0.94255203 0.145424202
22734216 0.942374169 0.144032895
22833316 0.942112863 0.143061771
22932316 0.941771805 0.141499117
23031416 0.941448569 0.140388324
23130416 0.941199839 0.139195382
23229516 0.941106498 0.137851506
23328616 0.940784454 0.136665686
23427616 0.940163433 0.13541226
23526716 0.94007951 0.134145006
23625716 0.939670383 0.132927149
23724816 0.939369857 0.13170576
23823916 0.939332842 0.13064444
23922916 0.939086079 0.12970972
24022016 0.938668251 0.128486946
24121016 0.938291072 0.127207279
24220116 0.938080787 0.126335978
24319116 0.937783539 0.125224322
24418216 0.937325954 0.124153979
24517316 0.937033116 0.123098634
24616316 0.936730146 0.122339569
24715416 0.936524093 0.121081478
24814416 0.936394691 0.120037786
24913516 0.935652971 0.119057111
25012616 0.935683131 0.118132777
25111616 0.935195446 0.117112815
25210716 0.934856653 0.11609473
25309716 0.934696435 0.115063481
25408816 0.93414843 0.114094346
25507816 0.934107065 0.113409966
25606916 0.933653473 0.112255223
25706016 0.933270931 0.111621394
25805016 0.932953 0.11049024
25904116 0.932905077 0.109765529
26003116 0.932427465 0.108930736
26102216 0.931881546 0.108114458
26201216 0.931667089 0.107288353
26300316 0.931430757 0.106470376
26399416 0.931153476 0.105635978
26498416 0.930948257 0.10487844
26597516 0.930509448 0.104014314
26696516 0.930576503 0.10327249
26795616 0.929963886 0.102299764
26894716 0.929942846 0.101649545
26993716 0.929199576 0.100791066
27092816 0.929316341 0.100221753
27191816 0.928914546 0.099373735
27290916 0.928692281 0.098729602
27389916 0.928420305 0.09796258
27489016 0.928097546 0.097345232
27588116 0.927907347 0.096484906
27687116 0.927679479 0.095892556
27786216 0.92734605 0.095110528
27885216 0.927212476 0.094499796
27984316 0.926953792 0.093892894
28083316 0.927144229 0.093161329
28182416 0.926704883 0.092356823
28281516 0.926271915 0.091970823
28380516 0.926151514 0.091098465
28479616 0.925926148 0.090547621
28578616 0.925929129 0.089947827
28677716 0.925420224 0.089155644
28776816 0.925319492 0.088618613
28875816 0.925046384 0.087948821
28974916 0.92473948 0.087340027
29073916 0.924890518 0.086933001
29173016 0.924570441 0.086305178
29272016 0.924315571 0.085723653
29371116 0.924098372 0.08504495
29470216 0.923792362 0.084544226
29569216 0.923786938 0.083996295
29668316 0.923485457 0.083391793
29767316 0.923232078 0.08261305
29866416 0.923299729 0.082267694
29965516 0.922917068 0.08148168
30064574 0.922628164 0.081071503
30163574 0.922604918 0.080551899
30262674 0.922706305 0.080038219
30361674 0.922172725 0.079485461
30460774 0.92189908 0.078839138
30559774 0.922141194 0.078529462
30658874 0.921549022 0.077754549
30757974 0.92183721 0.077224418
30856974 0.921619474 0.0767892
30956074 0.92154473 0.076217077
31055074 0.92126739 0.07589206
31154174 0.921094357 0.075353592
31253174 0.920971214 0.074845865
31352274 0.920629084 0.074301958
31451374 0.920726239 0.073695696
31550374 0.92043507 0.073414996
31649474 0.920386075 0.072762191
31748474 0.920178055 0.072464317
31847574 0.920098423 0.071739524
31946674 0.919962882 0.071219667
32045674 0.919744729 0.070954531
32144774 0.919820249 0.070587739
32243774 0.919597208 0.069748863
32342874 0.919521212 0.069494418
32441874 0.919267058 0.069007724
32540974 0.919174373 0.06849955
32640074 0.919066727 0.067977428
32739074 0.919123053 0.067691549
32838174 0.918573975 0.067102156
32937174 0.918661534 0.06656643
33036274 0.91850239 0.066286012
33135274 0.918418765 0.06584306
33234374 0.918298184 0.065236911
33333474 0.918079555 0.064725078
33432474 0.918114364 0.064047254
33531574 0.917941451 0.064020365
33630574 0.917825639 0.063477396
33729674 0.917753696 0.063090763
33828774 0.917719602 0.062693633
33927774 0.917349517 0.062189787
34026874 0.917486071 0.06177308
34125874 0.917349755 0.061490852
34224974 0.917256355 0.060989085
34323974 0.916983544 0.060578547
34423074 0.917073965 0.059852492
34522174 0.916770577 0.059720695
34621174 0.916764557 0.059252832
34720274 0.917029857 0.058691211
34819274 0.916606605 0.058276545
34918374 0.916582584 0.058064877
35017474 0.916616141 0.057397011
35116474 0.916376829 0.057150248
35215574 0.915643036 0.056941758
35314574 0.91627109 0.056368138
35413674 0.916121661 0.056058738
35512674 0.916077375 0.05553181
35611774 0.916013658 0.05529581
35710874 0.915863454 0.054641012
35809874 0.915627777 0.054372604
35908974 0.915875852 0.053975895
36007974 0.915424704 0.053591798
36107074 0.915468573 0.053224403
36206074 0.915352225 0.052901476
36305174 0.915272712 0.052503488
36404274 0.915400505 0.051701318
36503274 0.915146529 0.051651563
36602374 0.915007293 0.051087781
36701374 0.915110826 0.050955343
36800474 0.915106475 0.050409063
36899574 0.914999663 0.050167765
36998574 0.914972007 0.049677137
37097674 0.914851427 0.049510378
37196674 0.915067017 0.048865154
37295774 0.914818286 0.04849993
37394774 0.91488111 0.048115756
37493874 0.914484858 0.047786954
37592974 0.914592921 0.047590259
37691974 0.914504349 0.047124121
37791074 0.914581894 0.046800918
37890074 0.914452672 0.046433854
37989174 0.914431452 0.045981805
38088174 0.914193689 0.045491538
38187274 0.914143562 0.045301187
38286374 0.913980126 0.045033015
38385374 0.914159059 0.044802084
38484474 0.91394329 0.044168338
38583474 0.914188683 0.043938949
38682574 0.914021492 0.04372422
38781674 0.914015114 0.043197866
38880674 0.913999319 0.042740471
38979774 0.914086997 0.042300585
39078774 0.913757801 0.04215233
39177874 0.913801491 0.041482884
39276874 0.913651883 0.041355945
39375974 0.913972496 0.041025482
39475074 0.913586974 0.040827069
39574074 0.913897871 0.040351107
39673174 0.913537919 0.039972689
39772174 0.913734436 0.039527174
39871274 0.913301765 0.039350848
39970374 0.91349703 0.038842201
40069432 0.913166463 0.038794357
40168432 0.913463354 0.038435548
40267532 0.913172543 0.038031481
40366532 0.913089334 0.037688553
40465632 0.913377463 0.037081331
40564632 0.913318514 0.036766011
40663732 0.913138449 0.036649297
40762832 0.91305232 0.036447126
40861832 0.912988841 0.03603699
40960932 0.913107693 0.035834144
41059932 0.913031995 0.035570535
41159032 0.912836611 0.035103492
41258032 0.913009405 0.034585498
41357132 0.913029432 0.034344181
41456232 0.912863075 0.034107901
41555232 0.912746965 0.033585708
41654332 0.912707924 0.033522225
41753332 0.912465095 0.032908037
41852432 0.912662804 0.03268269
41951532 0.912631809 0.032446097
42050532 0.912339985 0.032142974
42149632 0.912499785 0.0318285
42248632 0.912458896 0.031354818
42347732 0.912315905 0.031400978
42446732 0.91243261 0.031146369
42545832 0.912303447 0.030489047
42644932 0.912357747 0.030414525
42743932 0.912361919 0.029913622
42843032 0.912535548 0.029538793
42942032 0.912066519 0.029339019
43041132 0.912390589 0.028864674
43140132 0.912080943 0.028727577
43239232 0.912013649 0.028703778
43338332 0.911976337 0.027935197
43437332 0.912077903 0.027822038
43536432 0.91217184 0.027434801
43635432 0.911895215 0.027488807
43734532 0.911596357 0.027027517
43833632 0.91197431 0.026742935
43932632 0.912026762 0.02632475
44031732 0.911806702 0.025998942
44130732 0.911737799 0.025738414
44229832 0.912070453 0.025481274
44328832 0.91185075 0.025382051
44427932 0.911744296 0.024931455
44527032 0.911813855 0.02462073
44626032 0.911619007 0.024183519
44725132 0.911531448 0.024110885
44824132 0.911815226 0.023957036
44923232 0.911441445 0.023264279
45022332 0.911472976 0.023155208
45121332 0.911268174 0.022813973
45220432 0.911432623 0.022659206
45319432 0.911484241 0.022317055
45418532 0.91127032 0.02198667
45517532 0.911385715 0.021568248
45616632 0.911315977 0.021519448
45715732 0.91166222 0.020856065
45814732 0.9113577 0.020917026
45913832 0.911570012 0.020291045
46012832 0.911461412 0.020390503
46111932 0.911336719 0.020109998
46210932 0.911301374 0.019767161
46310032 0.911495864 0.019670864
46409132 0.911142647 0.019145574
46508132 0.911193609 0.019041782
46607232 0.911079108 0.018691133
46706232 0.911347925 0.018607886
46805332 0.911385118 0.01832476
46904432 0.911543726 0.017876701
47003432 0.911376476 0.017718544
47102532 0.911137223 0.017229739
47201532 0.911359548 0.017153182
47300632 0.911286771 0.016702556
47399632 0.911049485 0.016616722
47498732 0.911395549 0.016263855
47597832 0.91156125 0.015853779
47696832 0.911329865 0.015768559
47795932 0.91122353 0.015611438
47894932 0.911304295 0.014961807
47994032 0.911303997 0.014871834
48093032 0.910880982 0.014664833
48192132 0.91096121 0.014311763
48291232 0.911429107 0.01400628
48390232 0.911010563 0.013805047
48489332 0.911021888 0.01368176
48588332 0.911102473 0.013335779
48687432 0.911198198 0.012686365
48786532 0.910970687 0.01282754
48885532 0.911016881 0.012628612
48984632 0.910881638 0.012259532
49083632 0.910881757 0.011873365
49182732 0.911166191 0.011574148
49281732 0.911111891 0.011498683
49380832 0.91126573 0.01145516
49479932 0.911138951 0.011101358
49578932 0.911248564 0.010688589
49678032 0.911180853 0.010623217
49777032 0.910882174 0.010307182
49876132 0.911147773 0.010016098
49975232 0.911023557 0.009757786
50074288 0.910798788 0.009443489
50173288 0.91082257 0.009250993
50272388 0.91076678 0.008981836
50371388 0.910957634 0.008572499
50470488 0.910773277 0.008437617
50569488 0.910848617 0.008330342
50668588 0.911036491 0.008102848
50767688 0.911031305 0.007788799
50866688 0.911077141 0.007548636
50965788 0.910837888 0.007339365
51064788 0.910968482 0.007003381
51163888 0.911176323 0.006720912
51262888 0.910804688 0.006442965
51361988 0.910930514 0.006270252
51461088 0.910754919 0.006041131
51560088 0.910796105 0.00573027
51659188 0.910777688 0.005137757
51758188 0.911002337 0.00530011
51857288 0.910729765 0.004947197
51956388 0.910639286 0.004443621
52055388 0.910764396 0.004417583
52154488 0.910809755 0.003972918
52253488 0.910887598 0.003889135
52352588 0.910931169 0.003707156
52451588 0.910715222 0.003262567
52550688 0.910724282 0.003176828
52649788 0.910822451 0.00275718
52748788 0.910848975 0.002594186
52847888 0.910951733 0.002125254
52946888 0.910852253 0.00212593
53045988 0.910706698 0.001859544
53144988 0.910494208 0.00164877
53244088 0.910961151 0.001344821
53343188 0.910783529 0.001228855
53442188 0.910739302 0.001172761
53541288 0.910787642 0.000879119
53640288 0.91080439 0.000318268
53739388 0.910618662 0.000388686
53838488 0.910574197 -0.000111759
53937488 0.910709679 -0.000277655
54036588 0.91049838 -0.000417539
54135588 0.910653054 -0.000956377
54234688 0.910709381 -0.000983328
54333688 0.910428881 -0.00133612
54432788 0.910472393 -0.00118839
54531888 0.910557687 -0.001681023
54630888 0.910544455 -0.001929281
54729988 0.910543799 -0.002182947
54828988 0.911006629 -0.002327129
54928088 0.910608589 -0.002624091
55027188 0.910616695 -0.00285664
55126188 0.910589635 -0.003112307
55225288 0.910690665 -0.003325794
55324288 0.910566449 -0.003507167
55423388 0.910777151 -0.003684357
55522388 0.910516977 -0.004180701
55621488 0.910707056 -0.004307814
55720588 0.910775899 -0.004643121
55819588 0.910682678 -0.004706788
55918688 0.910760939 -0.004987376
56017688 0.910909831 -0.005022287
56116788 0.910764396 -0.005298326
56215788 0.910975635 -0.005564391
56314888 0.910599112 -0.005915914
56413988 0.910594463 -0.006380949
56512988 0.910456478 -0.006241649
56612088 0.910692512 -0.006654264
56711088 0.911059021 -0.006791513
56810188 0.910633802 -0.007151933
56909288 0.910648167 -0.007518072
57008288 0.910851418 -0.007597939
57107388 0.910839796 -0.007759613
57206388 0.910812079 -0.008001697
57305488 0.910930573 -0.008347802
57404488 0.910718202 -0.008571886
57503588 0.910588324 -0.008737025
57602688 0.911037743 -0.009165668
57701688 0.911089122 -0.009329682
57800788 0.91090548 -0.009553373
57899788 0.910705208 -0.00957649
57998888 0.910739719 -0.010058347
58097888 0.910817027 -0.00998623
58196988 0.910451173 -0.010609718
58296088 0.910611093 -0.010291028
58395088 0.910638391 -0.010742037
58494188 0.910836696 -0.011004721
58593188 0.910669803 -0.011360307
58692288 0.910586714 -0.011580498
58791388 0.910674095 -0.012311452
58890388 0.910946607 -0.011891088
58989488 0.910859048 -0.012294458
59088488 0.910822987 -0.012573782
59187588 0.910783052 -0.01292969
59286588 0.910758435 -0.012915433
59385688 0.910599768 -0.013534168
59484788 0.910677373 -0.013495
59583788 0.910636484 -0.013804703
59682888 0.910832643 -0.013825751
59781888 0.910566806 -0.014293844
59880988 0.910944879 -0.014248091
59980088 0.910681486 -0.014710922
60079148 0.91075927 -0.014722821
60178148 0.910469114 -0.014829109
60277248 0.910724282 -0.01518444
