# HZ S RI R 50
50000 -1.002254366 0.003893563
148600 -1.000263214 0.042722593
247300 -0.99762839 0.0775325
346000 -0.993633627 0.11060024
444700 -0.988453149 0.144159138
543400 -0.981719374 0.17715989
642100 -0.973852574 0.210064157
740800 -0.964506566 0.242245554
839500 -0.95361191 0.274799674
938200 -0.94158262 0.306846886
1036900 -0.927744567 0.3384763
1135600 -0.912624895 0.369534581
1234300 -0.895408689 0.399622142
1333000 -0.876146197 0.42958045
1431700 -0.854573547 0.457871705
1530400 -0.831442296 0.484967887
1629100 -0.806257784 0.50965178
1727800 -0.77967602 0.532193303
1826500 -0.751610279 0.552692592
1925200 -0.723478496 0.570034205
2023900 -0.694730281 0.584969699
2122600 -0.665939271 0.598051965
2221300 -0.637921988 0.608101129
2320000 -0.609885692 0.616426765
2418700 -0.582886457 0.62307763
2517400 -0.557013392 0.627991497
2616100 -0.532204389 0.63093394
2714800 -0.507936239 0.633261501
2813500 -0.485026091 0.634284973
2912200 -0.462944298 0.634407103
3010900 -0.442145913 0.633726716
3109600 -0.422077924 0.632702529
3208300 -0.403241425 0.630913555
3307000 -0.385352939 0.629004657
3405700 -0.368389189 0.625930428
3504400 -0.352144211 0.623663723
3603100 -0.336545825 0.620380878
3701800 -0.322046875 0.617506265
3800500 -0.307926505 0.614192783
3899200 -0.294478565 0.611019909
3997900 -0.281937897 0.607510387
4096600 -0.269682586 0.604034841
4195300 -0.258049607 0.600599706
4294000 -0.246718436 0.596857011
4392700 -0.236146077 0.593453764
4491400 -0.225767984 0.58987087
4590100 -0.216020837 0.586338698
4688800 -0.206534862 0.583200931
4787500 -0.197305247 0.579682469
4886200 -0.188636094 0.576280653
4984900 -0.179827898 0.573177099
5083500 -0.171789348 0.570040881
5182200 -0.163860291 0.566952586
5280900 -0.155999615 0.56400454
5379600 -0.148538395 0.56113857
5478300 -0.141360759 0.558167934
5577000 -0.134147241 0.555331408
5675700 -0.127355292 0.552407085
5774400 -0.1208442 0.549859046
5873100 -0.114334166 0.547030806
5971800 -0.108447089 0.544532358
6070500 -0.102316506 0.542078793
6169200 -0.096762359 0.539267003
6267900 -0.091156862 0.536925673
6366600 -0.086229898 0.534497618
6465300 -0.081537961 0.532413899
6564000 -0.076998829 0.530298769
6662700 -0.072294965 0.528422832
6761400 -0.066489122 0.52633208
6860100 -0.060075707 0.523611187
6958800 -0.054300282 0.521257221
7057500 -0.048316374 0.519084334
7156200 -0.043173462 0.5171929
7254900 -0.038412559 0.51515156
7353600 -0.034260679 0.513030827
7452300 -0.030301894 0.511053144
7551000 -0.025993783 0.509138226
7649700 -0.022062376 0.507098793
7748400 -0.01779256 0.505322575
7847100 -0.013978189 0.503532826
7945800 -0.009832955 0.501573145
8044500 -0.005961825 0.499918103
8143200 -0.001985886 0.498211234
8241900 0.001792145 0.496554046
8340600 0.005461722 0.494828194
8439300 0.009210162 0.49312362
8538000 0.012958616 0.491680651
8636700 0.016475657 0.489979594
8735400 0.020024312 0.488497734
8834100 0.023599781 0.486919075
8932800 0.026878695 0.48537451
9031500 0.030327595 0.483972609
9130200 0.033455364 0.482538759
9228900 0.036748938 0.480997204
9327600 0.040122564 0.479504704
9426300 0.043158303 0.478189647
9525000 0.046323139 0.476652622
9623700 0.049536086 0.475311249
9722400 0.052364844 0.473920017
9821100 0.05556555 0.472513556
9919800 0.05848886 0.471265882
10018898 0.061218384 0.469897955
10117898 0.064281217 0.468883633
10216998 0.067314013 0.467754036
10316098 0.07015337 0.466374695
10415198 0.072747595 0.465209871
10514298 0.075737893 0.463959246
10613398 0.078420206 0.462801545
10712498 0.081041499 0.461652129
10811598 0.083658322 0.460696935
10910698 0.086437746 0.459516286
11009798 0.089102566 0.458327472
11108898 0.091562293 0.457284301
11207998 0.094214014 0.456086993
11307098 0.096517182 0.455196142
11406198 0.099135726 0.453893005
11505298 0.101617552 0.45279631
11604398 0.10386902 0.451797395
11703498 0.106524966 0.450663775
11802598 0.108746424 0.449622392
11901698 0.11079397 0.448885053
12000798 0.113435678 0.447528153
12099898 0.115575253 0.446625769
12198998 0.117824994 0.445589154
12298098 0.120330654 0.44458276
12397198 0.122558064 0.443612903
12496298 0.124814651 0.442497193
12595398 0.127129614 0.441563516
12694498 0.129267364 0.440574944
12793598 0.131460115 0.439740538
12892698 0.133531957 0.438653469
12991798 0.135558351 0.437745869
13090898 0.137604847 0.436865776
13189998 0.139681383 0.435891062
13289098 0.141827359 0.435049623
13388198 0.143735781 0.434215128
13487298 0.145736321 0.433225452
13586398 0.147647008 0.432405292
13685498 0.149372339 0.431446611
13784598 0.151426509 0.430662125
13883698 0.153164029 0.429703861
13982798 0.155474618 0.428996741
14081898 0.157436847 0.428137034
14180998 0.15930508 0.427269995
14280098 0.161174595 0.426502496
14379198 0.163160786 0.425736606
14478298 0.164957895 0.424827814
14577398 0.167012348 0.424252122
14676498 0.168890446 0.423395782
14775598 0.17062956 0.42284283
14874698 0.172417506 0.421850144
14973798 0.174267873 0.421253979
15072798 0.175962582 0.420449405
15171898 0.17784284 0.419651865
15270998 0.179654762 0.419098347
15370098 0.181324094 0.418111205
15469198 0.182969763 0.417559176
15568298 0.184653282 0.416895389
15667398 0.186246544 0.416209816
15766498 0.187863215 0.415389984
15865598 0.189693406 0.41458851
15964698 0.191213071 0.413768678
16063798 0.193049162 0.413162231
16162898 0.194582551 0.412536144
16261998 0.196151182 0.411730825
16361098 0.197821214 0.410994768
16460198 0.199368834 0.410325378
16559298 0.200843721 0.409558802
16658398 0.202571317 0.4088445
16757498 0.203939139 0.408118993
16856598 0.205625429 0.407500267
16955698 0.207117989 0.406607747
17054798 0.20865722 0.406017929
17153898 0.210083857 0.405313819
17252998 0.211618378 0.404583752
17352098 0.213147357 0.403760433
17451198 0.21453613 0.40326482
17550298 0.216200798 0.402389943
17649398 0.217527136 0.401597857
17748498 0.218888804 0.401084691
17847598 0.220379322 0.400470405
17946698 0.221837848 0.399855583
18045798 0.22326146 0.399056375
18144898 0.22472997 0.39844647
18243998 0.226176336 0.397733926
18343098 0.227739259 0.397240638
18442198 0.228840038 0.396597087
18541298 0.230530753 0.395961433
18640398 0.231759712 0.395283102
18739498 0.233340784 0.394645929
18838598 0.23463276 0.393967121
18937698 0.23590295 0.393356621
19036798 0.237112551 0.392782002
19135898 0.23856382 0.392194032
19234998 0.239733442 0.391386181
19334098 0.240952402 0.390883326
19433198 0.242348164 0.390327244
19532298 0.243573561 0.389765143
19631398 0.245047315 0.389018416
19730498 0.24637705 0.388478517
19829598 0.247479915 0.387800037
19928698 0.248713776 0.387276202
20027796 0.249977856 0.386578381
20126796 0.25118938 0.385886758
20225896 0.252594411 0.385442286
20324996 0.253886878 0.384828537
20424096 0.25509867 0.384021639
20523196 0.256178289 0.383516967
20622296 0.257480561 0.382962167
20721396 0.25872448 0.382206529
20820496 0.259877204 0.381647795
20919596 0.260920584 0.381072252
21018696 0.262138426 0.380362004
21117796 0.263371139 0.380017578
21216896 0.264467835 0.37929365
21315996 0.265606254 0.378735125
21415096 0.266797572 0.378242939
21514196 0.267842441 0.377618372
21613296 0.268931269 0.376977741
21712396 0.270043849 0.37655422
21811496 0.271283149 0.375773817
21910596 0.272423833 0.375349074
22009696 0.273406654 0.374714672
22108796 0.274563044 0.374250859
22207896 0.275717794 0.373605996
22306996 0.27670896 0.373070269
22406096 0.277953743 0.372307687
22505196 0.279064148 0.371872216
22604296 0.280006945 0.37145406
22703396 0.281162887 0.370831757
22802496 0.282191425 0.370315283
22901596 0.282996952 0.369641572
23000696 0.284255146 0.369122564
23099796 0.285360455 0.368639111
23198896 0.286314219 0.367938518
23297996 0.287345498 0.367511332
23397096 0.288253605 0.366966485
23496196 0.289212226 0.366316348
23595296 0.29018718 0.365801185
23694396 0.291294634 0.36521086
23793496 0.292269676 0.364908605
23892596 0.293395936 0.364304959
23991696 0.294406503 0.36349985
24090796 0.295214384 0.363174974
24189896 0.296181023 0.362736135
24288996 0.29704523 0.362118601
24388096 0.298140287 0.361621409
24487196 0.298988342 0.361269563
24586296 0.300139307 0.360501766
24685396 0.300878643 0.360031753
24784496 0.301903367 0.359495043
24883596 0.302706122 0.35893926
24982696 0.303625553 0.358675837
25081696 0.304795593 0.357932001
25180796 0.305659621 0.357479482
25279896 0.30643922 0.356929659
25378996 0.307412683 0.356550633
25478096 0.308433651 0.356064736
25577196 0.309264808 0.355462491
25676296 0.309984475 0.354833424
25775396 0.31091398 0.354468762
25874496 0.311919689 0.353931784
25973596 0.312748908 0.353341937
26072696 0.313561558 0.352968066
26171796 0.314524173 0.352573186
26270896 0.315390348 0.351955145
26369996 0.316164225 0.351496905
26469096 0.316937536 0.350892454
26568196 0.317857444 0.350603312
26667296 0.318699985 0.349945574
26766396 0.319618016 0.349395781
26865496 0.320470064 0.348871052
26964596 0.321290791 0.348363667
27063696 0.322056442 0.347765117
27162796 0.322894036 0.347220808
27261896 0.323729306 0.34683004
27360996 0.324619561 0.346464723
27460096 0.325543373 0.34586215
27559196 0.326094597 0.345445036
27658296 0.326812386 0.344845563
27757396 0.327786356 0.344207674
27856496 0.328499764 0.343877315
27955596 0.329203784 0.343364208
28054696 0.329949349 0.342826962
28153796 0.330846458 0.342430949
28252896 0.331623733 0.341997325
28351996 0.332395374 0.341424256
28451096 0.33305636 0.340964764
28550196 0.333832651 0.340585798
28649296 0.334451079 0.33989036
28748396 0.335193723 0.339603006
28847496 0.335824936 0.339162915
28946596 0.336734682 0.338719069
29045696 0.337469369 0.338271558
29144796 0.337957561 0.337617158
29243896 0.338676214 0.337421923
29342996 0.339432299 0.336705565
29442096 0.340120464 0.336374551
29541196 0.340909034 0.336006969
29640296 0.341580897 0.335517704
29739396 0.342419326 0.335038483
29838496 0.342982381 0.334431022
29937596 0.343576043 0.334099948
30036694 0.34417808 0.333674967
30135694 0.34484741 0.33317092
30234794 0.345674425 0.332684278
30333894 0.346310734 0.332326501
30432994 0.347028583 0.331916451
30532094 0.347736686 0.331421077
30631194 0.348392397 0.330899
30730294 0.349131584 0.330700546
30829394 0.349748671 0.330004364
30928494 0.350260645 0.329552024
31027594 0.351095587 0.329180538
31126694 0.351535618 0.328666031
31225794 0.352256864 0.328145265
31324894 0.352810859 0.327897995
31423994 0.35342735 0.327314496
31523094 0.354094535 0.327010095
31622194 0.354730457 0.326520949
31721294 0.35539171 0.325926363
31820394 0.355983942 0.325583279
31919494 0.356549561 0.325142353
32018594 0.357319951 0.324661403
32117694 0.357787221 0.324172496
32216794 0.358379125 0.323728293
32315894 0.359058707 0.323431611
32414994 0.359637349 0.322889089
32514094 0.360128045 0.322589874
32613194 0.360815137 0.322282731
32712294 0.361378848 0.321842283
32811394 0.362046033 0.321433454
32910494 0.36256659 0.320985764
33009594 0.363119691 0.320824861
33108694 0.363816261 0.320232093
33207794 0.364287227 0.319947034
33306894 0.364967733 0.31941089
33405994 0.365626394 0.319016158
33505094 0.366092741 0.318837195
33604194 0.366628885 0.318462491
33703294 0.367117017 0.31792131
33802394 0.367834538 0.317677825
33901494 0.36840415 0.317209035
34000594 0.368936777 0.316875398
34099694 0.369597733 0.316499918
34198794 0.369975566 0.316085577
34297894 0.370661526 0.315740913
34396994 0.371128439 0.31516689
34496094 0.371760189 0.314952582
34595194 0.372186988 0.314458787
34694294 0.372969657 0.314072698
34793394 0.373304396 0.313731044
34892494 0.373903155 0.313277035
34991594 0.37435007 0.313082784
35090594 0.374790787 0.31247121
35189694 0.375327289 0.312330067
35288794 0.375778317 0.311818927
35387894 0.376283317 0.311166822
35486994 0.376841753 0.31099838
35586094 0.377212911 0.310476094
35685194 0.377884894 0.310147583
35784294 0.378292798 0.309896528
35883394 0.378923058 0.309597969
35982494 0.379353582 0.309220582
36081594 0.379792362 0.308791995
36180694 0.380485594 0.308448106
36279794 0.380880653 0.307957798
36378894 0.381445974 0.307765245
36477994 0.381909728 0.307351678
36577094 0.382382273 0.30684936
36676194 0.382943004 0.306701719
36775294 0.383289754 0.306429684
36874394 0.383851647 0.306067764
36973494 0.384352177 0.305748313
37072594 0.384935051 0.305249094
37171694 0.385237991 0.305008023
37270794 0.385734915 0.304547756
37369894 0.386329263 0.304216325
37468994 0.386636167 0.303910404
37568094 0.387285202 0.303608387
37667194 0.387711346 0.30313155
37766294 0.38802579 0.302812129
37865394 0.388547599 0.302529007
37964494 0.389028429 0.302258253
38063594 0.389583766 0.301984995
38162694 0.389961719 0.301679253
38261794 0.39032334 0.301420181
38360894 0.390743076 0.300961464
38459994 0.391090512 0.300679028
38559094 0.391599416 0.300271451
38658194 0.392115265 0.29991883
38757294 0.392531841 0.299494445
38856394 0.392836034 0.299334406
38955494 0.393448293 0.29881975
39054594 0.393835663 0.29862231
39153694 0.393983691 0.29842934
39252794 0.394665688 0.298054277
39351894 0.395031064 0.29775229
39450994 0.395551502 0.297377645
39550094 0.39593929 0.296997994
39649194 0.396200835 0.296922594
39748294 0.396671056 0.296382933
39847394 0.397248178 0.296101719
39946494 0.397548407 0.295997351
40045592 0.397949814 0.295594811
40144592 0.398212075 0.295361816
40243692 0.398765981 0.294999718
40342792 0.399177402 0.294550061
40441892 0.399582147 0.294157773
40540992 0.399899303 0.293849438
40640092 0.400308907 0.293639034
40739192 0.400862663 0.293289661
40838292 0.401158928 0.293042391
40937392 0.401683151 0.292651116
41036492 0.401956737 0.292500704
41135592 0.402175992 0.292280346
41234692 0.402470141 0.291853725
41333792 0.403293311 0.291523724
41432892 0.403571575 0.291171163
41531992 0.403946489 0.290810137
41631092 0.404520153 0.290608316
41730192 0.404698312 0.290378242
41829292 0.405054807 0.290132939
41928392 0.405387461 0.289622873
42027492 0.405775099 0.289495557
42126592 0.40622279 0.289251357
42225692 0.406637877 0.28876546
42324792 0.40710175 0.288719534
42423892 0.407358735 0.288246333
42522992 0.407746195 0.288235574
42622092 0.408245444 0.28774771
42721192 0.408459454 0.287438005
42820292 0.408916473 0.287087053
42919392 0.409289956 0.286801189
43018492 0.409521758 0.286831378
43117592 0.410054355 0.28626582
43216692 0.410348087 0.286198973
43315792 0.410568922 0.285972267
43414892 0.411033213 0.285682052
43513992 0.411409735 0.285242795
43613092 0.411786496 0.284906595
43712192 0.411959379 0.28494057
43811292 0.412475824 0.284208923
43910392 0.412920027 0.284409224
44009492 0.413190186 0.283971935
44108592 0.413723886 0.283607214
44207692 0.413958072 0.283360183
44306792 0.414426773 0.283041447
44405892 0.414520114 0.282754868
44504992 0.414905011 0.282376945
44604092 0.41514039 0.282513558
44703192 0.415578812 0.282013952
44802292 0.416035443 0.281902164
44901392 0.416425287 0.281343728
45000492 0.416725993 0.281112939
45099492 0.417144864 0.280749201
45198592 0.417353093 0.280688762
45297692 0.417878955 0.280516892
45396792 0.418152034 0.2802096
45495892 0.418426126 0.279868543
45594992 0.41879931 0.279549181
45694092 0.419108539 0.279348969
45793192 0.419472873 0.279199868
45892292 0.419807493 0.279085069
45991392 0.419980645 0.278469175
46090492 0.420274406 0.278465688
46189592 0.420685708 0.277977049
46288692 0.421070784 0.277732282
46387792 0.421479493 0.27750343
46486892 0.421748965 0.277201235
46585992 0.422118932 0.277036756
46685092 0.422379225 0.276761859
46784192 0.422685325 0.276254087
46883292 0.423019528 0.276387184
46982392 0.423353642 0.275961458
47081492 0.423633724 0.275631725
47180592 0.423856884 0.275371104
47279692 0.424260407 0.275154024
47378792 0.424652963 0.275109052
47477892 0.424809038 0.274773478
47576992 0.425153344 0.274498522
47676092 0.425248503 0.274417579
47775192 0.425757676 0.274098932
47874292 0.426146864 0.274068295
47973392 0.426472157 0.273665696
48072492 0.426873654 0.273346751
48171592 0.427108466 0.273258566
48270692 0.427221983 0.272878348
48369792 0.427744925 0.273001909
48468892 0.428094685 0.272607117
48567992 0.428284823 0.272372245
48667092 0.428769469 0.272146821
48766192 0.429077595 0.271745413
48865292 0.429346382 0.271719396
48964392 0.429687708 0.271331638
49063492 0.42984125 0.271245777
49162592 0.430081963 0.270910024
49261692 0.430354386 0.270473927
49360792 0.430653691 0.270466864
49459892 0.430856943 0.270234704
49558992 0.431385964 0.270020335
49658092 0.431646496 0.269716113
49757192 0.431943535 0.269417047
49856292 0.432318389 0.269067406
49955392 0.43259561 0.268989652
50054488 0.432663172 0.268759101
50153488 0.433171719 0.268404662
50252588 0.433489054 0.268327951
50351688 0.433799356 0.267976611
50450788 0.433992505 0.267767101
50549888 0.434366166 0.267618417
50648988 0.434678882 0.267279535
50748088 0.43487972 0.267069548
50847188 0.435124993 0.266881555
50946288 0.435515075 0.266600579
51045388 0.435773998 0.26658222
51144488 0.435888737 0.266293168
51243588 0.436253339 0.266105562
51342688 0.436599522 0.265757143
51441788 0.436741232 0.265660673
51540888 0.437196284 0.265363037
51639988 0.437281876 0.265345603
51739088 0.437497258 0.264934182
51838188 0.437932699 0.264789432
51937288 0.438069432 0.264661073
52036388 0.438507646 0.26436752
52135488 0.438535064 0.264233559
52234588 0.438783347 0.263941317
52333688 0.439113348 0.263697057
52432788 0.439302116 0.263566106
52531888 0.439541667 0.263379901
52630988 0.439757078 0.263053059
52730088 0.440072536 0.262779742
52829188 0.440361917 0.262595832
52928288 0.4405725 0.262283712
53027388 0.440970957 0.262215733
53126488 0.441138267 0.261991083
53225588 0.441418856 0.261831164
53324688 0.441721707 0.261719822
53423788 0.441984534 0.261420398
53522888 0.442198991 0.261106282
53621988 0.442473292 0.260861396
53721088 0.442689627 0.260589271
53820188 0.443046063 0.260541975
53919288 0.443140268 0.260097473
54018388 0.443519443 0.259927123
54117488 0.443748474 0.259898751
54216588 0.443884223 0.259523361
54315688 0.444154739 0.259346485
54414788 0.444339632 0.259128779
54513888 0.444784879 0.259007781
54612988 0.444994062 0.258875131
54712088 0.445118695 0.258545666
54811188 0.445328593 0.258402884
54910288 0.44572401 0.258235156
55009388 0.445954829 0.25822547
55108388 0.446200221 0.257953405
55207488 0.446363091 0.257962286
55306588 0.446740001 0.257524132
55405688 0.447006583 0.257478028
55504788 0.447225451 0.257325172
55603888 0.447350978 0.257088512
55702988 0.447833031 0.256857305
55802088 0.44778034 0.256490528
55901188 0.448108017 0.256512284
56000288 0.448346853 0.256404191
56099388 0.448526263 0.256261348
56198488 0.448783963 0.255928605
56297588 0.449144035 0.255721151
56396688 0.449495613 0.255562692
56495788 0.449597507 0.255325436
56594888 0.449867725 0.255155831
56693988 0.450232833 0.255106359
56793088 0.450434237 0.254633933
56892188 0.45047006 0.25438413
56991288 0.450803875 0.254171937
57090388 0.450974225 0.254030793
57189488 0.451269686 0.25393781
57288588 0.451604664 0.253671705
57387688 0.451664239 0.253516197
57486788 0.452125012 0.253285378
57585888 0.452334403 0.253022342
57684988 0.452308356 0.253032356
57784088 0.452670186 0.252798706
57883188 0.453004688 0.252714157
57982288 0.453188925 0.252573788
58081388 0.453389585 0.252335608
58180488 0.453712582 0.252137184
58279588 0.453923046 0.25214079
58378688 0.454149186 0.251787245
58477788 0.454508125 0.251762002
58576888 0.454628735 0.251544088
58675988 0.454801797 0.2512753
58775088 0.454915255 0.251224398
58874188 0.455183237 0.251023024
58973288 0.455256611 0.250611394
59072388 0.455551892 0.250569671
59171488 0.455829709 0.250280857
59270588 0.455816864 0.250041067
59369688 0.455980002 0.250040978
59468788 0.456137508 0.249734088
59567888 0.456357955 0.249501094
59666988 0.456650912 0.249351501
59766088 0.456802815 0.249219685
59865188 0.457026422 0.249156326
59964288 0.457169532 0.248893395
60063388 0.457583874 0.248712912
60162388 0.457712292 0.248579293
60261488 0.458021908 0.248591795
60360588 0.45810303 0.248350933
