# HZ S RI R 50
50000 -0.992326259 0.019265908
446300 -0.952416598 0.264388561
842700 -0.850311219 0.470178186
1239100 -0.712441682 0.627593696
1635500 -0.561782896 0.735537111
2031900 -0.413668423 0.802026867
2428200 -0.277201861 0.83665508
2824600 -0.156038179 0.849437296
3221000 -0.050411887 0.8472175
3617400 0.040705073 0.835572659
4013800 0.119128733 0.817985355
4410200 0.186188086 0.797169089
4806500 0.244100704 0.775046467
5202900 0.294444322 0.752430319
5599300 0.338427662 0.729670047
5995700 0.376358389 0.707901597
6392100 0.407479077 0.689750611
6788500 0.439306199 0.667510151
7184800 0.468229025 0.646904468
7581200 0.491420775 0.628719329
7977600 0.513090491 0.610997855
8374000 0.532249748 0.594445884
8770400 0.550185143 0.578794479
9166800 0.566338121 0.563867807
9563100 0.581076145 0.549917817
9959500 0.594487905 0.536676228
10355900 0.60713762 0.524379909
10752300 0.618731617 0.512180566
11148700 0.629637718 0.500597298
11545100 0.639696121 0.489706248
11941400 0.649142086 0.478965044
12337800 0.657786965 0.469266682
12734200 0.665882885 0.459757834
13130600 0.673615336 0.450653612
13527000 0.681031823 0.442194938
13923400 0.687683343 0.433862477
14319700 0.694140851 0.425931036
14716100 0.700363337 0.418211787
15112500 0.706232309 0.410843521
15508900 0.711889386 0.403834372
15905300 0.717425465 0.3971771
16301700 0.722267091 0.390666097
16698000 0.726922869 0.384412199
17094400 0.731430411 0.378093361
17490800 0.735923349 0.372698247
17887200 0.740262031 0.366660684
18283600 0.744330227 0.361273974
18680000 0.748213887 0.356153309
19076300 0.752155482 0.35087037
19472700 0.75568521 0.34597817
19869100 0.758865773 0.341043651
20265500 0.76219809 0.33619669
20661900 0.765533924 0.331771612
21058200 0.76849246 0.327446877
21454600 0.771335661 0.323005229
21851000 0.773832142 0.31900382
22247400 0.7769804 0.31496033
22643800 0.779639601 0.311015874
23040200 0.782300472 0.3071087
23436500 0.784875154 0.303510725
23832900 0.787353336 0.299722403
24229300 0.7896896 0.296185612
24625700 0.79236555 0.292741239
25022100 0.794252872 0.289551228
25418500 0.796471536 0.286046475
25814800 0.798372864 0.282735913
26211200 0.800628125 0.279608517
26607600 0.802617967 0.276348561
27004000 0.804453015 0.273679703
27400400 0.806307554 0.270544439
27796800 0.808284878 0.267602086
28193100 0.809969127 0.26467365
28589500 0.811682164 0.261899828
28985900 0.813462495 0.259189099
29382300 0.814916014 0.256561756
29778700 0.816667258 0.253911435
30175100 0.818225026 0.251324236
30571400 0.819789588 0.248978018
30967800 0.821256816 0.246411308
31364200 0.822673738 0.244171723
31760600 0.824459791 0.242012217
32157000 0.825593411 0.239530131
32553400 0.827047824 0.237114757
32949700 0.828054487 0.234896436
33346100 0.829731702 0.232765778
33742500 0.831073641 0.230451598
34138900 0.832158923 0.228390425
34535300 0.833500921 0.226118892
34931700 0.834719538 0.224425345
35328000 0.836048066 0.222249522
35724400 0.837277531 0.220281526
36120800 0.838408648 0.218335717
36517200 0.839385449 0.216405123
36913600 0.840467214 0.214290723
37310000 0.841565012 0.212603151
37706300 0.842727065 0.210611239
38102700 0.843658745 0.208952993
38499100 0.844573855 0.207002118
38895500 0.845593392 0.205268651
39291900 0.846666634 0.203756615
39688300 0.847665131 0.201770603
40084684 0.848141372 0.200411289
40480984 0.849293231 0.198441386
40877384 0.850310504 0.196956306
41273784 0.851489186 0.195088475
41670184 0.85206896 0.193736463
42066584 0.85283941 0.192068427
42462884 0.853929698 0.190355733
42859284 0.854501008 0.188914865
43255684 0.855367362 0.187331378
43652084 0.856258451 0.185900613
44048484 0.857211172 0.184432059
44444884 0.85799098 0.182773232
44841184 0.858675777 0.18147847
45237584 0.859381914 0.180193096
45633984 0.860326409 0.178507313
46030384 0.860973715 0.177466198
46426784 0.861562669 0.175957024
46823184 0.862339675 0.174419388
47219484 0.863224565 0.173370555
47615884 0.863936603 0.171926304
48012284 0.864634573 0.170500427
48408684 0.865304112 0.169334203
48805084 0.866336166 0.16783671
49201484 0.866697728 0.166669279
49597784 0.867539703 0.165432423
49994184 0.86798036 0.16415061
50390584 0.86845541 0.162842527
50786984 0.868795335 0.161680802
51183384 0.86976087 0.160519525
51579784 0.870359539 0.159295305
51976084 0.870899617 0.158082187
52372484 0.871424496 0.157020643
52768884 0.872091054 0.155778884
53165284 0.872505903 0.154643014
53561684 0.873003184 0.153654739
53958084 0.873442709 0.152391254
54354384 0.873872697 0.151467055
54750784 0.874707758 0.15028721
55147184 0.875273644 0.148990064
55543584 0.87607783 0.14789915
55939984 0.876361668 0.146839812
56336384 0.876747429 0.145692348
56732684 0.877307176 0.14487569
57129084 0.877736151 0.14358288
57525484 0.878340303 0.142669603
57921884 0.878835558 0.141694277
58318284 0.879022777 0.140683248
58714684 0.87987554 0.139674931
59110984 0.88030374 0.138368308
59507384 0.88068825 0.137368589
59903784 0.881293475 0.136527165
60300184 0.881487786 0.135640114
60696584 0.881917178 0.134520351
61092884 0.88253045 0.133761063
61489284 0.882870078 0.132501155
61885684 0.883261859 0.131653875
62282084 0.883862853 0.130497589
62678484 0.884288072 0.129946902
63074884 0.884642064 0.128750398
63471184 0.88510251 0.128058508
63867584 0.885469675 0.127170026
64263984 0.885794162 0.126145511
64660384 0.886185407 0.125170007
65056784 0.886673569 0.124425008
65453184 0.887200415 0.123384058
65849484 0.887647628 0.122574619
66245884 0.887620449 0.121749274
66642284 0.888029396 0.120880343
67038684 0.888514459 0.119748093
67435084 0.889627158 0.119300678
67831484 0.889493227 0.118303485
68227784 0.889800488 0.117329396
68624184 0.889837324 0.116183236
69020584 0.890421509 0.115914151
69416984 0.890639007 0.114923059
69813384 0.891015946 0.114080533
70209784 0.891524434 0.113324098
70606084 0.891948938 0.112382553
71002484 0.892162561 0.111735291
71398884 0.892380952 0.11064922
71795284 0.892939984 0.109652683
72191684 0.893219292 0.109331212
72588084 0.893345475 0.108231514
72984384 0.893430173 0.107580631
73380784 0.894525289 0.106850728
73777184 0.894716322 0.105923853
74173584 0.894782185 0.105402506
74569984 0.895027637 0.104586243
74966384 0.895676732 0.103892698
75362684 0.896140515 0.103134438
75759084 0.89659959 0.102482005
76155484 0.895892679 0.101852267
76551884 0.896921932 0.100984312
76948284 0.896702766 0.100151792
77344684 0.89711517 0.099325723
77740984 0.897365927 0.098899357
78137384 0.89775145 0.098084628
78533784 0.898338437 0.097280308
78930184 0.898278176 0.096564657
79326584 0.898716807 0.095747306
79722984 0.899683475 0.095321558
80119368 0.899264693 0.094009622
80515668 0.899610102 0.09344574
80912068 0.900105237 0.092324621
81308468 0.900343239 0.092650763
81704868 0.900226175 0.091531075
82101268 0.900206208 0.090876452
82497568 0.900640547 0.090189211
82893968 0.901363432 0.089617945
83290368 0.901227831 0.088784545
83686768 0.90204668 0.088310867
84083168 0.901846826 0.087330676
84479568 0.902131319 0.086629457
84875868 0.902321755 0.086101643
85272268 0.902021467 0.085143193
85668668 0.903583049 0.084857344
86065068 0.902744412 0.084110856
86461468 0.903636574 0.083042062
86857768 0.903532207 0.082451097
87254168 0.903784573 0.081836357
87650568 0.904208481 0.081353388
88046968 0.904368937 0.080385863
88443368 0.904601991 0.079776324
88839768 0.904036998 0.079341366
89236068 0.905117034 0.078969351
89632468 0.904998183 0.078361593
90028868 0.905587673 0.077307447
90425268 0.905614197 0.07645981
90821668 0.906543552 0.075881123
91217968 0.905950546 0.07558453
91614368 0.9064942 0.075053393
92010768 0.905478715 0.07422319
92407168 0.906926453 0.073763698
92803568 0.907461345 0.072582401
93199968 0.906623184 0.071889579
93596268 0.907115757 0.071251444
93992668 0.908459305 0.070578873
94389068 0.908438563 0.07036703
94785468 0.907621562 0.069475986
95181868 0.90854299 0.068471096
95578168 0.908663213 0.068128645
95974568 0.908047258 0.067021049
96370968 0.908534646 0.066758073
96767368 0.910030364 0.065774127
97163768 0.909368932 0.065149322
97560168 0.909640133 0.064683012
97956468 0.910605132 0.063559077
98352868 0.909909307 0.063174337
98749268 0.91057837 0.062675625
99145668 0.909651815 0.061262797
99542068 0.90947175 0.060694813
99938468 0.911353409 0.060255758
100334768 0.910566747 0.058271095
100731168 0.910919129 0.055911462
101127568 0.910773217 0.053508475
101523968 0.911616861 0.051054298
101920368 0.911338746 0.048917748
102316668 0.911650002 0.046336274
102713068 0.911479175 0.044306837
103109468 0.91158241 0.04180663
103505868 0.911166012 0.039273198
103902268 0.912021458 0.036874771
104298668 0.912059783 0.034266155
104694968 0.911560177 0.031893335
105091368 0.911725342 0.029366139
105487768 0.91186577 0.026892341
105884168 0.911515772 0.024529982
106280568 0.911446332 0.0216933
106676868 0.910934567 0.019158534
107073268 0.910773277 0.016254082
107469668 0.910249829 0.013989835
107866068 0.910176098 0.011192711
108262468 0.909599423 0.008181351
108658868 0.909187674 0.005677117
109055168 0.908127725 0.003069361
109451568 0.907395184 9.9786e-05
109847968 0.90578252 -0.002300753
110244368 0.90495193 -0.004993589
110640768 0.903004705 -0.007314427
111037068 0.901214122 -0.0093205
111433468 0.899519681 -0.01091329
111829868 0.898057878 -0.012105598
112226268 0.895805716 -0.013086257
112622668 0.895124077 -0.013785597
113019068 0.894225418 -0.014310034
113415368 0.89332503 -0.014672912
113811768 0.893422305 -0.014808782
114208168 0.89341253 -0.015275438
114604568 0.893707275 -0.015789534
115000968 0.894341945 -0.016320908
115397268 0.89453423 -0.017919737
115793668 0.895753145 -0.019044576
116190068 0.896410942 -0.020867882
116586468 0.896211683 -0.02268026
116982868 0.89690572 -0.024469552
117379268 0.897472798 -0.026364218
117775568 0.89785993 -0.028229588
118171968 0.897803902 -0.029982443
118568368 0.898328125 -0.032063953
118964768 0.898054659 -0.034122813
119361168 0.89829564 -0.036061961
119757568 0.897726535 -0.037996921
120154048 0.897996544 -0.039808414
120550348 0.897886335 -0.042079996
120946748 0.89761877 -0.043736215
121343148 0.897845983 -0.045714914
121739548 0.897113859 -0.047219615
122135948 0.897147953 -0.049417287
122532248 0.896772146 -0.051133904
122928648 0.896707534 -0.052618876
123325048 0.896150171 -0.054076474
123721448 0.896285355 -0.055799659
124117848 0.896530449 -0.057188589
124514248 0.896595954 -0.059298116
124910548 0.896679997 -0.060602162
125306948 0.896385014 -0.062283892
125703348 0.896517157 -0.063624702
126099748 0.896428525 -0.065703071
126496148 0.896131217 -0.067475676
126892548 0.896864533 -0.06906899
127288848 0.896806716 -0.070565871
127685248 0.896907329 -0.072639048
128081648 0.897145509 -0.074279516
128478048 0.897696673 -0.076258689
128874448 0.897961556 -0.078324481
129270848 0.897726893 -0.080371722
129667148 0.898021101 -0.082552984
130063548 0.897706508 -0.084079898
130459948 0.897636771 -0.086040012
130856348 0.89771676 -0.088348016
131252748 0.897758841 -0.090028986
131649148 0.897973835 -0.092591546
132045448 0.897410333 -0.094437159
132441848 0.897594869 -0.096220538
132838248 0.897315204 -0.098477959
133234648 0.897620439 -0.100774176
133631048 0.897495687 -0.102656766
134027448 0.897675216 -0.104343943
134423748 0.896911621 -0.106580808
134820148 0.896808385 -0.10871312
135216548 0.896985828 -0.110335953
135612948 0.897117853 -0.112725012
136009348 0.896523594 -0.114869087
136405748 0.896720767 -0.116563066
136802048 0.895843029 -0.118806213
137198448 0.89641416 -0.120887912
137594848 0.895578265 -0.122772537
137991248 0.8955006 -0.124791488
138387648 0.895181179 -0.127223432
138784048 0.894960641 -0.129197627
139180348 0.894732296 -0.131036356
139576748 0.894778549 -0.133010208
139973148 0.893598616 -0.134951859
140369548 0.893671333 -0.136861145
140765948 0.893468379 -0.138914138
141162248 0.893572747 -0.141285628
141558648 0.893181741 -0.14319165
141955048 0.89255315 -0.145282372
142351448 0.892579197 -0.147390484
142747848 0.891799092 -0.148803606
143144248 0.891745507 -0.151328563
143540548 0.890642285 -0.153305083
143936948 0.890387952 -0.154926061
144333348 0.8906008 -0.15712361
144729748 0.889911234 -0.158539488
145126148 0.889292895 -0.160717174
145522548 0.888985574 -0.16291517
145918848 0.888795375 -0.165340691
146315248 0.888366162 -0.166775301
146711648 0.888076543 -0.169058799
147108048 0.887411475 -0.170845478
147504448 0.887334942 -0.173039197
147900848 0.886858403 -0.174641162
148297148 0.886626899 -0.176875457
148693548 0.885151803 -0.17865166
149089948 0.885347783 -0.180859267
149486348 0.884811937 -0.182853356
149882748 0.883999586 -0.184539988
150279148 0.883917212 -0.186505734
150675448 0.883450865 -0.188333183
151071848 0.883022367 -0.190235465
151468248 0.882569015 -0.192148953
151864648 0.882182717 -0.194473475
152261048 0.881605565 -0.195924296
152657448 0.881186723 -0.197946801
153053748 0.88061285 -0.199908167
153450148 0.879917144 -0.201907202
153846548 0.879439175 -0.203768759
154242948 0.878885567 -0.205830991
154639348 0.87841916 -0.207638844
155035748 0.878078937 -0.209488555
155432048 0.877397239 -0.21139279
155828448 0.877033829 -0.213493153
156224848 0.876339435 -0.215319827
156621248 0.875704526 -0.217157602
157017648 0.875000774 -0.219057634
157414048 0.874430358 -0.220879077
157810348 0.87392044 -0.222934857
158206748 0.873701989 -0.224695518
158603148 0.872998535 -0.226712092
158999548 0.872465908 -0.22819063
159395948 0.871712982 -0.230255916
159792348 0.871028482 -0.232227578
160188736 0.870339512 -0.233977973
160585036 0.870118975 -0.235860213
160981436 0.869295418 -0.237096205
161377836 0.868347167 -0.239373564
161774236 0.867665112 -0.241149991
162170636 0.867432296 -0.243278086
162566936 0.866754531 -0.2450625
162963336 0.866097033 -0.246585637
163359736 0.865568339 -0.248485282
163756136 0.864760279 -0.250626236
164152536 0.864391148 -0.25237593
164548936 0.863688945 -0.254260867
164945236 0.863043963 -0.256239324
165341636 0.862139225 -0.258046388
165738036 0.861906349 -0.259971052
166134436 0.86074841 -0.261967241
166530836 0.860623598 -0.263593345
166927236 0.859728097 -0.26513192
167323536 0.859297394 -0.267370373
167719936 0.858614861 -0.269086807
168116336 0.858026802 -0.27092868
168512736 0.857343256 -0.272430419
168909136 0.856412231 -0.274800986
169305536 0.855626523 -0.276412129
169701836 0.854835391 -0.278594672
170098236 0.8544119 -0.280047625
170494636 0.853851914 -0.282334029
170891036 0.853076219 -0.283750116
171287436 0.852101206 -0.285520821
171683836 0.851401805 -0.287022203
172080136 0.850896656 -0.288796037
172476536 0.849956035 -0.29070875
172872936 0.849461197 -0.292610734
173269336 0.848586857 -0.294512301
173665736 0.848025679 -0.296295911
174062136 0.847130358 -0.298106819
174458436 0.846436321 -0.299940079
174854836 0.845785498 -0.30119279
175251236 0.844866991 -0.303146332
175647636 0.843972682 -0.305130064
176044036 0.843141973 -0.30676198
176440436 0.842782855 -0.308728158
176836736 0.842048764 -0.310302168
177233136 0.840993821 -0.312361806
177629536 0.840122401 -0.314023017
178025936 0.83947283 -0.315712362
178422336 0.838350296 -0.317634701
178818736 0.837839722 -0.31927672
179215036 0.837370693 -0.321301072
179611436 0.836350619 -0.322539299
180007836 0.83520013 -0.324469447
180404236 0.834764182 -0.326224178
180800636 0.833632588 -0.327977895
181196936 0.833027005 -0.329591363
181593336 0.832246005 -0.33150658
181989736 0.831527173 -0.33329004
182386136 0.830353617 -0.334888875
182782536 0.829526126 -0.336269766
183178936 0.828652501 -0.338375985
183575236 0.828570902 -0.340011268
183971636 0.826921999 -0.341863095
184368036 0.82619816 -0.343221873
184764436 0.825233399 -0.345386356
185160836 0.824463844 -0.346999824
185557236 0.823584079 -0.348381102
185953536 0.8228935 -0.350076377
186349936 0.82201904 -0.352134108
186746336 0.820979595 -0.353391885
187142736 0.820063233 -0.355628877
187539136 0.819387912 -0.357166677
187935536 0.81849724 -0.358813047
188331836 0.817795932 -0.360413819
188728236 0.816739678 -0.362215131
189124636 0.815982639 -0.36417663
189521036 0.814904332 -0.365553379
189917436 0.814155757 -0.367269873
190313836 0.813031554 -0.369194835
190710136 0.811816692 -0.370456099
191106536 0.811534643 -0.372546225
191502936 0.810034155 -0.373947024
191899336 0.809374451 -0.375937491
192295736 0.808262765 -0.377078056
192692136 0.807457745 -0.379138827
193088436 0.806566417 -0.380698978
193484836 0.805556356 -0.382141649
193881236 0.804775893 -0.384009838
194277636 0.803407132 -0.385617494
194674036 0.802763223 -0.387440115
195070436 0.802066147 -0.388921797
195466736 0.800844073 -0.390860974
195863136 0.799919247 -0.39224565
196259536 0.798840284 -0.393679946
196655936 0.797586858 -0.395605593
197052336 0.796585977 -0.397163867
197448736 0.795773267 -0.398890972
197845036 0.794858515 -0.400545537
198241436 0.794064164 -0.40210089
198637836 0.793090939 -0.403740376
199034236 0.791899025 -0.405295312
199430636 0.790981888 -0.406380504
199827036 0.789647102 -0.408265441
200223408 0.789041161 -0.409718096
200619708 0.787676334 -0.41169241
201016108 0.786693394 -0.413150787
201412508 0.786067068 -0.415040612
201808908 0.784800946 -0.416339248
202205308 0.783693194 -0.417824745
202601608 0.782677471 -0.419588685
202998008 0.78198862 -0.421282976
203394408 0.780633628 -0.422668129
203790808 0.779495358 -0.424747616
204187208 0.778512179 -0.425800085
204583608 0.777306616 -0.427311629
204979908 0.77636373 -0.42961955
205376308 0.775055706 -0.430686771
205772708 0.774181962 -0.432137548
206169108 0.773106575 -0.433539152
206565508 0.772225379 -0.435576707
206961908 0.77053231 -0.436875492
207358208 0.770016491 -0.438124895
207754608 0.76867038 -0.440054029
208151008 0.767791926 -0.441315412
208547408 0.766624867 -0.442950338
208943808 0.765156567 -0.445040911
209340208 0.764238536 -0.446133702
209736508 0.76295036 -0.4479613
210132908 0.76224488 -0.44871512
210529308 0.760664463 -0.450719684
210925708 0.759734034 -0.452219933
211322108 0.758715212 -0.45341885
211718508 0.757898509 -0.45517525
212114808 0.756497621 -0.456578165
212511208 0.755420982 -0.458249032
212907608 0.754086315 -0.459462225
213304008 0.752989828 -0.461185574
213700408 0.751980483 -0.462432533
214096808 0.750753164 -0.464113682
214493108 0.749851763 -0.465682715
214889508 0.748163521 -0.467074275
215285908 0.747323632 -0.46880272
215682308 0.74582237 -0.470178633
216078708 0.745145261 -0.471788287
216475108 0.743763267 -0.473808526
216871408 0.742715299 -0.474573105
217267808 0.741497099 -0.476329147
217664208 0.740267217 -0.477379947
218060608 0.739353835 -0.479127377
218457008 0.737767696 -0.480205446
218853408 0.736909925 -0.482038199
219249708 0.735613763 -0.483061432
219646108 0.734184026 -0.484377324
220042508 0.733230531 -0.486125409
220438908 0.731786429 -0.487536549
220835308 0.729996562 -0.48884052
221231608 0.729661166 -0.490460366
221628008 0.728163003 -0.491936385
222024408 0.727318942 -0.493299216
222420808 0.725530147 -0.494633167
222817208 0.724672734 -0.496230065
223213608 0.723011076 -0.497239649
223609908 0.72212702 -0.498869985
224006308 0.72089529 -0.500225484
224402708 0.719367146 -0.501494824
224799108 0.718241155 -0.502776622
225195508 0.717597186 -0.504675209
225591908 0.715741991 -0.505753755
225988208 0.714661598 -0.506959617
226384608 0.713350117 -0.508598864
226781008 0.712328672 -0.509911656
227177408 0.710685074 -0.5112046
227573808 0.709893882 -0.512339115
227970208 0.7087152 -0.513971745
228366508 0.70767194 -0.51525253
228762908 0.705855965 -0.516941726
229159308 0.704629242 -0.517845451
229555708 0.702699363 -0.51813507
229952108 0.702317535 -0.520638883
230348508 0.701091647 -0.522494196
230744808 0.699228048 -0.523097753
231141208 0.697881221 -0.524134695
231537608 0.697009921 -0.525723636
231934008 0.695607066 -0.52745372
232330408 0.694354414 -0.528675973
232726808 0.692866504 -0.529535949
233123108 0.691640853 -0.531288027
233519508 0.690427303 -0.532150506
