# HZ S RI R 50
100000 -0.999385595 -0.004733421
397200 -0.998860538 0.010500587
694400 -0.996918082 0.022848123
991600 -0.994594037 0.034375075
1288900 -0.991928219 0.044078815
1586100 -0.988761425 0.053512811
1883300 -0.985544681 0.062331274
2180500 -0.982560932 0.069997936
2477800 -0.978648781 0.078231655
2775000 -0.975338459 0.085622265
3072200 -0.971303224 0.092806041
3369400 -0.967965245 0.099650152
3666700 -0.964260697 0.106027267
3963900 -0.960488259 0.112513795
4261100 -0.956576108 0.118856631
4558300 -0.952953457 0.124130591
4855600 -0.94906795 0.129660606
5152800 -0.945418894 0.135065004
5450000 -0.941781759 0.140107229
5747200 -0.937938868 0.144969552
6044500 -0.93477267 0.149207577
6341700 -0.932189285 0.151752635
6638900 -0.930354952 0.156099617
6936100 -0.923155903 0.165996387
7233400 -0.920185446 0.170398026
7530600 -0.916637539 0.174059152
7827800 -0.912829458 0.178209528
8125000 -0.909111082 0.182867646
8422300 -0.905525922 0.18721652
8719500 -0.902011573 0.191572964
9016700 -0.898167669 0.195691362
9313900 -0.894855499 0.199921756
9611200 -0.890987575 0.204008162
9908400 -0.887484014 0.208036303
10205600 -0.884072184 0.211606651
10502800 -0.880538165 0.215350762
10800100 -0.877094209 0.218809664
11097300 -0.873754084 0.222215905
11394500 -0.870113074 0.22555077
11691700 -0.867012143 0.228899613
11989000 -0.86347711 0.23238404
12286200 -0.860069215 0.235512465
12583400 -0.856730818 0.238662987
12880600 -0.853531956 0.241675436
13177900 -0.850314497 0.244740635
13475100 -0.847087144 0.247920379
13772300 -0.843724668 0.250708699
14069500 -0.84075284 0.253500819
14366800 -0.837362408 0.256442308
14664000 -0.833997011 0.259005099
14961200 -0.831043779 0.261652827
15258400 -0.827851176 0.264345407
15555700 -0.824701607 0.267074465
15852900 -0.82170248 0.26970148
16150100 -0.818583071 0.272480517
16447300 -0.81541723 0.274780869
16744600 -0.812414228 0.277082383
17041800 -0.809255182 0.279521048
17339000 -0.806081831 0.281887263
17636200 -0.803144156 0.284286797
17933500 -0.800208449 0.28660202
18230700 -0.797284722 0.288724869
18527900 -0.794298529 0.290971726
18825100 -0.791163146 0.293305188
19122400 -0.788434147 0.295343041
19419600 -0.785277307 0.297258317
19716800 -0.782569229 0.299571126
20014000 -0.7794438 0.301584988
20311300 -0.776701688 0.303458034
20608500 -0.773845791 0.305523425
20905700 -0.771047592 0.307479351
21202900 -0.768020927 0.309316694
21500200 -0.765333414 0.311025291
21797400 -0.762484788 0.312920808
22094600 -0.759697854 0.314701974
22391800 -0.756798624 0.316638588
22689100 -0.754163086 0.318209648
22986300 -0.751516819 0.320009857
23283500 -0.748512208 0.321691393
23580700 -0.746071159 0.323500275
23878000 -0.743131279 0.325078397
24175200 -0.740525901 0.326547563
24472400 -0.737784266 0.327971816
24769600 -0.735107362 0.329752951
25066900 -0.732520163 0.331218659
25364100 -0.729905366 0.332778602
25661300 -0.727300882 0.334235787
25958500 -0.724677383 0.335556149
26255800 -0.722251355 0.337014794
26553000 -0.719662845 0.338532119
26850200 -0.717130184 0.339811921
27147400 -0.714607357 0.341117739
27444700 -0.712227642 0.342416107
27741900 -0.709561645 0.343693673
28039100 -0.707063317 0.344856798
28336300 -0.704570174 0.346266984
28633600 -0.702079117 0.347506463
28930800 -0.699755787 0.348590135
29228000 -0.697514832 0.349896997
29525200 -0.695238828 0.350827395
29822500 -0.692744612 0.352193772
30119724 -0.690140485 0.353656828
30416924 -0.688192188 0.354443609
30714124 -0.685833156 0.355546921
31011324 -0.683270514 0.356589883
31308624 -0.681045949 0.357545614
31605824 -0.678730785 0.35877642
31903024 -0.676616609 0.359620034
32200224 -0.674134492 0.360630035
32497524 -0.67198944 0.361834526
32794724 -0.669940114 0.362522721
33091924 -0.667667031 0.363564014
33389124 -0.665392994 0.364518523
33686424 -0.663130164 0.365385085
33983624 -0.660987198 0.366374313
34280824 -0.659013271 0.366993606
34578024 -0.656873464 0.368067204
34875324 -0.655006885 0.368727862
35172524 -0.65275979 0.369530558
35469724 -0.65046674 0.370400011
35766924 -0.648685336 0.371321678
36064224 -0.646637082 0.372119367
36361424 -0.644626498 0.372598111
36658624 -0.642462849 0.373616516
36955824 -0.640545368 0.37436974
37253124 -0.638596832 0.375335395
37550324 -0.636509835 0.375776708
37847524 -0.634509563 0.376639366
38144724 -0.632510006 0.37727344
38442024 -0.63060522 0.378283143
38739224 -0.628520429 0.378679245
39036424 -0.626798868 0.379649341
39333624 -0.624654412 0.380299091
39630924 -0.622730016 0.380712151
39928124 -0.621492445 0.381665527
40225324 -0.619212567 0.382081478
40522524 -0.617498755 0.382643997
40819824 -0.615381777 0.383189678
41117024 -0.61392194 0.384106516
41414224 -0.612245678 0.38440746
41711424 -0.610288321 0.385221481
42008724 -0.608264267 0.3856287
42305924 -0.606716632 0.38621813
42603124 -0.605141878 0.386950373
42900324 -0.603094935 0.387289822
43197624 -0.601692497 0.387854456
43494824 -0.600316584 0.388175696
43792024 -0.598635017 0.389093697
44089224 -0.596942663 0.389513492
44386524 -0.595216393 0.389743506
44683724 -0.593491792 0.390237212
44980924 -0.591476559 0.390996217
45278124 -0.590304613 0.391130745
45575424 -0.588507115 0.392118036
45872624 -0.587479948 0.392168253
46169824 -0.585452497 0.39203906
46467024 -0.584004282 0.39296177
46764324 -0.58249247 0.393217325
47061524 -0.580958127 0.393648475
47358724 -0.579325199 0.393955707
47655924 -0.577815294 0.39455989
47953224 -0.576052784 0.394777595
48250424 -0.574804902 0.395301699
48547624 -0.573386609 0.395529925
48844824 -0.571786105 0.395878911
49142124 -0.569761335 0.396234929
49439324 -0.5689525 0.396581292
49736524 -0.567462682 0.397081792
50033724 -0.566199421 0.397448062
50331024 -0.564405679 0.397659122
50628224 -0.563049435 0.398099005
50925424 -0.561857938 0.398178398
51222624 -0.560489535 0.398699373
51519924 -0.559066295 0.398985922
51817124 -0.557879984 0.399354696
52114324 -0.556416511 0.399577438
52411524 -0.555128991 0.400003701
52708824 -0.553690195 0.400285184
53006024 -0.552629172 0.400584548
53303224 -0.551166415 0.4009642
53600424 -0.55018711 0.401078701
53897724 -0.548928618 0.401238977
54194924 -0.547537386 0.40167272
54492124 -0.546305418 0.401788264
54789324 -0.544963777 0.401724249
55086624 -0.543680429 0.402377367
55383824 -0.542702972 0.402779251
55681024 -0.541427969 0.403034031
55978224 -0.540144443 0.403433024
56275524 -0.539016962 0.403586447
56572724 -0.538022756 0.404250562
56869924 -0.536510407 0.404071807
57167124 -0.53509289 0.404579013
57464424 -0.534547388 0.404801011
57761624 -0.532751381 0.404981255
58058824 -0.53211987 0.405098617
58356024 -0.531209766 0.405179321
58653324 -0.529808402 0.405348896
58950524 -0.528793931 0.406069993
59247724 -0.527883887 0.40598011
59544924 -0.526688575 0.406243354
59842224 -0.525573909 0.406170368
60139448 -0.524619877 0.40647915
60436648 -0.523925423 0.406543672
60733848 -0.522174477 0.406585991
61031048 -0.521638095 0.407449543
61328348 -0.520513057 0.407347142
61625548 -0.519081115 0.407435953
61922748 -0.51845622 0.407826244
62219948 -0.517593026 0.407793402
62517248 -0.51633042 0.408038377
62814448 -0.515628874 0.408345878
63111648 -0.514518797 0.408483147
63408848 -0.51341027 0.408548742
63706148 -0.512311816 0.408683866
64003348 -0.511514484 0.408926695
64300548 -0.511059224 0.409824252
64597748 -0.509455204 0.409398227
64895048 -0.508047938 0.409296035
65192248 -0.507488548 0.409705221
65489448 -0.506923198 0.409774452
65786648 -0.505643784 0.409755736
66083948 -0.504926323 0.410353362
66381148 -0.503461539 0.410277336
66678348 -0.503144502 0.410564988
66975548 -0.501748919 0.410431414
67272848 -0.501032114 0.410302966
67570048 -0.500421524 0.410928934
67867248 -0.499316751 0.411076277
68164448 -0.498394787 0.411420226
68461748 -0.49794352 0.411386162
68758948 -0.496414899 0.411510229
69056148 -0.495952844 0.411682724
69353348 -0.49502772 0.411980152
69650648 -0.494394212 0.412253051
69947848 -0.493348807 0.411054253
70245048 -0.492476671 0.412390708
70542248 -0.491619139 0.411895751
70839548 -0.491288602 0.413045048
71136748 -0.491549402 0.412594437
71433948 -0.489428281 0.413110047
71731148 -0.488754153 0.412574201
72028448 -0.487579882 0.413208246
72325648 -0.486231058 0.413366854
72622848 -0.486313343 0.412913501
72920048 -0.485134184 0.413271933
73217348 -0.484990119 0.414038687
73514548 -0.484388709 0.414260357
73811748 -0.484638571 0.414588719
74108948 -0.482106536 0.414062738
74406248 -0.481618374 0.414076268
74703448 -0.481110811 0.414153009
75000648 -0.479940056 0.415302842
75297848 -0.479682207 0.415068984
75595148 -0.478835552 0.415835201
75892348 -0.480734825 0.415502339
76189548 -0.477854967 0.415665239
76486748 -0.477432012 0.415639519
76784048 -0.475713908 0.415372192
77081248 -0.475291222 0.415397614
77378448 -0.474256277 0.416239708
77675648 -0.473932087 0.415772736
77972948 -0.473327577 0.416301071
78270148 -0.47212845 0.41593796
78567348 -0.471589863 0.416706025
78864548 -0.472088247 0.416924983
79161848 -0.471453458 0.416876435
79459048 -0.471655368 0.416295588
79756248 -0.470314323 0.417018473
80053448 -0.469567835 0.417271912
80350748 -0.468105673 0.417652189
80647948 -0.467905461 0.417404919
80945148 -0.467916846 0.416201919
81242348 -0.466486752 0.417007565
81539648 -0.466688871 0.416933119
81836848 -0.466086298 0.417004525
82134048 -0.466190487 0.417544662
82431248 -0.466216176 0.417528629
82728548 -0.465121626 0.417711585
83025748 -0.464216828 0.416602879
83322948 -0.463250488 0.417309612
83620148 -0.46355912 0.417987674
83917448 -0.46295619 0.417924582
84214648 -0.46163237 0.417650103
84511848 -0.461325943 0.418191611
84809048 -0.460028231 0.418949097
85106348 -0.45937705 0.417948365
85403548 -0.459980815 0.418887972
85700748 -0.460119187 0.418473541
85997948 -0.45859766 0.419722288
86295248 -0.458737373 0.418028622
86592448 -0.457885384 0.419124364
86889648 -0.457229375 0.417919874
87186848 -0.457747012 0.41966173
87484148 -0.455185055 0.418866813
87781348 -0.45628494 0.41834706
88078548 -0.455690979 0.418175458
88375748 -0.45420587 0.418465942
88673048 -0.455263048 0.4192065
88970248 -0.453382164 0.418975979
89267448 -0.453459411 0.419377982
89564648 -0.453074872 0.420145332
89861948 -0.451780319 0.418407917
90159176 -0.453444451 0.419564247
90456376 -0.450888544 0.418768614
90753576 -0.452273339 0.419605076
91050776 -0.450156122 0.418848335
91347976 -0.451455086 0.419122636
91645276 -0.449822455 0.41983056
91942476 -0.448814868 0.419617593
92239676 -0.448768675 0.419949054
92536876 -0.448120027 0.419327944
92834176 -0.447507679 0.41930443
93131376 -0.447646915 0.41875416
93428576 -0.447483122 0.419882297
93725776 -0.447819977 0.419615149
94023076 -0.446656197 0.42016524
94320276 -0.445944428 0.420055031
94617476 -0.44804269 0.418826848
94914676 -0.446130365 0.418730884
95211976 -0.445581644 0.420304954
95509176 -0.444772958 0.420237928
95806376 -0.444304287 0.41847524
96103576 -0.443382918 0.418432533
96400876 -0.44414854 0.418702155
96698076 -0.442413568 0.418766796
96995276 -0.442653626 0.42007479
97292476 -0.441856384 0.419737368
97589776 -0.442058235 0.42010352
97886976 -0.441908001 0.41935724
98184176 -0.440692663 0.418763786
98481376 -0.441025346 0.41863498
98778576 -0.440346181 0.419162213
99075876 -0.441165924 0.419056743
99373076 -0.441049158 0.419727712
99670276 -0.439029276 0.41849485
99967476 -0.439653575 0.420295745
100264776 -0.438771963 0.419000834
100561976 -0.43876031 0.418918401
100859176 -0.438267409 0.41963312
101156376 -0.437647044 0.419434368
101453676 -0.437083601 0.419076442
101750876 -0.437339812 0.419231474
102048076 -0.436723351 0.418759107
102345276 -0.436843246 0.419357955
102642576 -0.436141073 0.419427305
102939776 -0.436154574 0.418663024
103236976 -0.435602694 0.419164925
103534176 -0.435230821 0.418865561
103831476 -0.434810101 0.418920397
104128676 -0.434427291 0.418836563
104425876 -0.434260696 0.418485909
104723076 -0.43373087 0.418684422
105020376 -0.433759689 0.418608546
105317576 -0.433315306 0.418517678
105614776 -0.433117121 0.41866067
105911976 -0.432917416 0.418454438
106209176 -0.432790249 0.418253302
106506476 -0.431588858 0.418192923
106803676 -0.431981593 0.418062686
107100876 -0.431516587 0.41795361
107398076 -0.430992156 0.417999327
107695376 -0.431339234 0.417347669
107992576 -0.431061446 0.417930662
108289776 -0.430641382 0.417591571
108586976 -0.430340647 0.41701436
108884276 -0.430506855 0.417039871
109181476 -0.429957032 0.417029917
109478676 -0.429919987 0.417024403
109775876 -0.429479956 0.416616767
110073176 -0.42929846 0.416278302
110370376 -0.429292291 0.416146576
110667576 -0.429003119 0.416222304
110964776 -0.428768038 0.415671467
111262076 -0.428705453 0.415073573
111559276 -0.428030818 0.414905488
111856476 -0.428312808 0.415048718
112153676 -0.428593307 0.414608478
112450976 -0.427953481 0.414044559
112748176 -0.428281247 0.413965374
113045376 -0.427516728 0.413838446
113342576 -0.427773714 0.413121879
113639776 -0.427843391 0.413069427
113937076 -0.428048491 0.413042545
114234276 -0.428043156 0.412355929
114531476 -0.428029984 0.41219139
114828676 -0.428225934 0.411909937
115125976 -0.428630262 0.411928236
115423176 -0.428726851 0.411831527
115720376 -0.42855367 0.411644369
116017576 -0.429199844 0.411661237
116314876 -0.429161697 0.411771982
116612076 -0.42924115 0.411826133
116909276 -0.429248392 0.411256372
117206476 -0.429481446 0.411685794
117503776 -0.429545104 0.411595046
117800976 -0.429926007 0.411723613
118098176 -0.429707348 0.411438256
118395376 -0.430251419 0.411468118
118692676 -0.430275261 0.411772102
118989876 -0.430478543 0.411893934
119287076 -0.429922223 0.411679446
119584276 -0.430133849 0.412171453
119881576 -0.430296212 0.411918431
120178896 -0.429627746 0.412036448
120476096 -0.430282086 0.411832183
120773296 -0.429870933 0.411795526
121070496 -0.430355817 0.411928504
121367796 -0.429619818 0.412069767
121664996 -0.429374516 0.412234276
121962196 -0.429361909 0.411841511
122259396 -0.429717451 0.412020742
122556696 -0.429745912 0.412514716
122853896 -0.429256707 0.412546873
123151096 -0.429103016 0.412003189
123448296 -0.429471045 0.412618219
123745596 -0.429663568 0.411902368
124042796 -0.429611235 0.412328064
124339996 -0.429093122 0.411797881
124637196 -0.428819209 0.412011802
124934496 -0.428635478 0.412148773
125231696 -0.429144054 0.41208443
125528896 -0.429027855 0.411805331
125826096 -0.428480952 0.412056714
126123396 -0.429327845 0.411957681
126420596 -0.428996384 0.411854535
126717796 -0.429098337 0.411342084
127014996 -0.428638398 0.411908239
127312296 -0.428348809 0.41168648
127609496 -0.428456544 0.411610126
127906696 -0.429099291 0.411316215
128203896 -0.42861548 0.411305338
128501196 -0.428707569 0.411413609
128798396 -0.429028719 0.410922974
129095596 -0.428491234 0.410984933
129392796 -0.428752034 0.411230146
129690096 -0.428520202 0.410613059
129987296 -0.428554296 0.410471916
130284496 -0.429132878 0.410363227
130581696 -0.428354918 0.410533905
130878996 -0.428703725 0.410120546
131176196 -0.428575605 0.409915298
131473396 -0.428604334 0.410261213
131770596 -0.42829129 0.410041749
132067896 -0.428491532 0.409547299
132365096 -0.428651928 0.409423142
132662296 -0.42855823 0.409314334
132959496 -0.428236424 0.409413307
133256796 -0.42871049 0.408964246
133553996 -0.428571611 0.409350633
133851196 -0.428420543 0.408994227
134148396 -0.428820759 0.408874392
134445696 -0.428561985 0.408797293
134742896 -0.42888835 0.408894926
135040096 -0.429212212 0.408917248
135337296 -0.428863286 0.408360332
135634596 -0.429521292 0.408447265
135931796 -0.429131031 0.408404529
136228996 -0.429336369 0.408404707
136526196 -0.429282665 0.407942831
136823496 -0.42918992 0.408125579
137120696 -0.42925316 0.407934904
137417896 -0.429327279 0.407565593
137715096 -0.429496854 0.407471835
138012396 -0.429852694 0.407229423
138309596 -0.429512381 0.407460987
138606796 -0.430277436 0.407106161
138903996 -0.429524332 0.407233655
139201296 -0.429651737 0.406764596
139498496 -0.43000698 0.406853854
139795696 -0.43040964 0.406180381
140092896 -0.429720878 0.4062137
140390196 -0.430622726 0.406100094
140687396 -0.430300444 0.406275421
140984596 -0.430212855 0.405911654
141281796 -0.430276989 0.40562576
141579096 -0.430968433 0.405296862
141876296 -0.430785506 0.405513077
142173496 -0.430388838 0.405271112
142470696 -0.43082574 0.405243664
142767996 -0.430658847 0.404830098
143065196 -0.430623531 0.404852032
143362396 -0.430877149 0.404570758
143659596 -0.431301414 0.404689967
143956896 -0.431478619 0.404475748
144254096 -0.431243538 0.403803348
144551296 -0.431561797 0.404006361
144848496 -0.432081103 0.403826057
145145796 -0.43175888 0.403560578
145442996 -0.432001054 0.403648287
145740196 -0.432495683 0.403215348
146037396 -0.432123422 0.403577238
146334696 -0.432847976 0.402991771
146631896 -0.432754665 0.402958154
146929096 -0.433034867 0.402414619
147226296 -0.433153688 0.402183264
147523596 -0.433424264 0.402174323
147820796 -0.433246403 0.401978492
148117996 -0.434025228 0.401875346
148415196 -0.434061676 0.402130663
148712496 -0.434021353 0.401929795
149009696 -0.433668434 0.401469409
149306896 -0.434029519 0.401662141
149604096 -0.434093743 0.401248514
149901396 -0.43465805 0.400962114
150198624 -0.434501767 0.400669991
150495824 -0.434571593 0.400695264
150793024 -0.434895247 0.400668442
151090224 -0.435317307 0.400389075
151387424 -0.435275375 0.399941146
151684724 -0.435656279 0.399929225
151981924 -0.435732007 0.399612277
152279124 -0.436022311 0.399342387
152576324 -0.435960412 0.399239689
152873624 -0.436179786 0.398947298
153170824 -0.436244398 0.398848176
153468024 -0.436416029 0.398718982
153765224 -0.436670094 0.398535281
154062524 -0.436614841 0.398458629
154359724 -0.437163084 0.398104786
154656924 -0.43732196 0.397879898
154954124 -0.43751505 0.398029178
155251424 -0.437663018 0.397686332
155548624 -0.437945395 0.397169679
155845824 -0.438090801 0.397084355
156143024 -0.438257396 0.396738737
156440324 -0.43865332 0.396584004
156737524 -0.438895344 0.396641016
157034724 -0.439131945 0.396237671
157331924 -0.439115375 0.396162271
157629224 -0.43940398 0.395739376
157926424 -0.439629375 0.395465999
158223624 -0.439950436 0.395496368
158520824 -0.440577775 0.394818842
158818024 -0.440555453 0.394912093
159115324 -0.440619438 0.39462018
159412524 -0.440974116 0.394291996
159709724 -0.441036164 0.393890678
160006924 -0.441672235 0.393968462
160304224 -0.441641509 0.393798947
160601424 -0.441949486 0.393611073
160898624 -0.442288339 0.393597453
161195824 -0.442427724 0.393421888
161493124 -0.4424887 0.392992496
161790324 -0.442730545 0.39290753
162087524 -0.443287134 0.392761021
162384724 -0.443191379 0.392581492
162682024 -0.44368118 0.392306387
162979224 -0.443716168 0.392245024
163276424 -0.444055825 0.3918778
163573624 -0.444410383 0.391906142
163870924 -0.44442743 0.391481995
164168124 -0.444856107 0.391610205
164465324 -0.445068895 0.391033172
164762524 -0.445510327 0.390777587
165059824 -0.445394039 0.390577197
165357024 -0.445881187 0.390297442
165654224 -0.446279734 0.390108525
165951424 -0.446151882 0.389724969
166248624 -0.44644013 0.389679431
166545924 -0.447008103 0.389273911
166843124 -0.447008103 0.389118552
167140324 -0.44784671 0.388754665
167437524 -0.447766065 0.388337403
167734824 -0.448089182 0.388262093
168032024 -0.44804722 0.387834668
168329224 -0.448687314 0.387596845
168626424 -0.448903888 0.387397825
168923724 -0.448829591 0.38716498
169220924 -0.449395 0.386947631
169518124 -0.449567735 0.386749595
169815324 -0.44984135 0.386328667
170112624 -0.449970126 0.38651973
170409824 -0.450496077 0.386045664
170707024 -0.450584828 0.385743439
171004224 -0.450888097 0.385499626
171301524 -0.45111975 0.385284334
171598724 -0.451595425 0.384913623
171895924 -0.451966255 0.384813964
172193124 -0.452098071 0.38452053
172490424 -0.452459633 0.384174019
172787624 -0.452893435 0.383782088
173084824 -0.453167349 0.383591115
173382024 -0.45320326 0.383457005
173679224 -0.453439891 0.382811069
