# HZ S RI R 50
1000000 -0.968251347 0.13055472
1039300 -0.966689109 0.135322332
1078600 -0.965186178 0.140329778
1118000 -0.963713824 0.144817069
1157300 -0.962072789 0.149802416
1196700 -0.960417211 0.154752209
1236000 -0.958826065 0.159312337
1275400 -0.957057416 0.163937047
1314700 -0.955428302 0.168723508
1354100 -0.953360974 0.173526674
1393400 -0.951526761 0.178249925
1432800 -0.949466347 0.183064028
1472100 -0.947448194 0.187446072
1511500 -0.945539355 0.191958129
1550800 -0.943408966 0.196406543
1590200 -0.941191732 0.201183542
1629500 -0.93904072 0.205559596
1668900 -0.936819136 0.210246548
1708200 -0.934488594 0.21442376
1747600 -0.932073473 0.218736797
1786900 -0.929734587 0.223117798
1826300 -0.927206695 0.227228134
1865600 -0.924848139 0.231744036
1905000 -0.922238051 0.235645487
1944300 -0.919877946 0.239996209
1983700 -0.916985154 0.24390906
2023000 -0.914477169 0.247971087
2062400 -0.911777794 0.251973986
2101700 -0.909219563 0.256003886
2141100 -0.906434118 0.259577214
2180400 -0.903779923 0.263516455
2219800 -0.900817155 0.267343133
2259100 -0.897991895 0.271209239
2298500 -0.894965708 0.274988353
2337800 -0.892093241 0.278653204
2377200 -0.888964951 0.282119214
2416500 -0.886180937 0.285635352
2455900 -0.883077442 0.289412885
2495200 -0.88024801 0.29238972
2534600 -0.877005636 0.296003133
2573900 -0.873984396 0.298941791
2613300 -0.87088406 0.302226841
2652600 -0.86791104 0.305726557
2692000 -0.864702105 0.308805048
2731300 -0.861780941 0.311696678
2770700 -0.858482182 0.314999848
2810000 -0.855534195 0.317722439
2849400 -0.852419734 0.320601761
2888700 -0.84928441 0.323635429
2928100 -0.84602338 0.326364874
2967400 -0.842988312 0.329175651
3006700 -0.839797317 0.331810563
3046100 -0.836703419 0.334689795
3085400 -0.833458662 0.337145835
3124800 -0.830260992 0.339726597
3164100 -0.827134251 0.342460095
3203500 -0.823868393 0.34487769
3242800 -0.820915281 0.347267568
3282200 -0.817646026 0.349832683
3321500 -0.814532756 0.352035462
3360900 -0.8111642 0.35436514
3400200 -0.808057546 0.356490671
3439600 -0.805051922 0.35885784
3478900 -0.801806926 0.360890269
3518300 -0.798842608 0.363150537
3557600 -0.795701444 0.365006715
3597000 -0.792555868 0.367211908
3636300 -0.789401471 0.369298845
3675700 -0.786505103 0.371024698
3715000 -0.783437907 0.373194634
3754400 -0.780318021 0.375016599
3793700 -0.77717179 0.376799374
3833100 -0.774194598 0.378708094
3872400 -0.771055042 0.380461931
3911800 -0.767916798 0.382178634
3951100 -0.765033662 0.38390842
3990500 -0.762184143 0.385628879
4029800 -0.758875668 0.387278884
4069200 -0.755938887 0.388881504
4108500 -0.752969801 0.390413492
4147900 -0.749976694 0.392012149
4187200 -0.747078657 0.393406212
4226600 -0.744246125 0.394891619
4265900 -0.741110086 0.396420955
4305300 -0.738389432 0.397670745
4344600 -0.735354065 0.399250268
4384000 -0.732387542 0.400377273
4423300 -0.729486823 0.401680678
4462700 -0.726625084 0.403185576
4502000 -0.723756551 0.404246151
4541400 -0.720980286 0.405555993
4580700 -0.718043625 0.406948775
4620100 -0.715373992 0.407960742
4659400 -0.712412893 0.409115731
4698800 -0.709774553 0.410156041
4738100 -0.706920027 0.411455929
4777500 -0.70440948 0.412286072
4816800 -0.701603293 0.41361159
4856200 -0.698709726 0.414911866
4895500 -0.696101367 0.415627837
4934900 -0.693488538 0.416850537
4934996 -0.693390488 0.416766077
4978396 -0.690634071 0.417764663
5021896 -0.687579154 0.418787539
5065396 -0.684752106 0.420007556
5108896 -0.681874215 0.421004891
5152396 -0.6789245 0.422021418
5195896 -0.676201522 0.423086285
5239396 -0.673382639 0.42398861
5282896 -0.670518457 0.424880087
5326396 -0.667706429 0.425691902
5369896 -0.664938986 0.426827758
5413396 -0.662143409 0.427646845
5456896 -0.659345924 0.428431987
5500396 -0.656672716 0.429322212
5543896 -0.653876662 0.430030763
5587396 -0.651343882 0.430836468
5630896 -0.648668885 0.431778609
5674396 -0.645959436 0.432317107
5717896 -0.643344283 0.433318406
5761396 -0.640816271 0.434071332
5804896 -0.638296186 0.434739172
5848396 -0.635544538 0.435387432
5891896 -0.633031547 0.435823172
5935396 -0.630601823 0.436704188
5978896 -0.62795794 0.437255471
6022396 -0.625525295 0.437991589
6065896 -0.623106241 0.438406348
6109396 -0.620796203 0.439042866
6152896 -0.618570148 0.439541786
6196396 -0.616243302 0.439981073
6239896 -0.614245593 0.440476566
6283396 -0.61187613 0.440762728
6326896 -0.610015153 0.44102469
6370396 -0.608057916 0.441307514
6413896 -0.606214046 0.441586226
6457396 -0.604294478 0.442097216
6500896 -0.60290116 0.442453414
6544396 -0.600746393 0.443064898
6587896 -0.598137676 0.443837046
6631396 -0.595450878 0.444964915
6674896 -0.592276632 0.445959746
6718396 -0.589240252 0.446977496
6761896 -0.586033523 0.447579801
6805396 -0.583066701 0.448562234
6848896 -0.580280005 0.449323296
6892396 -0.577367722 0.450270175
6935896 -0.574846088 0.451051026
6979396 -0.57229042 0.451914697
7022896 -0.570000648 0.452425897
7066396 -0.568009197 0.452977716
7109896 -0.565853357 0.453429371
7153396 -0.564005076 0.45357427
7196896 -0.56196469 0.45388025
7240396 -0.559906959 0.454183101
7283896 -0.557807743 0.45436871
7327396 -0.555849671 0.45455411
7370896 -0.553930819 0.454776257
7414396 -0.551891922 0.455064803
7457896 -0.549732089 0.45544058
7501396 -0.548040986 0.455553203
7544896 -0.545906543 0.455981373
7588396 -0.543880939 0.45633462
7631896 -0.542112886 0.456530958
7675396 -0.539974331 0.456841796
7718896 -0.5380131 0.457134991
7762396 -0.53588128 0.457480847
7805896 -0.533903241 0.457815408
7849396 -0.531953454 0.458145797
7892896 -0.530055105 0.458338737
7936396 -0.528210937 0.458769828
7979896 -0.526251792 0.458990365
8023396 -0.524306893 0.459124624
8066896 -0.522444665 0.459680497
8110396 -0.520264029 0.459734797
8153896 -0.518625259 0.460027366
8197396 -0.516651988 0.460207998
8240896 -0.514847457 0.460541307
8284396 -0.512931466 0.461015522
8327896 -0.51097238 0.461143314
8371396 -0.508916735 0.461404025
8414896 -0.507361471 0.461756199
8458396 -0.50551027 0.461730539
8501896 -0.503657996 0.462176531
8545396 -0.501918315 0.462492108
8588896 -0.500024318 0.462626695
8632396 -0.498237341 0.46281901
8675896 -0.496536701 0.463113635
8719396 -0.494711756 0.463530153
8762896 -0.492922872 0.463611006
8806396 -0.491116493 0.463870525
8849896 -0.489517182 0.464134067
8893396 -0.487587213 0.464240521
8936896 -0.486064791 0.464460253
8980396 -0.484139084 0.464806318
9023896 -0.482375591 0.464950114
9067396 -0.480703055 0.465221762
9110896 -0.4791238 0.465410977
9154396 -0.477177679 0.465641617
9197896 -0.475836247 0.465699315
9241396 -0.474150687 0.465940505
9284896 -0.47246024 0.466435253
9284932 -0.472321331 0.466223269
9333532 -0.47065097 0.46636632
9382132 -0.468593209 0.466652601
9430732 -0.467134684 0.466837197
9479432 -0.464912533 0.466995507
9528032 -0.463282406 0.467338562
9576632 -0.461416035 0.467449516
9625232 -0.459609359 0.467564314
9673932 -0.457801818 0.467897474
9722532 -0.455927968 0.468153595
9771132 -0.454259485 0.46811825
9819832 -0.452535986 0.468193948
9868432 -0.4508107 0.468486875
9917032 -0.449097067 0.468724429
9965632 -0.447317808 0.468729853
10014332 -0.445558369 0.468987882
10062932 -0.443915605 0.469045549
10111532 -0.442126572 0.469325423
10160232 -0.440426081 0.469418078
10208832 -0.438739418 0.469587534
10257432 -0.43709734 0.469821214
10306032 -0.435469597 0.469868689
10354732 -0.433940887 0.470142364
10403332 -0.432166695 0.46999228
10451932 -0.430453449 0.470147162
10500632 -0.428825497 0.470391631
10549232 -0.427206873 0.470488607
10597832 -0.425532817 0.47070837
10646432 -0.424037277 0.470659196
10695132 -0.422275334 0.470710605
10743732 -0.420884341 0.470805197
10792332 -0.41922 0.47107315
10840932 -0.417497694 0.471137255
10889632 -0.416012316 0.471350908
10938232 -0.414395511 0.471282809
10986832 -0.412777751 0.471613377
11035532 -0.411287337 0.471567869
11084132 -0.409616649 0.471709579
11132732 -0.408185154 0.471725672
11181332 -0.40662527 0.471820503
11230032 -0.405197709 0.47198981
11278632 -0.403716504 0.471959054
11327232 -0.402088493 0.472289025
11375932 -0.400601565 0.472130805
11424532 -0.399036347 0.472222864
11473132 -0.39764887 0.47226268
11521732 -0.39599511 0.472404778
11570432 -0.394486099 0.472587317
11619032 -0.393042027 0.47250688
11667632 -0.391561776 0.472527623
11716332 -0.390243738 0.472790867
11764932 -0.388623148 0.472795009
11813532 -0.387202411 0.472778588
11862132 -0.38583076 0.472993046
11910832 -0.384280651 0.47297731
11959432 -0.382901966 0.473070591
12008032 -0.38153693 0.473218381
12056632 -0.380096763 0.473341733
12105332 -0.378510326 0.473255008
12153932 -0.377131372 0.473316431
12202532 -0.375818461 0.473197489
12251232 -0.374368011 0.473328173
12299832 -0.372871309 0.473416894
12348432 -0.371564716 0.473524928
12397032 -0.37015891 0.473360449
12445732 -0.368834018 0.473531067
12494332 -0.367293238 0.473424106
12542932 -0.36605671 0.473759919
12591632 -0.364561796 0.473551064
12640232 -0.363326519 0.473540365
12688832 -0.361925274 0.47389996
12737432 -0.360495358 0.473647832
12786132 -0.359281778 0.473983883
12834732 -0.357920169 0.473851829
12883332 -0.356448352 0.473890185
12932032 -0.355175137 0.473893821
12980632 -0.353810042 0.473874121
13029232 -0.352619796 0.474086403
13077832 -0.351189881 0.473965942
13126532 -0.350131481 0.474081039
13175132 -0.3485004 0.474087566
13223732 -0.347188651 0.474142014
13272332 -0.34608981 0.474274754
13321032 -0.344788372 0.474311947
13369632 -0.343401849 0.474253058
13418232 -0.342131644 0.474452376
13466932 -0.340673536 0.474250167
13515532 -0.339592456 0.474356591
13564132 -0.338216274 0.474384993
13612732 -0.337000191 0.47439289
13661432 -0.335665345 0.47462666
13710032 -0.334474354 0.474461168
13758632 -0.333117604 0.474564403
13807332 -0.331989526 0.474619597
13855932 -0.330622136 0.474636852
13904532 -0.329483628 0.474709212
13953132 -0.328149139 0.474450647
14001832 -0.326885759 0.4745135
14050432 -0.325770914 0.474599123
14099032 -0.32451716 0.474735647
14147732 -0.323171555 0.474659204
14147747 -0.323011696 0.474562555
14202847 -0.321804255 0.474745482
14257947 -0.320571869 0.474692016
14313047 -0.319143891 0.474545955
14368247 -0.317718893 0.47485274
14423347 -0.316455721 0.474803984
14478447 -0.3150343 0.474644064
14533647 -0.313640505 0.47473967
14588747 -0.31236115 0.474624603
14643847 -0.310903549 0.474785208
14699047 -0.309610068 0.474766105
14754147 -0.308216065 0.474679708
14809247 -0.306857168 0.47476691
14864347 -0.305688738 0.474822908
14919547 -0.304302841 0.474864035
14974647 -0.30295971 0.474899083
15029747 -0.30160129 0.474767833
15084947 -0.300442516 0.474707037
15140047 -0.298925399 0.474850744
15195147 -0.297770231 0.474600881
15250347 -0.296410292 0.474679648
15305447 -0.295137345 0.47490698
15360547 -0.293835997 0.474730312
15415647 -0.292449504 0.474700421
15470847 -0.291454553 0.474826335
15525947 -0.29000625 0.474690794
15581047 -0.288861662 0.474765211
15636247 -0.287528395 0.474587529
15691347 -0.286349594 0.474519103
15746447 -0.284887015 0.474570274
15801647 -0.283833384 0.474464684
15856747 -0.282548487 0.474650681
15911847 -0.281168967 0.474473625
15966947 -0.279926776 0.474299937
16022147 -0.278748631 0.474422454
16077247 -0.277582079 0.47438243
16132347 -0.276394426 0.474422901
16187547 -0.275188118 0.474323242
16242647 -0.274021059 0.474139571
16297747 -0.272677958 0.474093943
16352947 -0.271488308 0.474127292
16408047 -0.270307511 0.474126935
16463147 -0.269174277 0.474054872
16518247 -0.267803817 0.47401914
16573447 -0.266673833 0.473950564
16628547 -0.265528053 0.473882079
16683647 -0.264396637 0.473784178
16738847 -0.263159036 0.473893374
16793947 -0.261887282 0.473562091
16849047 -0.260897397 0.4736014
16904247 -0.259487271 0.47344315
16959347 -0.258342385 0.473430454
17014447 -0.25721684 0.473279803
17069547 -0.256195187 0.473516792
17124747 -0.255043476 0.473360836
17179847 -0.253893524 0.473352462
17234947 -0.252721488 0.473284274
17290147 -0.251634716 0.473204016
17345247 -0.250312805 0.473183691
17400347 -0.249251335 0.473170101
17455547 -0.248144716 0.472989797
17510647 -0.247038483 0.47305572
17565747 -0.245860487 0.472881138
17620847 -0.244786918 0.472689032
17676047 -0.243766695 0.47268173
17731147 -0.242644697 0.472509831
17786247 -0.241471111 0.47263807
17841447 -0.240263819 0.472534716
17896547 -0.2391043 0.472296833
17951647 -0.238359332 0.47240144
18006847 -0.237114444 0.472228467
18061947 -0.235854744 0.472106844
18117047 -0.234753221 0.472018301
18172147 -0.233813747 0.472071468
18227347 -0.232573151 0.471836626
18282447 -0.231546118 0.471904307
18337547 -0.230446413 0.471915692
18392747 -0.229560717 0.471587628
18447847 -0.228382781 0.471505224
18502947 -0.227187633 0.47153607
18558147 -0.226179629 0.471306949
18613247 -0.225137755 0.471304833
18668347 -0.224093809 0.47123903
18723447 -0.222957476 0.471130311
18778647 -0.221985876 0.471179187
18833747 -0.220878094 0.471054285
18888847 -0.21987681 0.470861911
18944047 -0.218757882 0.470940649
18999147 -0.217679023 0.470745116
19054247 -0.216784715 0.470482498
19109447 -0.215870752 0.470458
19164547 -0.21478641 0.470379233
19219647 -0.213640913 0.470335394
19274747 -0.21256712 0.470313608
19329947 -0.211613729 0.470185369
19385047 -0.210662543 0.470087647
19440147 -0.209574162 0.469947934
19495347 -0.208669379 0.469855725
19550447 -0.207594573 0.46977517
19605547 -0.206389963 0.469623476
19660747 -0.205454409 0.469575732
19660752 -0.205604821 0.469437092
19724352 -0.20424512 0.469359219
19787952 -0.203082159 0.469280689
19851652 -0.20216012 0.469113916
19915252 -0.201009228 0.468920081
19978952 -0.199565663 0.468790262
20042552 -0.198591947 0.468737721
20106152 -0.197597652 0.468711674
20169852 -0.1963135 0.468611687
20233452 -0.195155769 0.468379974
20297152 -0.194003596 0.468287557
20360752 -0.19291 0.46815142
20424452 -0.191928744 0.467900753
20488052 -0.1907451 0.467985212
20551652 -0.18974182 0.467847317
20615352 -0.188574403 0.467543989
20678952 -0.187596127 0.467629849
20742652 -0.186275839 0.467476218
20806252 -0.185296177 0.467192441
20869852 -0.184206366 0.466995477
20933552 -0.183157682 0.466968506
20997152 -0.18204233 0.466813474
21060852 -0.180948674 0.466725915
21124452 -0.179883912 0.466642171
21188152 -0.178830325 0.466270834
21251752 -0.177833139 0.46622467
21315352 -0.176781803 0.466209232
21379052 -0.175446808 0.465930759
21442652 -0.17450039 0.465925037
21506352 -0.173275947 0.465723782
21569952 -0.172511622 0.465535461
21633652 -0.171333223 0.465373277
21697252 -0.17022708 0.465252071
21760852 -0.169364631 0.464914411
21824552 -0.168299019 0.465002059
21888152 -0.167180165 0.46480301
21951852 -0.166194751 0.464518785
22015452 -0.165203243 0.464605033
22079052 -0.164135172 0.464422017
22142752 -0.163147658 0.46418339
22206352 -0.162010073 0.463848739
22270052 -0.161198824 0.463930934
22333652 -0.160046279 0.463885337
22397352 -0.159204125 0.463483273
22460952 -0.15805146 0.463503867
22524552 -0.15704672 0.463314771
22588252 -0.155954927 0.463122695
22651852 -0.155201077 0.463026553
22715552 -0.153901472 0.462898582
22779152 -0.152977749 0.462732821
22842852 -0.15202336 0.462626069
22906452 -0.151074498 0.462414413
22970052 -0.150155141 0.462231487
23033752 -0.149004667 0.462077856
23097352 -0.148113086 0.461954504
23161052 -0.147215098 0.461933106
23224652 -0.146072372 0.461576998
23288252 -0.145323917 0.461443841
23351952 -0.144253537 0.461247026
23415552 -0.143330678 0.461294323
23479252 -0.142295017 0.46100986
23542852 -0.141543388 0.460947364
23606552 -0.140406429 0.460712999
23670152 -0.139509975 0.460484176
23733752 -0.138670146 0.460429459
23797452 -0.137601807 0.460180997
23861052 -0.136535346 0.460048198
23924752 -0.135787367 0.459924519
23988352 -0.134808704 0.459798872
24051952 -0.133856818 0.459492027
24115652 -0.132837817 0.459562242
24179252 -0.132040351 0.459396898
24242952 -0.131109535 0.45917353
24306552 -0.13013865 0.458955258
24370252 -0.129293605 0.458942562
24433852 -0.128303334 0.458608001
24497452 -0.127413362 0.458487957
24561152 -0.126574307 0.458199113
24624752 -0.125736206 0.45801264
24688452 -0.124595098 0.457870036
24752052 -0.123892329 0.457782775
24815752 -0.122963979 0.457474827
24879352 -0.12189804 0.45755726
24942952 -0.121151663 0.457404762
25006652 -0.120130941 0.456977218
25070252 -0.119287997 0.456923365
25133952 -0.118400804 0.456729531
25197552 -0.117617949 0.456507086
25261152 -0.116729438 0.456511437
25324852 -0.115865454 0.456125706
25388452 -0.114813551 0.456054449
25452152 -0.114072367 0.455891907
25515752 -0.113097608 0.455817341
25579452 -0.112346313 0.45550251
25643052 -0.111437857 0.455346256
25706652 -0.110719382 0.455063104
25770352 -0.109781429 0.45493254
25833952 -0.108911484 0.454803168
25897652 -0.107963643 0.454592525
25961252 -0.107249513 0.454489141
26024952 -0.106386825 0.454267293
26025048 -0.10636302 0.45432499
26100248 -0.105371505 0.45397821
26175548 -0.10460706 0.453800499
26250848 -0.103314034 0.453672111
26326048 -0.102476499 0.453420668
26401348 -0.101393572 0.453185617
26476648 -0.100580535 0.452929347
26551948 -0.099455431 0.45265913
26627148 -0.098397307 0.452581286
26702448 -0.097482651 0.452414244
26777748 -0.096271418 0.452237486
26853048 -0.095595933 0.451972395
26928248 -0.094609491 0.451669663
27003548 -0.093708761 0.451394915
27078848 -0.092728801 0.451026886
27154048 -0.091836936 0.450886994
27229348 -0.090839907 0.450749009
27304648 -0.089810475 0.450491011
27379948 -0.088951617 0.450268119
27455148 -0.087966546 0.450310766
27530448 -0.087128266 0.449708074
27605748 -0.086186937 0.44944337
27681048 -0.085260428 0.44929856
27756248 -0.084189094 0.44912216
27831548 -0.083401232 0.448847383
27906848 -0.082433752 0.448822975
27982048 -0.081752747 0.448516875
28057348 -0.080744668 0.448032379
28132648 -0.079624958 0.448019593
28207948 -0.079014003 0.448013395
28283148 -0.078033454 0.447682559
28358448 -0.076882064 0.447465002
28433748 -0.076327972 0.447286903
28509048 -0.075216881 0.446962267
28584248 -0.074434511 0.4467386
28659548 -0.07342185 0.446455776
28734848 -0.072482667 0.446203112
28810148 -0.071635231 0.44598779
28885348 -0.070691302 0.445927053
28960648 -0.069912165 0.445655703
29035948 -0.068927146 0.445401936
29111148 -0.068095207 0.445227175
29186448 -0.067242562 0.444849044
29261748 -0.066353783 0.444635063
29337048 -0.065580151 0.444402933
29412248 -0.064717121 0.444290161
29487548 -0.063697829 0.443936496
29562848 -0.063109911 0.443798393
29638148 -0.062193602 0.443550258
29713348 -0.061215497 0.443326056
29788648 -0.060346744 0.443058073
29863948 -0.059713143 0.442827641
29939148 -0.058749262 0.442680001
30014448 -0.057836219 0.442479133
30089748 -0.056926332 0.44234389
30165048 -0.056218113 0.441887497
30240248 -0.055187784 0.441505551
30315548 -0.054535102 0.44173935
30390848 -0.053754925 0.44137305
30466148 -0.052902627 0.441028058
30541348 -0.051953636 0.440709471
30616648 -0.051174901 0.440551608
30691948 -0.050340775 0.440184175
30767148 -0.049480121 0.440063714
30842448 -0.048797033 0.439978688
30917748 -0.047843206 0.439620345
30993048 -0.04715804 0.439364582
31068248 -0.046432737 0.439156293
31143548 -0.045573834 0.438824862
31218848 -0.044568177 0.438662618
31294148 -0.043741166 0.438406825
31369348 -0.043071661 0.438127726
31444648 -0.042492501 0.437956243
31519948 -0.041458524 0.437784969
31595248 -0.040769256 0.437448978
31670448 -0.040097825 0.437258362
31745748 -0.039231844 0.436963438
31821048 -0.03832053 0.436791568
31896248 -0.037760075 0.436589926
31971548 -0.036750461 0.436299473
32046848 -0.035915967 0.436178982
32122148 -0.035252135 0.435921549
32197348 -0.034462042 0.435573399
32272648 -0.033633451 0.435272514
32347948 -0.032970227 0.435214728
32423248 -0.032089214 0.434676051
32498448 -0.03138265 0.43470484
32573748 -0.030697541 0.434501439
32649048 -0.02987756 0.434177011
32724248 -0.029022732 0.433823347
32799548 -0.028411092 0.433589667
32874848 -0.027645574 0.433328032
32950148 -0.026792779 0.433318108
