# HZ S RI R 50
1000000 -0.969181776 0.129798948
1039300 -0.967809915 0.135051563
1078600 -0.966526925 0.139955714
1118000 -0.965121328 0.144624546
1157300 -0.963707685 0.149412631
1196700 -0.96191442 0.15436609
1236000 -0.960428237 0.159096866
1275400 -0.958638191 0.163767129
1314700 -0.956936717 0.168649867
1354100 -0.954872786 0.173337295
1393400 -0.953440308 0.178161159
1432800 -0.951530277 0.182892501
1472100 -0.94955039 0.1874599
1511500 -0.947546839 0.191824018
1550800 -0.945503771 0.196544468
1590200 -0.94339168 0.201147258
1629500 -0.941280424 0.205622375
1668900 -0.93924731 0.21032007
1708200 -0.937017977 0.214533165
1747600 -0.934773623 0.219026371
1786900 -0.932219147 0.223462715
1826300 -0.930061161 0.227686405
1865600 -0.927600562 0.232198014
1905000 -0.925006091 0.236446812
1944300 -0.922397017 0.240475311
1983700 -0.9200778 0.244607731
2023000 -0.917563319 0.248875677
2062400 -0.915074229 0.252944231
2101700 -0.912269473 0.257004052
2141100 -0.909748494 0.260883331
2180400 -0.906992614 0.264955669
2219800 -0.904274821 0.26886788
2259100 -0.901386201 0.272606164
2298500 -0.898415684 0.276563733
2337800 -0.895376801 0.280590236
2377200 -0.892536938 0.284053802
2416500 -0.889517247 0.287774622
2455900 -0.886467397 0.291284024
2495200 -0.883699834 0.294679373
2534600 -0.880540192 0.298188418
2573900 -0.877654433 0.301713764
2613300 -0.874718427 0.305032372
2652600 -0.871528446 0.308385521
2692000 -0.868293642 0.311534076
2731300 -0.865315496 0.314702063
2770700 -0.86211574 0.317973494
2810000 -0.859177172 0.320991873
2849400 -0.8559767 0.324122309
2888700 -0.852919161 0.32710427
2928100 -0.849705755 0.330135405
2967400 -0.846600651 0.333088457
3006700 -0.843355178 0.335749149
3046100 -0.840011417 0.338572859
3085400 -0.836919426 0.341139972
3124800 -0.833738982 0.343951672
3164100 -0.830342888 0.346883177
3203500 -0.827345967 0.349317878
3242800 -0.824199855 0.351750314
3282200 -0.820774853 0.354422301
3321500 -0.817801415 0.356862157
3360900 -0.814494609 0.359296113
3400200 -0.811333417 0.361590325
3439600 -0.808228671 0.363908022
3478900 -0.805030643 0.366230934
3518300 -0.801587522 0.368520617
3557600 -0.79871881 0.370652228
3597000 -0.795516014 0.372774511
3636300 -0.792256951 0.374798953
3675700 -0.789339482 0.377019196
3715000 -0.786096632 0.378882646
3754400 -0.782968401 0.380951315
3793700 -0.779793143 0.38289842
3833100 -0.77664119 0.384841203
3872400 -0.773477733 0.386836588
3911800 -0.770231366 0.388514518
3951100 -0.767297327 0.39031887
3990500 -0.76439017 0.39211297
4029800 -0.761427342 0.393808603
4069200 -0.75807929 0.395576417
4108500 -0.755003869 0.397176057
4147900 -0.752062022 0.39872393
4187200 -0.749010205 0.400378197
4226600 -0.745917797 0.401943802
4265900 -0.743066608 0.403374999
4305300 -0.740155518 0.404886364
4344600 -0.737014174 0.406142473
4384000 -0.734071195 0.407612472
4423300 -0.731047272 0.409062296
4462700 -0.728045642 0.41056019
4502000 -0.725211739 0.411802709
4541400 -0.722414195 0.413151204
4580700 -0.719348967 0.414329677
4620100 -0.716565728 0.415659606
4659400 -0.713647663 0.416852325
4698800 -0.710840642 0.418016284
4738100 -0.708059251 0.419104874
4777500 -0.705215215 0.420317977
4816800 -0.702286839 0.421402096
4856200 -0.699527442 0.422599673
4895500 -0.696897208 0.423647642
4934900 -0.694136202 0.424812704
4934996 -0.69426763 0.42476958
4978396 -0.691164135 0.425868362
5021896 -0.68796432 0.427129268
5065396 -0.685035705 0.42810744
5108896 -0.682208299 0.429092049
5152396 -0.679205358 0.430136203
5195896 -0.676259338 0.431196719
5239396 -0.673338949 0.43214187
5282896 -0.670329213 0.433392405
5326396 -0.667508006 0.43428263
5369896 -0.664549112 0.435141205
5413396 -0.661824166 0.436010122
5456896 -0.65925914 0.436917513
5500396 -0.656200647 0.437768459
5543896 -0.653444588 0.438584238
5587396 -0.650619447 0.439458996
5630896 -0.64796096 0.440450072
5674396 -0.645199 0.440954804
5717896 -0.64240694 0.441876709
5761396 -0.63994354 0.442672342
5804896 -0.637243449 0.443445593
5848396 -0.634773969 0.443938434
5891896 -0.632066905 0.444714099
5935396 -0.629306972 0.445379227
5978896 -0.626853287 0.445976018
6022396 -0.624246597 0.446571409
6065896 -0.621824502 0.447344809
6109396 -0.619281768 0.44793573
6152896 -0.616861462 0.448398828
6196396 -0.61470288 0.448854863
6239896 -0.612508475 0.449295938
6283396 -0.610310077 0.449643611
6326896 -0.60807991 0.450083583
6370396 -0.606162905 0.450443565
6413896 -0.604334115 0.450699925
6457396 -0.602587223 0.450828045
6500896 -0.600907146 0.451368689
6544396 -0.598622977 0.452208727
6587896 -0.59588027 0.452998906
6631396 -0.593134462 0.454078674
6674896 -0.589863896 0.455081343
6718396 -0.586744844 0.455932527
6761896 -0.583583295 0.4568488
6805396 -0.580430328 0.457502812
6848896 -0.577454447 0.458401024
6892396 -0.574742913 0.459249913
6935896 -0.572105467 0.459994316
6979396 -0.569570243 0.460803091
7022896 -0.567170619 0.461484551
7066396 -0.565048635 0.462120771
7109896 -0.562981605 0.462574958
7153396 -0.560990989 0.462748855
7196896 -0.558901906 0.46298179
7240396 -0.556863546 0.463197141
7283896 -0.555013835 0.46352449
7327396 -0.552935957 0.463580489
7370896 -0.550743043 0.46415916
7414396 -0.548800528 0.464224576
7457896 -0.546613633 0.464373201
7501396 -0.544601202 0.46475166
7544896 -0.542639315 0.465075731
7588396 -0.540538132 0.465328574
7631896 -0.538426339 0.465752869
7675396 -0.536414325 0.466041237
7718896 -0.534416019 0.466158449
7762396 -0.532259702 0.466565102
7805896 -0.530343353 0.466895848
7849396 -0.528290629 0.467087447
7892896 -0.52630198 0.467392534
7936396 -0.524156928 0.467725485
7979896 -0.522434234 0.468030363
8023396 -0.520383 0.468379467
8066896 -0.518453657 0.468606263
8110396 -0.516388416 0.468796074
8153896 -0.51463294 0.46925202
8197396 -0.51259011 0.469643771
8240896 -0.510676264 0.46976599
8284396 -0.508688211 0.47001487
8327896 -0.506941497 0.470307111
8371396 -0.504954099 0.470577567
8414896 -0.503053784 0.470808148
8458396 -0.501280546 0.471188962
8501896 -0.499413788 0.471367865
8545396 -0.497526139 0.471661597
8588896 -0.495654314 0.471760302
8632396 -0.493696838 0.471981823
8675896 -0.491955965 0.472295314
8719396 -0.490138769 0.472485333
8762896 -0.488494604 0.472784966
8806396 -0.48640567 0.472984969
8849896 -0.484797984 0.473173558
8893396 -0.483096957 0.473417192
8936896 -0.481424123 0.473610043
8980396 -0.479406565 0.473700463
9023896 -0.477773845 0.473959714
9067396 -0.476008445 0.474252313
9110896 -0.474338293 0.47438398
9154396 -0.472396433 0.474716097
9197896 -0.470908731 0.474974244
9241396 -0.469012707 0.475062489
9284896 -0.467427998 0.475327283
9284932 -0.467526257 0.475220918
9333532 -0.465406477 0.475451231
9382132 -0.463743805 0.475642204
9430732 -0.461666375 0.475828379
9479432 -0.459918141 0.476104795
9528032 -0.45791307 0.476371437
9576632 -0.45625925 0.476424723
9625232 -0.454395502 0.476673215
9673932 -0.452561467 0.476813852
9722532 -0.45083636 0.477148324
9771132 -0.448933213 0.477149933
9819832 -0.447222679 0.477414309
9868432 -0.445376187 0.477598249
9917032 -0.443571984 0.477773427
9965632 -0.441962629 0.478058338
10014332 -0.440190523 0.478015184
10062932 -0.438274383 0.478071928
10111532 -0.43647781 0.478407829
10160232 -0.43479526 0.478358894
10208832 -0.433045148 0.47862491
10257432 -0.431441158 0.478667289
10306032 -0.429701685 0.478832602
10354732 -0.428183943 0.47905898
10403332 -0.4264068 0.479053378
10451932 -0.424591034 0.479179799
10500632 -0.423026502 0.47935158
10549232 -0.421432882 0.479575484
10597832 -0.419717848 0.479703962
10646432 -0.418166577 0.479707509
10695132 -0.416366815 0.479718863
10743732 -0.41474685 0.479831933
10792332 -0.413147449 0.480134963
10840932 -0.411649346 0.480184853
10889632 -0.409977883 0.480259776
10938232 -0.408642709 0.480337947
10986832 -0.406775474 0.480361461
11035532 -0.405270487 0.480383247
11084132 -0.403632849 0.480603426
11132732 -0.402141511 0.480712771
11181332 -0.400571018 0.480663955
11230032 -0.398974537 0.480924248
11278632 -0.397362262 0.481010138
11327232 -0.395866513 0.481072694
11375932 -0.394313126 0.48109886
11424532 -0.392744213 0.48103708
11473132 -0.391371458 0.481269448
11521732 -0.389765202 0.481264203
11570432 -0.388196915 0.481515735
11619032 -0.386747717 0.481674492
11667632 -0.385318279 0.481574982
11716332 -0.383856862 0.48172146
11764932 -0.38213244 0.481682389
11813532 -0.380878388 0.481702536
11862132 -0.379179507 0.48182857
11910832 -0.377689272 0.481947302
11959432 -0.376402586 0.482067555
12008032 -0.374913543 0.482044965
12056632 -0.373463422 0.482088059
12105332 -0.371985465 0.482119113
12153932 -0.37063229 0.482081294
12202532 -0.369198948 0.482150673
12251232 -0.367701947 0.482099235
12299832 -0.366294056 0.482362478
12348432 -0.364894688 0.482350915
12397032 -0.363338738 0.482492983
12445732 -0.362214326 0.482514798
12494332 -0.360685169 0.482407897
12542932 -0.359124422 0.482530236
12591632 -0.357972264 0.482386648
12640232 -0.356432318 0.482735306
12688832 -0.355225861 0.482842594
12737432 -0.353740543 0.482677578
12786132 -0.352449595 0.482596009
12834732 -0.350978463 0.482694774
12883332 -0.3495844 0.48277533
12932032 -0.348186016 0.482836842
12980632 -0.347036629 0.482881516
13029232 -0.345676422 0.482923686
13077832 -0.34421277 0.48285818
13126532 -0.342772513 0.482857465
13175132 -0.341430634 0.482904702
13223732 -0.340231865 0.483078628
13272332 -0.338889449 0.483054459
13321032 -0.337673038 0.483226358
13369632 -0.336229771 0.483192384
13418232 -0.335037022 0.483223676
13466932 -0.333593249 0.483281522
13515532 -0.332460999 0.48313722
13564132 -0.331134945 0.483209669
13612732 -0.329764842 0.483429223
13661432 -0.328488826 0.483334064
13710032 -0.327225685 0.483259975
13758632 -0.32593128 0.48346737
13807332 -0.324734508 0.483422666
13855932 -0.323418825 0.48336336
13904532 -0.322143584 0.483450055
13953132 -0.320916086 0.483614027
14001832 -0.319707244 0.483423918
14050432 -0.318490564 0.483479022
14099032 -0.317182302 0.483582675
14147732 -0.315881967 0.483520239
14147747 -0.315808057 0.48349747
14202847 -0.314481616 0.483658313
14257947 -0.313157945 0.483635663
14313047 -0.311704069 0.483773976
14368247 -0.310366451 0.483515292
14423347 -0.308946043 0.483562082
14478447 -0.307537436 0.483745574
14533647 -0.306183904 0.483650028
14588747 -0.304748207 0.483546704
14643847 -0.303287982 0.48363623
14699047 -0.302018344 0.48359996
14754147 -0.300560325 0.483795285
14809247 -0.29927811 0.483795642
14864347 -0.298058569 0.483619779
14919547 -0.296794652 0.483659327
14974647 -0.295356839 0.483773887
15029747 -0.293982654 0.483559697
15084947 -0.292573988 0.483759582
15140047 -0.291385293 0.48376587
15195147 -0.289932608 0.483818113
15250347 -0.288730233 0.483654826
15305447 -0.287308484 0.483606725
15360547 -0.286105096 0.483526855
15415647 -0.284862309 0.4835608
15470847 -0.283462047 0.483591794
15525947 -0.282212764 0.483635365
15581047 -0.280874937 0.483485907
15636247 -0.279591947 0.483539968
15691347 -0.27838844 0.483490079
15746447 -0.277179956 0.483511656
15801647 -0.275908559 0.483474493
15856747 -0.274491429 0.48347187
15911847 -0.273369759 0.483351379
15966947 -0.27192375 0.483484864
16022147 -0.270703613 0.483356595
16077247 -0.269486099 0.483368903
16132347 -0.268434464 0.483307123
16187547 -0.266994357 0.483252793
16242647 -0.265726804 0.483236461
16297747 -0.264445841 0.483041912
16352947 -0.263347029 0.483150452
16408047 -0.262065261 0.482952445
16463147 -0.260980069 0.483007639
16518247 -0.25968492 0.483133345
16573447 -0.258592873 0.482857197
16628547 -0.257393449 0.482981622
16683647 -0.256082981 0.483070641
16738847 -0.255082905 0.482908874
16793947 -0.253758281 0.482857882
16849047 -0.252567917 0.4826186
16904247 -0.251306384 0.482551395
16959347 -0.249972015 0.482549577
17014447 -0.249081432 0.48243311
17069547 -0.247865676 0.482581794
17124747 -0.24671261 0.482394486
17179847 -0.245529294 0.482443958
17234947 -0.244296893 0.482189685
17290147 -0.243081972 0.482150197
17345247 -0.242011219 0.482247978
17400347 -0.240896508 0.482080131
17455547 -0.239633709 0.482018649
17510647 -0.238608077 0.482090026
17565747 -0.237380623 0.481932282
17620847 -0.23638153 0.48191145
17676047 -0.235195279 0.481637358
17731147 -0.234064042 0.48170641
17786247 -0.233002722 0.481758743
17841447 -0.231879472 0.481542199
17896547 -0.230661183 0.481225907
17951647 -0.229589626 0.481274008
18006847 -0.228408485 0.481342375
18061947 -0.227199912 0.481166571
18117047 -0.226131528 0.481270611
18172147 -0.225188612 0.481159895
18227347 -0.224140018 0.480959475
18282447 -0.222977846 0.480872988
18337547 -0.221974551 0.4809767
18392747 -0.220739513 0.480753302
18447847 -0.219585955 0.480726063
18502947 -0.218533158 0.480653524
18558147 -0.217438519 0.480521798
18613247 -0.216299593 0.4803676
18668347 -0.215243011 0.480402767
18723447 -0.214194521 0.48041445
18778647 -0.213279709 0.480223655
18833747 -0.212082356 0.480014413
18888847 -0.211063981 0.480090886
18944047 -0.209883615 0.480024307
18999147 -0.208983808 0.479975372
19054247 -0.207889601 0.479831397
19109447 -0.206906989 0.479680061
19164547 -0.205767646 0.479687631
19219647 -0.20486243 0.479485958
19274747 -0.203753665 0.47939229
19329947 -0.202727824 0.479336291
19385047 -0.201771825 0.479178398
19440147 -0.200649246 0.4790726
19495347 -0.199783921 0.479050219
19550447 -0.19864127 0.478941321
19605547 -0.197615146 0.478792548
19660747 -0.196605667 0.478699892
19660752 -0.196648046 0.47861433
19724352 -0.195535674 0.478664606
19787952 -0.194462984 0.478580087
19851652 -0.19317016 0.478331387
19915252 -0.191847056 0.478209137
19978952 -0.190726131 0.478008717
20042552 -0.189665302 0.477938264
20106152 -0.188491284 0.477910876
20169852 -0.187291339 0.477930933
20233452 -0.186098217 0.477573007
20297152 -0.185004919 0.477406948
20360752 -0.183836087 0.47738102
20424452 -0.182720348 0.477184921
20488052 -0.181596308 0.477081835
20551652 -0.180581271 0.476896733
20615352 -0.179336741 0.476829051
20678952 -0.178189218 0.476704359
20742652 -0.177184984 0.476586371
20806252 -0.176077648 0.476455241
20869852 -0.174906104 0.476325213
20933552 -0.174009501 0.476263195
20997152 -0.17270486 0.476053357
21060852 -0.171692728 0.476002484
21124452 -0.170628115 0.475719451
21188152 -0.169400066 0.475595891
21251752 -0.16847454 0.475466251
21315352 -0.167414188 0.475412189
21379052 -0.166243106 0.475057125
21442652 -0.165267571 0.475150406
21506352 -0.164196059 0.474947631
21569952 -0.163146078 0.474655121
21633652 -0.162016898 0.474619001
21697252 -0.160992398 0.474529087
21760852 -0.159816637 0.47428447
21824552 -0.158808529 0.474236816
21888152 -0.157779484 0.473878204
21951852 -0.156537011 0.474120765
22015452 -0.15554066 0.473713755
22079052 -0.154433965 0.473513543
22142752 -0.15354292 0.473372995
22206352 -0.152514234 0.47340998
22270052 -0.151685014 0.473088413
22333652 -0.150542899 0.473152071
22397352 -0.149579375 0.472737431
22460952 -0.14856033 0.472755163
22524552 -0.14756444 0.4727104
22588252 -0.146351322 0.472648143
22651852 -0.14529325 0.472339689
22715552 -0.144323766 0.472174704
22779152 -0.14331144 0.472008615
22842852 -0.142445042 0.471764266
22906452 -0.141341939 0.471741616
22970052 -0.140257284 0.471675932
23033752 -0.13938634 0.471399486
23097352 -0.138466164 0.471310079
23161052 -0.137388437 0.470947921
23224652 -0.136420816 0.471011132
23288252 -0.135311946 0.470879763
23351952 -0.134292393 0.470763921
23415552 -0.133497595 0.470566391
23479252 -0.132308825 0.470442086
23542852 -0.131505504 0.470285624
23606552 -0.130626291 0.470224678
23670152 -0.129821628 0.47004497
23733752 -0.12839365 0.469870597
23797452 -0.127744182 0.469481885
23861052 -0.126799151 0.469563066
23924752 -0.12585479 0.469275712
23988352 -0.124889001 0.469402581
24051952 -0.123944446 0.468985885
24115652 -0.122941248 0.469033002
24179252 -0.121971622 0.46881476
24242952 -0.121119439 0.468641877
24306552 -0.119991987 0.468345284
24370252 -0.119112312 0.468185424
24433852 -0.118226692 0.46804282
24497452 -0.117307007 0.467841356
24561152 -0.116455264 0.467798799
24624752 -0.11551094 0.467642158
24688452 -0.114625632 0.467334032
24752052 -0.113673187 0.467321991
24815752 -0.112651593 0.467052429
24879352 -0.111894376 0.467167556
24942952 -0.110814251 0.466875463
25006652 -0.109962277 0.466559171
25070252 -0.109055563 0.466200917
25133952 -0.108412504 0.466400593
25197552 -0.10722465 0.46632415
25261152 -0.106330521 0.465958654
25324852 -0.10557536 0.465686351
25388452 -0.104769885 0.46565181
25452152 -0.103863231 0.46537441
25515752 -0.102910719 0.465335726
25579452 -0.102197162 0.465093612
25643052 -0.101165786 0.46479547
25706652 -0.100385405 0.464522451
25770352 -0.099428482 0.464611917
25833952 -0.098647445 0.464481413
25897652 -0.09771908 0.464275658
25961252 -0.096962504 0.46405664
26024952 -0.095940954 0.463918179
26025048 -0.096094124 0.4637295
26100248 -0.094865158 0.463566154
26175548 -0.093978762 0.46347475
26250848 -0.092976704 0.463198423
26326048 -0.091996848 0.463084518
26401348 -0.091035589 0.462866634
26476648 -0.089980006 0.462619662
26551948 -0.088994719 0.46234703
26627148 -0.088005125 0.462205499
26702448 -0.087062597 0.462072461
26777748 -0.085893325 0.461746215
26853048 -0.085039578 0.461599588
26928248 -0.084122009 0.461177259
27003548 -0.08313249 0.461221069
27078848 -0.082165852 0.460939854
27154048 -0.081202924 0.460662633
27229348 -0.080345638 0.460434585
27304648 -0.079109899 0.460094362
27379948 -0.078513242 0.459915727
27455148 -0.077292531 0.459846645
27530448 -0.076498821 0.45960915
27605748 -0.07542555 0.459414541
27681048 -0.074508778 0.459333091
27756248 -0.073556385 0.458890289
27831548 -0.072738975 0.458648771
27906848 -0.07159505 0.458491027
27982048 -0.070721298 0.458357095
28057348 -0.069972418 0.458133995
28132648 -0.06897062 0.457805365
28207948 -0.067993335 0.45765224
28283148 -0.067114003 0.457409977
28358448 -0.066203057 0.457209914
28433748 -0.06516768 0.457033604
28509048 -0.064312368 0.456725478
28584248 -0.063298135 0.456544131
28659548 -0.062475033 0.456190556
28734848 -0.061767086 0.456198483
28810148 -0.060797657 0.456104576
28885348 -0.059915311 0.455715298
28960648 -0.058979734 0.455462604
29035948 -0.058028798 0.455353587
29111148 -0.057256925 0.454871505
29186448 -0.056323066 0.454661667
29261748 -0.055399779 0.454560995
29337048 -0.054560024 0.45435515
29412248 -0.053692765 0.454045534
29487548 -0.052774883 0.453942328
29562848 -0.051865421 0.453672766
29638148 -0.050844304 0.453444063
29713348 -0.050092838 0.453117519
29788648 -0.04916631 0.452901929
29863948 -0.048544954 0.452921926
29939148 -0.047557659 0.452432632
30014448 -0.046860024 0.452444463
30089748 -0.045871533 0.452097386
30165048 -0.044935446 0.451669633
30240248 -0.044104598 0.451632231
30315548 -0.043317627 0.451218992
30390848 -0.042518548 0.451172083
30466148 -0.041636075 0.451091319
30541348 -0.04082394 0.450665324
30616648 -0.040035791 0.450543016
30691948 -0.039364464 0.450301021
30767148 -0.03852605 0.450242221
30842448 -0.037544451 0.449874013
30917748 -0.036685198 0.449495434
30993048 -0.035777363 0.449400722
31068248 -0.035085171 0.449153333
31143548 -0.034280255 0.448982149
31218848 -0.033419277 0.448703706
31294148 -0.03253718 0.448625445
31369348 -0.031721912 0.44837886
31444648 -0.031025001 0.44784379
31519948 -0.030146135 0.447685897
31595248 -0.029249399 0.447525084
31670448 -0.028489971 0.44732505
31745748 -0.027805216 0.447062432
31821048 -0.026969399 0.446941465
31896248 -0.026062646 0.446724891
31971548 -0.025391938 0.446255117
32046848 -0.024507138 0.446180701
32122148 -0.02366824 0.445804208
32197348 -0.022961188 0.445721149
32272648 -0.022357162 0.445431739
32347948 -0.021506562 0.445161283
32423248 -0.020859988 0.444931656
32498448 -0.019834626 0.444597661
32573748 -0.019009135 0.444322913
32649048 -0.018317425 0.444410979
32724248 -0.017584785 0.44407016
32799548 -0.016749696 0.443781822
32874848 -0.016170717 0.443575859
32950148 -0.01540365 0.443351149
33025348 -0.014499368 0.443122625
