# HZ S RI R 50
100000 -0.998994946 -0.007291252
397200 -0.999388754 0.001082854
694400 -0.998533427 0.006649271
991600 -0.99797523 0.012147093
1288900 -0.99775958 0.015945192
1586100 -0.996952235 0.019734811
1883300 -0.996273636 0.023482397
2180500 -0.99612981 0.02673044
2477800 -0.994931638 0.030440818
2775000 -0.994201242 0.033767387
3072200 -0.993408262 0.037089377
3369400 -0.992489278 0.040383726
3666700 -0.991538524 0.043443419
3963900 -0.990608513 0.046650454
4261100 -0.989495992 0.049233146
4558300 -0.988709509 0.052102692
4855600 -0.987440586 0.054690416
5152800 -0.986472547 0.057448379
5450000 -0.985215723 0.059806056
5747200 -0.984233379 0.062203109
6044500 -0.983174741 0.064257219
6341700 -0.983238339 0.06408178
6638900 -0.983679354 0.066290609
6936100 -0.979481995 0.074660181
7233400 -0.979162454 0.07670591
7530600 -0.978184461 0.078389227
7827800 -0.976506412 0.080830752
8125000 -0.975520908 0.083361119
8422300 -0.974109113 0.08600527
8719500 -0.97280997 0.088631749
9016700 -0.97175163 0.091367214
9313900 -0.970542907 0.093809425
9611200 -0.969286561 0.096411108
9908400 -0.967888176 0.09914878
10205600 -0.966691255 0.1011855
10502800 -0.965514361 0.103426881
10800100 -0.964243948 0.105798169
11097300 -0.963272035 0.107683718
11394500 -0.961966753 0.109781116
11691700 -0.960969686 0.111907012
11989000 -0.959503173 0.11428944
12286200 -0.958391785 0.116112843
12583400 -0.957128286 0.118092864
12880600 -0.956188321 0.120077766
13177900 -0.955044627 0.122057482
13475100 -0.953692078 0.124169401
13772300 -0.952577233 0.126158833
14069500 -0.95162642 0.128094285
14366800 -0.950349509 0.129964172
14664000 -0.949408292 0.131993696
14961200 -0.948002099 0.133886784
15258400 -0.947080194 0.13549748
15555700 -0.945932984 0.137609362
15852900 -0.944614589 0.139144077
16150100 -0.94356954 0.141042888
16447300 -0.942591547 0.142988428
16744600 -0.941259324 0.144830197
17041800 -0.940061569 0.146592825
17339000 -0.938873827 0.148295402
17636200 -0.937828361 0.150133639
17933500 -0.936857759 0.151708602
18230700 -0.935692727 0.153314992
18527900 -0.934611499 0.155097723
18825100 -0.933368623 0.156881287
19122400 -0.932337582 0.158327281
19419600 -0.930967092 0.160036772
19716800 -0.930122077 0.161543458
20014000 -0.929063975 0.163444086
20311300 -0.92794609 0.164915516
20608500 -0.926888585 0.166607379
20905700 -0.926017403 0.168159127
21202900 -0.924645245 0.169714048
21500200 -0.923475086 0.171063423
21797400 -0.922362685 0.17273429
22094600 -0.921370387 0.174282163
22391800 -0.920270919 0.176042214
22689100 -0.919192314 0.177728906
22986300 -0.918282568 0.179000496
23283500 -0.916897594 0.180447041
23580700 -0.915886104 0.181917265
23878000 -0.914953768 0.18377684
24175200 -0.913831591 0.185236483
24472400 -0.912784814 0.18633981
24769600 -0.911669254 0.187890261
25066900 -0.91057527 0.189289525
25364100 -0.909618794 0.190810889
25661300 -0.908370494 0.192167237
25958500 -0.907518565 0.193570911
26255800 -0.906497359 0.194880515
26553000 -0.905344843 0.196325764
26850200 -0.904300332 0.197840571
27147400 -0.90327394 0.199203699
27444700 -0.902252137 0.200366526
27741900 -0.901187479 0.201744168
28039100 -0.900242149 0.203028067
28336300 -0.899158179 0.204301059
28633600 -0.89803183 0.205790266
28930800 -0.897305786 0.207073986
29228000 -0.896098911 0.208466276
29525200 -0.895111858 0.209671899
29822500 -0.894076585 0.210874125
30119724 -0.893315851 0.212363407
30416924 -0.892188787 0.213409394
30714124 -0.891095399 0.214715108
31011324 -0.890048265 0.21616438
31308624 -0.889010846 0.217380583
31605824 -0.888068795 0.218609213
31903024 -0.887078702 0.219743445
32200224 -0.88596636 0.220817044
32497524 -0.885100603 0.222221016
32794724 -0.884085416 0.223450869
33091924 -0.883041441 0.224578395
33389124 -0.882127165 0.225935712
33686424 -0.880907297 0.22705923
33983624 -0.879935681 0.228164777
34280824 -0.878899395 0.229488313
34578024 -0.878357827 0.230408534
34875324 -0.877487599 0.231928631
35172524 -0.876385033 0.232779338
35469724 -0.875487148 0.233622133
35766924 -0.874288856 0.235128596
36064224 -0.873433232 0.236117959
36361424 -0.872578978 0.237208008
36658624 -0.871489822 0.238368585
36955824 -0.870444357 0.23923774
37253124 -0.869848728 0.240533187
37550324 -0.868475735 0.241652742
37847524 -0.867569506 0.242846697
38144724 -0.866587758 0.243877068
38442024 -0.865953803 0.244892641
38739224 -0.864875078 0.246274337
39036424 -0.864126443 0.246969044
39333624 -0.863097071 0.248263657
39630924 -0.861698567 0.249273523
39928124 -0.860597133 0.249889895
40225324 -0.859801411 0.251219749
40522524 -0.85912466 0.252492845
40819824 -0.858365178 0.253493249
41117024 -0.857338964 0.254249453
41414224 -0.856279015 0.255637466
41711424 -0.855646133 0.256233692
42008724 -0.854952573 0.257867455
42305924 -0.854143381 0.258612185
42603124 -0.853243708 0.25935477
42900324 -0.852303147 0.260568469
43197624 -0.851147353 0.26137191
43494824 -0.849989414 0.26202768
43792024 -0.849652111 0.263108909
44089224 -0.848778367 0.264077991
44386524 -0.8477602 0.264669954
44683724 -0.846920669 0.265786856
44980924 -0.84602195 0.267193853
45278124 -0.845109283 0.267561644
45575424 -0.844465732 0.268774867
45872624 -0.843857944 0.269351124
46169824 -0.842390835 0.270007491
46467024 -0.841853082 0.271216541
46764324 -0.841003596 0.271914958
47061524 -0.839925348 0.273031294
47358724 -0.839013278 0.273722887
47655924 -0.838217735 0.27451229
47953224 -0.837365448 0.275562047
48250424 -0.836372196 0.276293218
48547624 -0.835512399 0.277179896
48844824 -0.834528326 0.277874171
49142124 -0.833780765 0.279026508
49439324 -0.833014845 0.279676526
49736524 -0.832178711 0.280401289
50033724 -0.831246256 0.281522333
50331024 -0.830342948 0.282013475
50628224 -0.829558968 0.282853722
50925424 -0.828864872 0.283645868
51222624 -0.828063189 0.284601986
51519924 -0.827274382 0.285472095
51817124 -0.826388061 0.286047637
52114324 -0.825815737 0.286933064
52411524 -0.824658751 0.287636816
52708824 -0.823955535 0.288264393
53006024 -0.823045551 0.289170801
53303224 -0.822342693 0.289887487
53600424 -0.82166779 0.290760755
53897724 -0.820656418 0.291340798
54194924 -0.820042014 0.292191714
54492124 -0.819513499 0.292823612
54789324 -0.818751215 0.293885141
55086624 -0.817974627 0.294322252
55383824 -0.81685543 0.294776141
55681024 -0.816221594 0.295595705
55978224 -0.815327346 0.296329259
56275524 -0.814683794 0.296975255
56572724 -0.813682198 0.29739803
56869924 -0.813264608 0.298646777
57167124 -0.812358736 0.299538791
57464424 -0.811729669 0.300162762
57761624 -0.81028819 0.300731807
58058824 -0.809848189 0.301487684
58356024 -0.809700846 0.302381813
58653324 -0.808934509 0.302885055
58950524 -0.807923674 0.30294919
59247724 -0.80700314 0.303984165
59544924 -0.806659877 0.304308414
59842224 -0.80596435 0.305178105
60139448 -0.805164635 0.305809617
60436648 -0.804628252 0.306819856
60733848 -0.803929805 0.306961536
61031048 -0.802744507 0.307385802
61328348 -0.802070498 0.308347046
61625548 -0.801743268 0.309127181
61922748 -0.800924956 0.309562146
62219948 -0.800006985 0.31030941
62517248 -0.799512684 0.31100744
62814448 -0.798300266 0.311659157
63111648 -0.797674417 0.311948537
63408848 -0.796947479 0.312987625
63706148 -0.796024262 0.313534498
64003348 -0.795809984 0.314271807
64300548 -0.793810486 0.314187794
64597748 -0.794187307 0.314731836
64895048 -0.793127894 0.315703719
65192248 -0.792860984 0.316149532
65489448 -0.792508482 0.316260337
65786648 -0.791467726 0.317081868
66083948 -0.791494846 0.3173334
66381148 -0.790213346 0.318573653
66678348 -0.790072321 0.318562686
66975548 -0.788957357 0.319146633
67272848 -0.787767171 0.319887518
67570048 -0.787371635 0.319930136
67867248 -0.78707236 0.320533156
68164448 -0.785930991 0.32090491
68461748 -0.785160958 0.321799278
68758948 -0.785293459 0.322278887
69056148 -0.784327328 0.322955667
69353348 -0.783655524 0.323028445
69650648 -0.783092856 0.323750734
69947848 -0.781615972 0.325629949
70245048 -0.782210588 0.325149834
70542248 -0.780962944 0.32614848
70839548 -0.781425476 0.325571
71136748 -0.778826236 0.32586044
71433948 -0.779856801 0.327083647
71731148 -0.77795571 0.327851533
72028448 -0.778376221 0.328304976
72325648 -0.777949273 0.329482018
72622848 -0.776264667 0.329106748
72920048 -0.776243984 0.330106467
73217348 -0.776399612 0.330068886
73514548 -0.775452613 0.33010447
73811748 -0.773934602 0.33002898
74108948 -0.774330496 0.331947505
74406248 -0.773753523 0.332454323
74703448 -0.772770285 0.33302772
75000648 -0.773036241 0.332378506
75297848 -0.77237749 0.333535045
75595148 -0.771288752 0.333325475
75892348 -0.768021702 0.335279643
76189548 -0.769852638 0.334376394
76486748 -0.769284605 0.335550665
76784048 -0.769530236 0.336050629
77081248 -0.769041001 0.336770415
77378448 -0.768072247 0.335851132
77675648 -0.768013715 0.337600648
77972948 -0.767303943 0.337339878
78270148 -0.767651915 0.338468611
78567348 -0.767284035 0.338795751
78864548 -0.76538515 0.338527917
79161848 -0.764596581 0.33932814
79459048 -0.762952387 0.340996384
79756248 -0.763236522 0.340115427
80053448 -0.763597369 0.34017992
80350748 -0.763762474 0.340803444
80647948 -0.762973189 0.341576129
80945148 -0.761428952 0.343281507
81242348 -0.762206196 0.342434376
81539648 -0.760613679 0.343252539
81836848 -0.760175228 0.343765616
82134048 -0.758827686 0.343537211
82431248 -0.757946908 0.343401223
82728548 -0.757893562 0.343842029
83025748 -0.756310403 0.344972252
83322948 -0.757252216 0.345443695
83620148 -0.757588744 0.344704866
83917448 -0.757447302 0.345051527
84214648 -0.755637049 0.345967411
84511848 -0.756029248 0.346273064
84809048 -0.754420638 0.347410738
85106348 -0.754567921 0.346002757
85403548 -0.753964185 0.347811669
85700748 -0.754472672 0.348242342
85997948 -0.75106585 0.347178012
86295248 -0.753890275 0.348825931
86592448 -0.751736283 0.348427355
86889648 -0.754038929 0.349186152
87186848 -0.750559806 0.349524646
87484148 -0.752427697 0.348872333
87781348 -0.75046277 0.350524932
88078548 -0.751129269 0.350788354
88375748 -0.750907123 0.350804269
88673048 -0.748827457 0.350296795
88970248 -0.750257611 0.350760459
89267448 -0.749177336 0.350518584
89564648 -0.74904102 0.350435614
89861948 -0.749415218 0.352560907
90159176 -0.748970627 0.352910399
90456376 -0.747289776 0.351533532
90753576 -0.746977925 0.353359639
91050776 -0.747095227 0.352367043
91347976 -0.746177792 0.353988885
91645276 -0.744359135 0.352921605
91942476 -0.744580268 0.352797746
92239676 -0.743927299 0.353122234
92536876 -0.744878232 0.353062272
92834176 -0.744968771 0.353537797
93131376 -0.744602262 0.355250239
93428576 -0.743874192 0.353919655
93725776 -0.741669476 0.354477405
94023076 -0.742300748 0.354186654
94320276 -0.743909597 0.355445235
94617476 -0.740666866 0.353720068
94914676 -0.740014672 0.355738848
95211976 -0.74132961 0.355003416
95509176 -0.742000162 0.355841785
95806376 -0.738682866 0.356190264
96103576 -0.738344252 0.35694012
96400876 -0.738453388 0.356264948
96698076 -0.73809576 0.357891678
96995276 -0.740013718 0.357281178
97292476 -0.739333868 0.358181387
97589776 -0.738419771 0.357156515
97886976 -0.737592339 0.357978552
98184176 -0.738117158 0.359208226
98481376 -0.73707205 0.359612941
98778576 -0.736857175 0.359378695
99075876 -0.734860181 0.359428882
99373076 -0.734527826 0.358951002
99670276 -0.736245393 0.360738575
99967476 -0.735247552 0.358410239
100264776 -0.734663486 0.359993964
100561976 -0.734273076 0.360082417
100859176 -0.73466897 0.35990411
101156376 -0.734501719 0.360300838
101453676 -0.734244585 0.360549032
101750876 -0.733024477 0.360190033
102048076 -0.733837246 0.361012458
102345276 -0.732338905 0.361165702
102642576 -0.731534123 0.360979139
102939776 -0.732455193 0.361651003
103236976 -0.731039762 0.36146301
103534176 -0.731238663 0.361763775
103831476 -0.730668663 0.361299902
104128676 -0.73068571 0.361664652
104425876 -0.730545282 0.362220525
104723076 -0.730142951 0.361901938
105020376 -0.729034662 0.361903429
105317576 -0.729091107 0.362256318
105614776 -0.72924447 0.362253516
105911976 -0.728819847 0.362257599
106209176 -0.727628886 0.362714648
106506476 -0.728634178 0.361976325
106803676 -0.727721154 0.363017499
107100876 -0.72740519 0.363218784
107398076 -0.72692126 0.363428294
107695376 -0.726251363 0.36265099
107992576 -0.7263664 0.363343507
108289776 -0.725156664 0.362984836
108586976 -0.726218521 0.36263141
108884276 -0.725539743 0.362920492
109181476 -0.72469145 0.362536668
109478676 -0.725213468 0.362106025
109775876 -0.72499293 0.362130641
110073176 -0.724392294 0.362035691
110370376 -0.72421503 0.362418115
110667576 -0.72443962 0.362397313
110964776 -0.724559903 0.362508952
111262076 -0.724311828 0.362292051
111559276 -0.724477946 0.362877547
111856476 -0.724971771 0.362491965
112153676 -0.724232554 0.36321178
112450976 -0.724036633 0.362913489
112748176 -0.724081039 0.363188624
113045376 -0.724589467 0.363372683
113342576 -0.724061131 0.36399272
113639776 -0.723061025 0.363821417
113937076 -0.722880244 0.363991141
114234276 -0.723716855 0.363801985
114531476 -0.723529934 0.363978207
114828676 -0.72230637 0.364161908
115125976 -0.722995221 0.364350318
115423176 -0.722796142 0.364056706
115720376 -0.722850918 0.364946186
116017576 -0.72269231 0.364430963
116314876 -0.722026646 0.364320635
116612076 -0.721516013 0.364547371
116909276 -0.721427321 0.364384949
117206476 -0.721683442 0.365181416
117503776 -0.721920251 0.36513406
117800976 -0.721552133 0.364689558
118098176 -0.721734523 0.364929616
118395376 -0.720574378 0.365428745
118692676 -0.7204746 0.36544767
118989876 -0.721161127 0.36576426
119287076 -0.720094561 0.365115046
119584276 -0.720199227 0.365768969
119881576 -0.720816433 0.365664482
120178896 -0.720681667 0.365244507
120476096 -0.719261169 0.365487873
120773296 -0.719500064 0.366007328
121070496 -0.720008134 0.365530192
121367796 -0.719315767 0.366145014
121664996 -0.719383716 0.366235554
121962196 -0.718903601 0.3653059
122259396 -0.719517588 0.365987211
122556696 -0.718509554 0.366416752
122853896 -0.719023764 0.365700006
123151096 -0.718580722 0.366307735
123448296 -0.718905687 0.365755379
123745596 -0.718394935 0.365591526
124042796 -0.718586325 0.366251468
124339996 -0.717655479 0.365682721
124637196 -0.717934012 0.3665798
124934496 -0.718270838 0.366379439
125231696 -0.717832684 0.36634162
125528896 -0.717107534 0.366533637
125826096 -0.718109965 0.366606831
126123396 -0.717635393 0.365968227
126420596 -0.717653214 0.366215735
126717796 -0.717357516 0.366125375
127014996 -0.716641724 0.365952134
127312296 -0.71686244 0.365680396
127609496 -0.716609597 0.365912258
127906696 -0.716356813 0.366630911
128203896 -0.716667175 0.366610556
128501196 -0.716152906 0.366203635
128798396 -0.715793013 0.366217315
129095596 -0.715780198 0.366207003
129392796 -0.717073678 0.366019725
129690096 -0.715552687 0.365799129
129987296 -0.715954422 0.365538924
130284496 -0.71628195 0.365974754
130581696 -0.71549499 0.366024732
130878996 -0.715708732 0.365600466
131176196 -0.715665519 0.365293443
131473396 -0.715155899 0.365922152
131770596 -0.715328931 0.365427076
132067896 -0.715544104 0.36587429
132365096 -0.715129733 0.365767121
132662296 -0.714996755 0.365647405
132959496 -0.715462505 0.365536332
133256796 -0.714742779 0.365734159
133553996 -0.715296328 0.365399807
133851196 -0.715408325 0.365501075
134148396 -0.715043187 0.365531384
134445696 -0.714645445 0.365754425
134742896 -0.714662075 0.365591555
135040096 -0.715004324 0.365359038
135337296 -0.714206874 0.364998579
135634596 -0.714999377 0.364848256
135931796 -0.714105546 0.365000128
136228996 -0.714665055 0.365433216
136526196 -0.71430701 0.365297317
136823496 -0.714067637 0.364673256
137120696 -0.714940488 0.364611864
137417896 -0.713800966 0.364913582
137715096 -0.714720487 0.364856779
138012396 -0.713678419 0.364928245
138309596 -0.714715063 0.364290803
138606796 -0.714439153 0.364028096
138903996 -0.713588774 0.364243179
139201296 -0.714709758 0.364054024
139498496 -0.714244544 0.364128649
139795696 -0.71397984 0.363779902
140092896 -0.713220179 0.363724231
140390196 -0.71390891 0.364186406
140687396 -0.713080585 0.36376366
140984596 -0.714212119 0.363500714
141281796 -0.713577985 0.363196283
141579096 -0.713261306 0.363742023
141876296 -0.714047491 0.363080412
142173496 -0.712968289 0.363482087
142470696 -0.713141441 0.363359451
142767996 -0.713900685 0.362674832
143065196 -0.713651537 0.36253947
143362396 -0.714127063 0.362581908
143659596 -0.71399492 0.362349659
143956896 -0.713406324 0.362873941
144254096 -0.71323657 0.362883955
144551296 -0.714120924 0.362235039
144848496 -0.714010655 0.361777395
145145796 -0.713258743 0.36250168
145442996 -0.713895082 0.362637668
145740196 -0.713965237 0.361954927
146037396 -0.713386237 0.362146198
146334696 -0.713568985 0.362160921
146631896 -0.713861405 0.361287146
146929096 -0.713827371 0.361808896
147226296 -0.713701963 0.361864417
147523596 -0.713619172 0.361385166
147820796 -0.713605582 0.361469566
148117996 -0.713368594 0.360663384
148415196 -0.714559316 0.360850244
148712496 -0.714475154 0.36067605
149009696 -0.713668286 0.360925495
149306896 -0.714007139 0.361043751
149604096 -0.714066803 0.360396385
149901396 -0.714129209 0.360601007
150198624 -0.714039444 0.360058754
150495824 -0.714209675 0.359666824
150793024 -0.714333951 0.359948754
151090224 -0.714566588 0.359275192
151387424 -0.714599609 0.359218537
151684724 -0.714431881 0.359407126
151981924 -0.714546442 0.359087169
152279124 -0.714340806 0.358995109
152576324 -0.71423459 0.358870804
152873624 -0.71451348 0.358495622
153170824 -0.714337468 0.358304411
153468024 -0.714605808 0.358128279
153765224 -0.714660882 0.358229398
154062524 -0.714530944 0.35821253
154359724 -0.714719116 0.357667416
154656924 -0.714561402 0.357365876
154954124 -0.71421504 0.357652485
155251424 -0.714832782 0.357236802
155548624 -0.715195238 0.357159048
155845824 -0.715120613 0.356862664
156143024 -0.715129673 0.356853276
156440324 -0.715239167 0.356464117
156737524 -0.715278685 0.356484591
157034724 -0.71517831 0.355914473
157331924 -0.71550101 0.355650842
157629224 -0.715513288 0.355519086
157926424 -0.715749621 0.355318039
158223624 -0.715811014 0.355102658
158520824 -0.716011166 0.354665875
158818024 -0.716221332 0.354634642
159115324 -0.715917348 0.353999972
159412524 -0.716338157 0.354103922
159709724 -0.716898083 0.35353589
160006924 -0.716296195 0.353556543
160304224 -0.716271519 0.353536844
160601424 -0.716888129 0.353646397
160898624 -0.716724991 0.353303074
161195824 -0.716739892 0.353216648
161493124 -0.716455936 0.353463172
161790324 -0.717104613 0.353144675
162087524 -0.717206776 0.352898836
162384724 -0.717465221 0.352450102
162682024 -0.717462897 0.352339118
162979224 -0.717551469 0.352040082
163276424 -0.717675685 0.351975739
163573624 -0.717807173 0.351371824
163870924 -0.717745006 0.351230025
164168124 -0.717565953 0.351337254
164465324 -0.718163728 0.350872695
164762524 -0.71781975 0.351098746
165059824 -0.717911243 0.350357234
165357024 -0.718516469 0.350226819
165654224 -0.718264281 0.349870413
165951424 -0.718620777 0.349511206
166248624 -0.718762695 0.349510878
166545924 -0.718780636 0.349375724
166843124 -0.719091176 0.348692417
167140324 -0.718576371 0.348776668
167437524 -0.719229102 0.348227292
167734824 -0.719167172 0.347909271
168032024 -0.719541788 0.347742617
168329224 -0.719571828 0.347375929
168626424 -0.720052361 0.347110629
168923724 -0.71976763 0.346835732
169220924 -0.719902038 0.346794843
169518124 -0.720054566 0.346613585
169815324 -0.720092058 0.346234261
170112624 -0.720348894 0.345890641
170409824 -0.720323681 0.345815539
170707024 -0.720358073 0.345404565
171004224 -0.720505654 0.345110982
171301524 -0.720548152 0.344944804
171598724 -0.721070468 0.344497472
171895924 -0.720613479 0.344087302
172193124 -0.721235454 0.34408161
172490424 -0.721102535 0.34391421
172787624 -0.721581935 0.343569725
173084824 -0.721445202 0.343173563
173382024 -0.721889615 0.342902421
173679224 -0.72180134 0.342646181
