# HZ S RI R 50
1000000 -0.902492761 0.206103846
1039300 -0.898662984 0.212548881
1078600 -0.894931852 0.219010859
1118000 -0.890944242 0.225028693
1157300 -0.886999607 0.231320753
1196700 -0.88311243 0.237557932
1236000 -0.87884283 0.243189811
1275400 -0.874811053 0.249184757
1314700 -0.870753765 0.254999995
1354100 -0.866357207 0.260671406
1393400 -0.862246334 0.266287684
1432800 -0.85783261 0.271731585
1472100 -0.853451371 0.277068227
1511500 -0.849123358 0.282225638
1550800 -0.844860255 0.287270218
1590200 -0.840262889 0.292528599
1629500 -0.835672259 0.297528266
1668900 -0.831197738 0.302315473
1708200 -0.826679289 0.306935399
1747600 -0.821942448 0.311655372
1786900 -0.816401183 0.315724283
1826300 -0.812390983 0.320458263
1865600 -0.80782485 0.324736148
1905000 -0.803178668 0.329096615
1944300 -0.798431575 0.333263546
1983700 -0.793909668 0.337087839
2023000 -0.789144337 0.341200411
2062400 -0.784718751 0.344945549
2101700 -0.78001219 0.348716646
2141100 -0.775398135 0.352374851
2180400 -0.770742833 0.355881989
2219800 -0.766192436 0.35953477
2259100 -0.761376798 0.362898826
2298500 -0.756643533 0.366154164
2337800 -0.751992702 0.369641721
2377200 -0.7472018 0.372617572
2416500 -0.742877185 0.37541902
2455900 -0.738100707 0.378625899
2495200 -0.73361957 0.38126263
2534600 -0.728967666 0.384331583
2573900 -0.72435373 0.3869102
2613300 -0.719949245 0.389570146
2652600 -0.715570926 0.392234176
2692000 -0.710975706 0.394742369
2731300 -0.706710696 0.397201299
2770700 -0.70208317 0.399674445
2810000 -0.697903573 0.401765882
2849400 -0.693542003 0.404081821
2888700 -0.689244866 0.406289964
2928100 -0.685035288 0.408478647
2967400 -0.680721223 0.410481929
3006700 -0.676418364 0.412537902
3046100 -0.672076702 0.414452701
3085400 -0.6679039 0.416546046
3124800 -0.663826644 0.418358206
3164100 -0.6596601 0.420126318
3203500 -0.655478537 0.421901613
3242800 -0.651524662 0.423526734
3282200 -0.647430837 0.425310194
3321500 -0.643499314 0.426923483
3360900 -0.639546275 0.428662687
3400200 -0.63546276 0.429953783
3439600 -0.631676375 0.431555002
3478900 -0.62796384 0.433026611
3518300 -0.624029517 0.434579372
3557600 -0.620192527 0.435730487
3597000 -0.616366326 0.437099725
3636300 -0.612561523 0.438372462
3675700 -0.608872413 0.439720541
3715000 -0.605267524 0.440899223
3754400 -0.601605832 0.442013621
3793700 -0.597791194 0.443281978
3833100 -0.594479978 0.44449833
3872400 -0.590717792 0.445720285
3911800 -0.587126374 0.446784168
3951100 -0.583593666 0.447875529
3990500 -0.580232143 0.448835372
4029800 -0.576684355 0.449900925
4069200 -0.573234736 0.450801908
4108500 -0.569763541 0.451736897
4147900 -0.566515803 0.452725887
4187200 -0.563074052 0.453482151
4226600 -0.559649884 0.454407662
4265900 -0.556447565 0.455306291
4305300 -0.553279638 0.456198126
4344600 -0.549869596 0.456877797
4384000 -0.546698212 0.457593798
4423300 -0.543336451 0.458427816
4462700 -0.540239989 0.459103792
4502000 -0.537214636 0.460044384
4541400 -0.53387767 0.460641235
4580700 -0.530691266 0.461315214
4620100 -0.527912139 0.461900323
4659400 -0.524736464 0.462818533
4698800 -0.521671772 0.463288992
4738100 -0.518641471 0.463951349
4777500 -0.51585406 0.464499652
4816800 -0.512741208 0.465250968
4856200 -0.509686172 0.465689003
4895500 -0.506999611 0.466370135
4934900 -0.503730654 0.466939777
4934996 -0.504014074 0.467380046
4978396 -0.500841081 0.467557907
5021896 -0.497805476 0.468252062
5065396 -0.494538426 0.468781709
5108896 -0.49159649 0.469437658
5152396 -0.488455325 0.469801992
5195896 -0.485323458 0.47049722
5239396 -0.48220852 0.470969229
5282896 -0.479459673 0.471442699
5326396 -0.476326048 0.471973568
5369896 -0.473433315 0.472476214
5413396 -0.470468044 0.472952038
5456896 -0.467603415 0.473430097
5500396 -0.464530795 0.473783105
5543896 -0.461751043 0.474186092
5587396 -0.458866506 0.474596977
5630896 -0.456185102 0.475145637
5674396 -0.453257232 0.475639015
5717896 -0.450530797 0.47593069
5761396 -0.447743713 0.476294189
5804896 -0.445095181 0.476693034
5848396 -0.442287325 0.477049887
5891896 -0.439568102 0.477435976
5935396 -0.436858326 0.47771874
5978896 -0.434437334 0.47799316
6022396 -0.43183273 0.478385925
6065896 -0.42922464 0.478556901
6109396 -0.426758766 0.478918015
6152896 -0.424300402 0.479139357
6196396 -0.421753376 0.479456335
6239896 -0.419642657 0.47972542
6283396 -0.417349845 0.479896783
6326896 -0.415136307 0.480054169
6370396 -0.4129875 0.479988366
6413896 -0.411106646 0.480259597
6457396 -0.409264713 0.480444043
6500896 -0.40706411 0.480999469
6544396 -0.40476635 0.481419742
6587896 -0.401794463 0.481935262
6631396 -0.398793309 0.48258242
6674896 -0.395493388 0.48303923
6718396 -0.392201095 0.483478724
6761896 -0.389096558 0.483860522
6805396 -0.386055827 0.484278082
6848896 -0.383146196 0.484622895
6892396 -0.380306035 0.484917998
6935896 -0.377570927 0.485431075
6979396 -0.374936938 0.485884308
7022896 -0.372476816 0.486260622
7066396 -0.370243847 0.486468911
7109896 -0.367990195 0.486731857
7153396 -0.36583352 0.486780166
7196896 -0.363639175 0.486917018
7240396 -0.361610561 0.486742317
7283896 -0.359695494 0.486884325
7327396 -0.357442587 0.486842691
7370896 -0.355115681 0.487069547
7414396 -0.353144079 0.487108051
7457896 -0.351047605 0.487159788
7501396 -0.34869945 0.487277746
7544896 -0.346593081 0.487391322
7588396 -0.344444006 0.487471729
7631896 -0.342291265 0.487593919
7675396 -0.340141028 0.487533956
7718896 -0.337988555 0.487808555
7762396 -0.335858076 0.487897098
7805896 -0.333697527 0.487851113
7849396 -0.331586331 0.488030344
7892896 -0.329480499 0.488072216
7936396 -0.327364355 0.488102614
7979896 -0.325269132 0.488271355
8023396 -0.323177635 0.488367408
8066896 -0.321288853 0.488411962
8110396 -0.318957924 0.488591343
8153896 -0.316962271 0.48865056
8197396 -0.315093517 0.488782376
8240896 -0.312831878 0.488740265
8284396 -0.31088224 0.488729536
8327896 -0.308825731 0.488837838
8371396 -0.306812584 0.488931119
8414896 -0.304747492 0.489072442
8458396 -0.302729576 0.489045232
8501896 -0.301058709 0.489088356
8545396 -0.298833101 0.489203959
8588896 -0.296830952 0.489223271
8632396 -0.29505667 0.489298611
8675896 -0.292935073 0.489393532
8719396 -0.291159838 0.489240199
8762896 -0.289191961 0.489321321
8806396 -0.287278175 0.48930031
8849896 -0.285254299 0.489419311
8893396 -0.283394038 0.489373713
8936896 -0.281466841 0.489363253
8980396 -0.27952975 0.489282906
9023896 -0.277693152 0.489355683
9067396 -0.275903016 0.489257663
9110896 -0.273970603 0.489281266
9154396 -0.272017717 0.489376276
9197896 -0.270332813 0.489284098
9241396 -0.268476814 0.489123612
9284896 -0.266583383 0.48926869
9284932 -0.266862004 0.489479929
9333532 -0.264622688 0.489332377
9382132 -0.262601763 0.489317536
9430732 -0.260748833 0.48931387
9479432 -0.258642673 0.489128768
9528032 -0.256547957 0.489228159
9576632 -0.254596114 0.489228516
9625232 -0.252624273 0.489097028
9673932 -0.250621557 0.489158332
9722532 -0.248685494 0.488998234
9771132 -0.246792286 0.488960802
9819832 -0.24466367 0.488844543
9868432 -0.242833614 0.488734573
9917032 -0.240860894 0.488734543
9965632 -0.238907501 0.488835811
10014332 -0.237067699 0.488475054
10062932 -0.235031157 0.488349139
10111532 -0.233376532 0.488180518
10160232 -0.231406778 0.48813939
10208832 -0.229664117 0.488139003
10257432 -0.227840274 0.487897694
10306032 -0.225878044 0.48788917
10354732 -0.224111825 0.4875876
10403332 -0.222227692 0.487478047
10451932 -0.220440626 0.487284779
10500632 -0.21857278 0.487269401
10549232 -0.216875344 0.486948192
10597832 -0.214937955 0.487061649
10646432 -0.213240325 0.486854583
10695132 -0.211572006 0.48676446
10743732 -0.209727704 0.48652777
10792332 -0.207948505 0.486364156
10840932 -0.206239417 0.486234068
10889632 -0.20421189 0.485814809
10938232 -0.202778458 0.48580411
10986832 -0.201024174 0.485775858
11035532 -0.199307128 0.485393971
11084132 -0.197666719 0.48543775
11132732 -0.195856153 0.485057979
11181332 -0.194134831 0.484801292
11230032 -0.192552298 0.484804809
11278632 -0.190783724 0.48455137
11327232 -0.189179569 0.484401047
11375932 -0.187337502 0.484106987
11424532 -0.185793042 0.483869165
11473132 -0.184040158 0.483731448
11521732 -0.182385459 0.483527392
11570432 -0.180870175 0.483361989
11619032 -0.179305747 0.48325929
11667632 -0.177669331 0.483072698
11716332 -0.175916582 0.482829332
11764932 -0.174334108 0.482281804
11813532 -0.172846078 0.482201308
11862132 -0.171247377 0.482010215
11910832 -0.169625729 0.481844127
11959432 -0.16815491 0.481512486
12008032 -0.166523575 0.481300771
12056632 -0.164873018 0.481144368
12105332 -0.163336232 0.480952024
12153932 -0.161960557 0.480594545
12202532 -0.160377696 0.480398774
12251232 -0.158653914 0.480187833
12299832 -0.157175719 0.479829311
12348432 -0.15569508 0.479597866
12397032 -0.15414384 0.47947824
12445732 -0.152653872 0.479178905
12494332 -0.151124939 0.478877931
12542932 -0.149565294 0.478808015
12591632 -0.148154005 0.478474289
12640232 -0.146768733 0.478081375
12688832 -0.145153447 0.47783035
12737432 -0.143818154 0.477517366
12786132 -0.14240913 0.47747004
12834732 -0.140800759 0.477021634
12883332 -0.139360204 0.476883053
12932032 -0.138063311 0.476727664
12980632 -0.136449709 0.476255178
13029232 -0.135111913 0.476148575
13077832 -0.133619084 0.475816667
13126532 -0.132205232 0.475474953
13175132 -0.130784332 0.475274205
13223732 -0.129400774 0.475111931
13272332 -0.128112241 0.474678784
13321032 -0.126596972 0.474465698
13369632 -0.125263586 0.474159032
13418232 -0.123830735 0.473923534
13466932 -0.122667722 0.473683953
13515532 -0.121178351 0.473330765
13564132 -0.11972697 0.473116606
13612732 -0.11828535 0.472752362
13661432 -0.116999715 0.472540527
13710032 -0.115789607 0.47219789
13758632 -0.114355251 0.472131818
13807332 -0.112980931 0.47176066
13855932 -0.111711479 0.471496641
13904532 -0.110257081 0.471209228
13953132 -0.109047278 0.470685124
14001832 -0.107754327 0.470503479
14050432 -0.106441318 0.470327317
14099032 -0.105185486 0.469982147
14147732 -0.103813551 0.469561815
14147747 -0.103861011 0.469653815
14202847 -0.102447226 0.469435662
14257947 -0.10079699 0.468891113
14313047 -0.099474996 0.468724995
14368247 -0.098062396 0.468116521
14423347 -0.096558205 0.467945277
14478447 -0.095197424 0.467735409
14533647 -0.093809433 0.46712619
14588747 -0.092277348 0.466815561
14643847 -0.090951986 0.466629505
14699047 -0.089374169 0.466150164
14754147 -0.088115602 0.465988367
14809247 -0.086705967 0.465534746
14864347 -0.085431233 0.465272605
14919547 -0.083978772 0.464753419
14974647 -0.082616128 0.464595586
15029747 -0.08121778 0.464110523
15084947 -0.080094493 0.463685959
15140047 -0.078634351 0.463523596
15195147 -0.077253289 0.462983727
15250347 -0.07588382 0.462553471
15305447 -0.074629947 0.462337613
15360547 -0.073256 0.461979895
15415647 -0.071992307 0.461655944
15470847 -0.070666067 0.46116355
15525947 -0.069381341 0.460893183
15581047 -0.068178325 0.460555762
15636247 -0.066797584 0.460004806
15691347 -0.065519712 0.459657073
15746447 -0.064371556 0.45927295
15801647 -0.063021793 0.458946883
15856747 -0.061742004 0.458712548
15911847 -0.060368962 0.458303958
15966947 -0.058998912 0.458012551
16022147 -0.057896789 0.457607477
16077247 -0.056779142 0.457191914
16132347 -0.055383268 0.456824421
16187547 -0.054210424 0.45640552
16242647 -0.05317533 0.456014454
16297747 -0.051888879 0.455488115
16352947 -0.050479952 0.455172598
16408047 -0.049323666 0.454914629
16463147 -0.048319846 0.454492121
16518247 -0.047201413 0.454155385
16573447 -0.045966323 0.453828781
16628547 -0.044882249 0.453235119
16683647 -0.043419927 0.45300433
16738847 -0.042334429 0.45257014
16793947 -0.041140217 0.452171772
16849047 -0.040017854 0.451824635
16904247 -0.038933038 0.451358675
16959347 -0.037799008 0.450837939
17014447 -0.036603517 0.450467765
17069547 -0.035460505 0.450246006
17124747 -0.034355379 0.44970864
17179847 -0.033220939 0.44939354
17234947 -0.032072678 0.448997259
17290147 -0.031031381 0.448599159
17345247 -0.029912859 0.448302835
17400347 -0.028684809 0.447742819
17455547 -0.027777828 0.447507768
17510647 -0.026659175 0.44716373
17565747 -0.025413641 0.446673959
17620847 -0.024493319 0.44636622
17676047 -0.023451438 0.445955544
17731147 -0.022331407 0.445581525
17786247 -0.021354354 0.445163011
17841447 -0.020243639 0.444653153
17896547 -0.019068505 0.444195389
17951647 -0.018143743 0.443931758
18006847 -0.017019176 0.443493872
18061947 -0.016009796 0.443121612
18117047 -0.014878114 0.44276306
18172147 -0.013950997 0.442405492
18227347 -0.012977339 0.442200511
18282447 -0.012007748 0.441488564
18337547 -0.010956018 0.441041558
18392747 -0.009873697 0.440745532
18447847 -0.008764529 0.440366297
18502947 -0.007952078 0.439997464
18558147 -0.006738351 0.439495235
18613247 -0.005822992 0.43920052
18668347 -0.004849208 0.438988536
18723447 -0.003904348 0.438442379
18778647 -0.002816246 0.43806988
18833747 -0.00184577 0.437651008
18888847 -0.000995151 0.437289446
18944047 0.000158956 0.436831444
18999147 0.001010704 0.436491996
19054247 0.001932334 0.435974538
19109447 0.003000471 0.43542388
19164547 0.00383515 0.435397446
19219647 0.004988703 0.434866607
19274747 0.005772392 0.434529125
19329947 0.006684464 0.433920294
19385047 0.007782314 0.433575838
19440147 0.008621947 0.433309793
19495347 0.00939141 0.432799875
19550447 0.010457095 0.432374209
19605547 0.01124773 0.4320167
19660747 0.012430743 0.431860148
19660752 0.012117193 0.431797146
19724352 0.013238988 0.431297808
19787952 0.014377034 0.430950671
19851652 0.015582907 0.43042308
19915252 0.01649687 0.430097937
19978952 0.017418835 0.429586052
20042552 0.018514232 0.429018288
20106152 0.019494103 0.428631454
20169852 0.020473739 0.428111463
20233452 0.021552274 0.427757591
20297152 0.02249898 0.42731288
20360752 0.023622412 0.426934093
20424452 0.024532189 0.426311105
20488052 0.025547679 0.425973266
20551652 0.026600716 0.425380855
20615352 0.027471879 0.425162315
20678952 0.028423098 0.424548625
20742652 0.02954727 0.424172043
20806252 0.030399234 0.423646509
20869852 0.03144842 0.423186838
20933552 0.032332878 0.422803521
20997152 0.033341895 0.422385901
21060852 0.034268803 0.421925216
21124452 0.035223178 0.421619117
21188152 0.036209344 0.421003639
21251752 0.037147108 0.420567393
21315352 0.03787307 0.419923603
21379052 0.039126012 0.419744521
21442652 0.039890721 0.419192582
21506352 0.040784213 0.418932706
21569952 0.041780095 0.418326914
21633652 0.042791727 0.417920857
21697252 0.043567512 0.417576611
21760852 0.044417243 0.417007505
21824552 0.045323159 0.416590541
21888152 0.046213608 0.41620326
21951852 0.047109656 0.415569931
22015452 0.048001062 0.415425777
22079052 0.048866767 0.414910972
22142752 0.049823798 0.414260655
22206352 0.050682257 0.414064317
22270052 0.051436565 0.413514614
22333652 0.052481308 0.413121402
22397352 0.053179681 0.412727773
22460952 0.054116446 0.412277489
22524552 0.054956201 0.411917567
22588252 0.055854611 0.411332041
22651852 0.056806735 0.411099791
22715552 0.057636283 0.410773813
22779152 0.058391038 0.41016215
22842852 0.059265483 0.409771561
22906452 0.05996453 0.409352242
22970052 0.060860291 0.40892741
23033752 0.061785861 0.408479541
23097352 0.062464326 0.408106535
23161052 0.063346177 0.407515645
23224652 0.064192585 0.407144874
23288252 0.064973451 0.40697059
23351952 0.065881729 0.406339615
23415552 0.066572278 0.405951082
23479252 0.067277528 0.405442923
23542852 0.068330705 0.405151098
23606552 0.068792797 0.404660284
23670152 0.069733738 0.404329866
23733752 0.070607312 0.40387535
23797452 0.071280539 0.403389096
23861052 0.072254523 0.403002768
23924752 0.07303559 0.402611404
23988352 0.073625832 0.402211606
24051952 0.074425287 0.40176618
24115652 0.075257182 0.401650726
24179252 0.075889997 0.401131302
24242952 0.076726064 0.400624573
24306552 0.077492922 0.40025258
24370252 0.078298501 0.399817287
24433852 0.079027146 0.39945355
24497452 0.079755619 0.399002075
24561152 0.080397509 0.398691684
24624752 0.081166721 0.398222744
24688452 0.082047812 0.397796362
24752052 0.082652769 0.397363245
24815752 0.083522252 0.396918624
24879352 0.084127664 0.396628141
24942952 0.084936901 0.396162748
25006652 0.085595734 0.395802915
25070252 0.086337752 0.395371526
25133952 0.087056681 0.394919306
25197552 0.087718315 0.394521504
25261152 0.08833573 0.394237875
25324852 0.089001141 0.393819242
25388452 0.089873708 0.393330097
25452152 0.090358525 0.392895013
25515752 0.091268174 0.392588347
25579452 0.091908037 0.391985267
25643052 0.092673778 0.391780525
25706652 0.093150652 0.39142397
25770352 0.093939639 0.391000479
25833952 0.094555221 0.390536397
25897652 0.095185555 0.39028126
25961252 0.096099071 0.389750599
26024952 0.096484459 0.38935104
26025048 0.096610069 0.389297604
26100248 0.097186043 0.389071255
26175548 0.098106652 0.388520866
26250848 0.098919384 0.38800159
26326048 0.099681094 0.387685686
26401348 0.10053467 0.387160569
26476648 0.10132426 0.38643819
26551948 0.101931691 0.386164635
26627148 0.102793604 0.385768502
26702448 0.103698521 0.385348111
26777748 0.104232683 0.384757637
26853048 0.104955881 0.384335398
26928248 0.105750814 0.383884727
27003548 0.106428265 0.383429259
27078848 0.10723561 0.382935822
27154048 0.108031541 0.382500767
27229348 0.108736313 0.382318317
27304648 0.109467849 0.381923198
27379948 0.110234543 0.38099721
27455148 0.110759057 0.380855381
27530448 0.111564345 0.380188345
27605748 0.112264968 0.379980206
27681048 0.113052606 0.379366934
27756248 0.113846242 0.37893489
27831548 0.114561662 0.378577679
27906848 0.115241549 0.378114014
27982048 0.11573904 0.377613037
28057348 0.116679586 0.37720409
28132648 0.117154821 0.376907795
28207948 0.117871552 0.37638238
28283148 0.118607521 0.375704139
28358448 0.11909724 0.375310629
28433748 0.120014183 0.374925881
28509048 0.120649173 0.374485343
28584248 0.12138345 0.37416774
28659548 0.122162848 0.373826473
28734848 0.122798055 0.373249888
28810148 0.123424671 0.372767478
28885348 0.12392719 0.372440397
28960648 0.124688625 0.37205708
29035948 0.125426754 0.371638149
29111148 0.12604022 0.371166199
29186448 0.12680681 0.370703428
29261748 0.127289429 0.37013629
29337048 0.128066092 0.369964569
29412248 0.128516376 0.369431793
29487548 0.129257664 0.369004696
29562848 0.12993516 0.368705213
29638148 0.130612447 0.368337124
29713348 0.131345734 0.367911726
29788648 0.131819218 0.367569595
29863948 0.132499277 0.36716035
29939148 0.133049011 0.366573691
30014448 0.133856743 0.366205245
30089748 0.134366482 0.365849971
30165048 0.134888947 0.365300565
30240248 0.135724112 0.364920467
30315548 0.136300429 0.364650219
30390848 0.136607468 0.36417216
30466148 0.137500464 0.363742619
30541348 0.138127848 0.36335799
30616648 0.138634353 0.362985461
30691948 0.139305442 0.362539917
30767148 0.139823466 0.362160235
30842448 0.140546783 0.361567258
30917748 0.141090482 0.361439943
30993048 0.141632378 0.360805392
31068248 0.142283573 0.360493391
31143548 0.142936661 0.360156714
31218848 0.143290743 0.359709799
31294148 0.144067078 0.359184354
31369348 0.144527658 0.358739227
31444648 0.145110026 0.358569264
31519948 0.145701363 0.35811764
31595248 0.146274045 0.357703953
31670448 0.146745935 0.357360363
31745748 0.147333785 0.35690391
31821048 0.147874578 0.356511384
31896248 0.148600697 0.356177836
31971548 0.149066954 0.355874836
32046848 0.149853751 0.35531494
32122148 0.150311052 0.354918092
32197348 0.150720924 0.354430913
32272648 0.15138714 0.354129284
32347948 0.151837259 0.353716999
32423248 0.152459532 0.353242278
32498448 0.152990028 0.353075295
32573748 0.153486877 0.352651506
32649048 0.154053762 0.352242618
32724248 0.154731646 0.351766794
32799548 0.155263647 0.351495832
32874848 0.155743256 0.351116329
32950148 0.15631397 0.350805282
33025348 0.156685441 0.350561857
33100648 0.157272771 0.349866896
33175948 0.158018782 0.349530428
33251248 0.158495977 0.349224865
33326448 0.158872336 0.348773747
33401748 0.159402668 0.348520129
