# HZ S RI R 50
50000 -0.998322129 -0.009336266
347200 -0.998310208 0.015443458
644500 -0.997097492 0.032844867
941800 -0.994695663 0.04996607
1239100 -0.992139279 0.065605826
1536300 -0.989314436 0.08064711
1833600 -0.985578775 0.095535255
2130900 -0.981767952 0.109711527
2428200 -0.9772017 0.124119713
2725400 -0.97247523 0.137597769
3022700 -0.967676818 0.150512799
3320000 -0.96258682 0.163565531
3617300 -0.957005858 0.176094442
3914500 -0.951274394 0.188427582
4211800 -0.945460855 0.200203061
4509100 -0.939484238 0.211855679
4806400 -0.93325144 0.22291617
5103600 -0.927068054 0.233780041
5400900 -0.920731306 0.244661197
5698200 -0.914316713 0.254738152
5995500 -0.907991409 0.264467298
6292700 -0.902588248 0.27228406
6590000 -0.899135112 0.279251039
6887300 -0.888144612 0.293297737
7184600 -0.881459176 0.303377598
7481800 -0.875277757 0.311323732
7779100 -0.868211448 0.319457024
8076400 -0.861286342 0.327851593
8373700 -0.854399859 0.336266964
8670900 -0.847533702 0.34407556
8968200 -0.840843915 0.351671576
9265500 -0.834366977 0.359391808
9562800 -0.827631592 0.366579771
9860000 -0.820856869 0.373578906
10157300 -0.813937306 0.380718767
10454600 -0.807520925 0.387642621
10751900 -0.800719082 0.394495457
11049100 -0.794041931 0.400874197
11346400 -0.787308752 0.407381206
11643700 -0.780627369 0.413674861
11941000 -0.773733556 0.419735193
12238200 -0.767192542 0.425519526
12535500 -0.760722935 0.431486517
12832800 -0.754093229 0.437143862
13130100 -0.747396588 0.442701935
13427300 -0.741004168 0.448145955
13724600 -0.73457396 0.453576266
14021900 -0.72801429 0.458801239
14319200 -0.72153449 0.464001893
14616400 -0.71530503 0.468878805
14913700 -0.708577036 0.473757117
15211000 -0.702529191 0.47860676
15508300 -0.696094036 0.483153671
15805500 -0.689767599 0.487820744
16102800 -0.683555662 0.492415159
16400100 -0.67713654 0.496705532
16697400 -0.670907974 0.501203536
16994600 -0.664760828 0.505296647
17291900 -0.658388137 0.509542167
17589200 -0.652313172 0.513821065
17886500 -0.64605087 0.517760634
18183700 -0.640174567 0.521713793
18481000 -0.634129285 0.525459289
18778300 -0.628179967 0.529072999
19075600 -0.622143387 0.532738208
19372800 -0.616193115 0.536330997
19670100 -0.610152661 0.53963685
19967400 -0.604257404 0.543266296
20264700 -0.598392784 0.546511292
20561900 -0.592307388 0.55014187
20859200 -0.586731255 0.553206861
21156500 -0.580727875 0.556353211
21453800 -0.575042068 0.559284567
21751000 -0.569172024 0.562366187
22048300 -0.563602447 0.565352737
22345600 -0.557778477 0.568222463
22642900 -0.552214622 0.571006059
22940100 -0.546803593 0.573658466
23237400 -0.541331589 0.576560616
23534700 -0.535870432 0.579272449
23832000 -0.530172288 0.58165282
24129200 -0.524626612 0.584683001
24426500 -0.519020915 0.587046027
24723800 -0.513666152 0.58958882
25021100 -0.508282363 0.591945707
25318300 -0.50267744 0.594631373
25615600 -0.497524261 0.596914231
25912900 -0.492189109 0.599217832
26210200 -0.486814886 0.601291
26507400 -0.481450647 0.603358387
26804700 -0.476301491 0.605390012
27102000 -0.471081584 0.607490181
27399300 -0.465817004 0.609811842
27696500 -0.46065247 0.61194086
27993800 -0.455535382 0.61367166
28291100 -0.450373381 0.615792155
28588400 -0.445315092 0.617471516
28885600 -0.440307676 0.619320034
29182900 -0.435303688 0.621002495
29480200 -0.430071949 0.622757911
29777500 -0.425239324 0.624394893
30074776 -0.420655548 0.62589997
30371976 -0.415620028 0.627515435
30669276 -0.410638749 0.629198968
30966576 -0.406016111 0.630963683
31263876 -0.400828212 0.632399976
31561076 -0.39635092 0.633882343
31858376 -0.391491234 0.635588288
32155676 -0.386723667 0.636860191
32452976 -0.381928116 0.638136148
32750176 -0.377066254 0.639371514
33047476 -0.372696161 0.64093244
33344776 -0.368209034 0.642267525
33642076 -0.363527357 0.64342761
33939276 -0.35896641 0.644733846
34236576 -0.354159504 0.646115183
34533876 -0.349587857 0.64729619
34831176 -0.345120847 0.648137331
35128376 -0.340563982 0.649220824
35425676 -0.335995286 0.650532305
35722976 -0.331622987 0.651477217
36020276 -0.327159076 0.652624249
36317476 -0.322752863 0.653432905
36614776 -0.318424254 0.654738903
36912076 -0.313808828 0.655326962
37209376 -0.310064256 0.65634495
37506576 -0.305500298 0.657516419
37803876 -0.300974398 0.65826869
38101176 -0.296824127 0.659270823
38398476 -0.292538225 0.659835398
38695676 -0.288247913 0.660916209
38992976 -0.284126758 0.661266148
39290276 -0.280234903 0.662386178
39587576 -0.276326477 0.662908434
39884776 -0.271701604 0.663865447
40182076 -0.267599701 0.663903534
40479376 -0.263697206 0.665119707
40776676 -0.25964573 0.665773808
41073876 -0.256000667 0.666474223
41371176 -0.251563876 0.666803061
41668476 -0.247515082 0.667630374
41965776 -0.244019359 0.667893528
42262976 -0.2398175 0.668205559
42560276 -0.235979408 0.669139564
42857576 -0.232260182 0.669721961
43154876 -0.228101059 0.670397758
43452076 -0.224524438 0.670441389
43749376 -0.220393687 0.671382904
44046676 -0.21637699 0.671470582
44343976 -0.21296589 0.67185074
44641176 -0.20903778 0.672513186
44938476 -0.205364823 0.672887802
45235776 -0.201875284 0.672720134
45533076 -0.197914585 0.673383593
45830276 -0.19422917 0.673689007
46127576 -0.190721109 0.674113452
46424876 -0.186969324 0.674502551
46722176 -0.183722704 0.675146996
47019376 -0.179578989 0.675037443
47316676 -0.176299914 0.675592422
47613976 -0.172576218 0.675817608
47911276 -0.169280529 0.676019549
48208476 -0.165732592 0.675828218
48505776 -0.162427797 0.676481962
48803076 -0.158569633 0.676469802
49100376 -0.155172973 0.676589727
49397576 -0.151731267 0.676801085
49694876 -0.148286417 0.676959097
49992176 -0.14458473 0.677360177
50289476 -0.141707897 0.677259325
50586676 -0.138077527 0.677331089
50883976 -0.134639352 0.677501201
51181276 -0.131500914 0.677611947
51478576 -0.128374829 0.677692115
51775776 -0.124957568 0.677694559
52073076 -0.121806114 0.677727222
52370376 -0.11841049 0.677651822
52667676 -0.115156129 0.677815854
52964876 -0.111844137 0.677787899
53262176 -0.1086739 0.6777094
53559476 -0.105548813 0.677963554
53856776 -0.102554544 0.67761445
54153976 -0.099659778 0.677409827
54451276 -0.096358224 0.677533626
54748576 -0.093402311 0.677657186
55045876 -0.090008944 0.677533864
55343076 -0.087079152 0.6776461
55640376 -0.08396057 0.67759937
55937676 -0.080704092 0.677487552
56234976 -0.078013315 0.677622795
56532176 -0.07487069 0.677123188
56829476 -0.071767151 0.677366316
57126776 -0.068878754 0.677206575
57424076 -0.065861172 0.676892697
57721276 -0.062975399 0.677344739
58018576 -0.060020938 0.677075803
58315876 -0.057294845 0.676829278
58613176 -0.054039929 0.67614144
58910376 -0.051456574 0.676453828
59207676 -0.048315398 0.676410555
59504976 -0.045768309 0.676120817
59802276 -0.042247999 0.67522931
60099552 -0.040471095 0.67562884
60396752 -0.037438888 0.675319552
60694052 -0.035013988 0.675587236
60991352 -0.031852137 0.674999356
61288552 -0.028915477 0.674738943
61585852 -0.025972178 0.674608767
61883152 -0.023002589 0.673844635
62180452 -0.02035067 0.674375474
62477652 -0.018300553 0.674189031
62774952 -0.014775641 0.673735558
63072252 -0.012253087 0.673143982
63369552 -0.009492763 0.673127532
63666752 -0.007216098 0.673219323
63964052 -0.004232005 0.672181904
64261352 -0.002540358 0.672371089
64558652 0.000418034 0.672214686
64855852 0.003105707 0.672016382
65153152 0.00593955 0.671802461
65450452 0.008299061 0.671307444
65747752 0.011114945 0.67094773
66044952 0.013387359 0.67074275
66342252 0.015844065 0.6701442
66639552 0.018649047 0.669935584
66936852 0.02089457 0.669683635
67234052 0.024121388 0.66917628
67531352 0.026975274 0.669007837
67828652 0.027708463 0.669237971
68125852 0.031633093 0.668111562
68423152 0.033520992 0.667622804
68720452 0.035835359 0.667530059
69017752 0.039151113 0.666790306
69314952 0.040834475 0.667180955
69612252 0.043168228 0.666063845
69909552 0.046626374 0.666090965
70206852 0.047681778 0.666018545
70504052 0.050873044 0.66536355
70801352 0.053587269 0.665403664
71098652 0.054634571 0.665136098
71395952 0.057314846 0.66381973
71693152 0.060600869 0.664240777
71990452 0.061749514 0.663937389
72287752 0.06427367 0.662806928
72585052 0.066647961 0.663261651
72882252 0.069421268 0.662499845
73179552 0.071190163 0.661912024
73476852 0.073552295 0.662209272
73774152 0.076254427 0.662401974
74071352 0.07843367 0.661089599
74368652 0.081123217 0.659625828
74665952 0.081856794 0.659746527
74963252 0.084338359 0.660660743
75260452 0.086163677 0.659190952
75557752 0.089930571 0.658679723
75855052 0.090928927 0.658870637
76152252 0.093247048 0.658243834
76449552 0.094683557 0.657975018
76746852 0.097887828 0.657585024
77044152 0.099193431 0.657845973
77341352 0.102608121 0.655638635
77638652 0.104895465 0.6566931
77935952 0.106431171 0.656657278
78233252 0.108331084 0.654804885
78530452 0.109938934 0.653512299
78827752 0.112118892 0.65543431
79125052 0.114102832 0.654627263
79422352 0.115507796 0.653888106
79719552 0.118395693 0.653721332
80016852 0.12008126 0.652690887
80314152 0.122711233 0.651320993
80611452 0.123488441 0.65224117
80908652 0.125915765 0.65217632
81205952 0.128838643 0.651522636
81503252 0.129909366 0.651292562
81800552 0.132967263 0.650147914
82097752 0.13465102 0.649891495
82395052 0.135699614 0.649096906
82692352 0.138496458 0.649169206
82989552 0.140079587 0.64873749
83286852 0.142193675 0.647242307
83584152 0.143581748 0.648096442
83881452 0.145855292 0.646193444
84178652 0.147983983 0.646000146
84475952 0.148587077 0.646580874
84773252 0.151927828 0.644978344
85070552 0.1534857 0.644459784
85367752 0.153702557 0.64439243
85665052 0.156122773 0.643911302
85962352 0.158190459 0.644177913
86259652 0.160542473 0.643541395
86556852 0.16207987 0.642534315
86854152 0.164381161 0.641679763
87151452 0.166180655 0.641121149
87448752 0.167219713 0.642323195
87745952 0.168440207 0.640714108
88043252 0.171287164 0.639049828
88340552 0.17293547 0.638432204
88637852 0.174895137 0.639036834
88935052 0.176807656 0.638255596
89232352 0.178480193 0.637685
89529652 0.179430097 0.637963056
89826952 0.181783482 0.636225283
90124328 0.182930678 0.637162387
90421528 0.184227094 0.635741412
90718828 0.186335191 0.635625243
91016128 0.187545329 0.634628057
91313328 0.190038651 0.635243773
91610628 0.19179365 0.633460998
91907928 0.193452224 0.632448375
92205228 0.19539237 0.633110344
92502428 0.196224048 0.632056355
92799728 0.198772162 0.631144285
93097028 0.200423702 0.630780756
93394328 0.200601056 0.630354285
93691528 0.203700527 0.62982589
93988828 0.203789591 0.629828155
94286128 0.20545952 0.628968179
94583428 0.207085043 0.628460347
94880628 0.209213584 0.628767311
95177928 0.211546227 0.62669152
95475228 0.212624058 0.627656042
95772528 0.213598266 0.626345217
96069728 0.216547861 0.626063287
96367028 0.217939957 0.62591952
96664328 0.219329997 0.625436127
96961628 0.220342174 0.623885929
97258828 0.22159323 0.62381649
97556128 0.223953872 0.623588442
97853428 0.224910035 0.621978521
98150628 0.227481514 0.621890544
98447928 0.227752581 0.621241927
98745228 0.230329349 0.620939135
99042528 0.231108367 0.620783746
99339728 0.233130723 0.618958532
99637028 0.234769612 0.619796633
99934328 0.236050531 0.618828356
100231628 0.237903609 0.617722749
100528828 0.240242972 0.617079496
100826128 0.242517292 0.616172313
101123428 0.244690343 0.615345895
101420728 0.246620237 0.61361885
101717928 0.24883227 0.612966537
102015228 0.251120418 0.612043142
102312528 0.253512382 0.610725522
102609828 0.255441844 0.609823524
102907028 0.257791072 0.608950018
103204328 0.259788691 0.607742786
103501628 0.261809349 0.606941759
103798928 0.263996064 0.605981826
104096128 0.266438543 0.604409098
104393428 0.268343478 0.603704094
104690728 0.270608484 0.602822184
104988028 0.273113161 0.60125935
105285228 0.274925619 0.600339293
105582528 0.276948153 0.599468529
105879828 0.279181063 0.597650945
106177028 0.281344175 0.596917331
106474328 0.283444911 0.595451712
106771628 0.285477846 0.594570875
107068928 0.287223339 0.593194365
107366128 0.289527326 0.591679871
107663428 0.291349112 0.59053421
107960728 0.29343754 0.589322209
108258028 0.295187771 0.587809264
108555228 0.297344684 0.586427092
108852528 0.299279987 0.585110962
109149828 0.301018744 0.584031879
109447128 0.302666246 0.582385718
109744328 0.304702639 0.580473423
110041628 0.30586487 0.579443514
110338928 0.307319015 0.577463448
110636228 0.308827877 0.575838387
110933428 0.310076445 0.574490904
111230728 0.310489326 0.573655903
111528028 0.311674714 0.572475016
111825328 0.312487512 0.571903407
112122528 0.313415288 0.571443498
112419828 0.315238445 0.570931971
112717128 0.316333651 0.571001946
113014328 0.317719042 0.570742189
113311628 0.319726079 0.570396721
113608928 0.321799933 0.569786667
113906228 0.323743343 0.569167792
114203428 0.326181024 0.568933546
114500728 0.328236252 0.567914187
114798028 0.330087959 0.56718105
115095328 0.332095354 0.566260397
115392528 0.334761351 0.565455794
115689828 0.336317867 0.564696431
115987128 0.338706284 0.56320846
116284428 0.34087491 0.562459886
116581628 0.342582613 0.561471343
116878928 0.344719856 0.559971034
117176228 0.346821427 0.559039354
117473528 0.348540872 0.558203697
117770728 0.350234448 0.556623458
118068028 0.35247904 0.555735826
118365328 0.354012548 0.554780542
118662628 0.356149375 0.5536049
118959828 0.357559829 0.552407681
119257128 0.359295755 0.551098942
119554428 0.36152625 0.549768984
119851728 0.363298565 0.548466742
120149104 0.365282863 0.547285735
120446304 0.366722464 0.5459944
120743604 0.36847639 0.54475665
121040904 0.370181858 0.544248819
121338204 0.371875286 0.542529225
121635404 0.373704016 0.54172486
121932704 0.375091046 0.540769338
122230004 0.377200931 0.539389133
122527304 0.378701359 0.538254976
122824504 0.380171597 0.536696374
123121804 0.38219875 0.536062538
123419104 0.384012937 0.534450709
123716404 0.385788649 0.533555805
124013604 0.387340545 0.531932353
124310904 0.388539075 0.530702829
124608204 0.390695959 0.529464483
124905504 0.391939908 0.52847588
125202704 0.393820971 0.527061104
125500004 0.395533621 0.526037156
125797304 0.397010058 0.524816095
126094604 0.398492813 0.523953199
126391804 0.400461673 0.522559404
126689104 0.401815772 0.521097481
126986404 0.403661489 0.519726037
127283704 0.405389904 0.518567323
127580904 0.406909108 0.517779171
127878204 0.408656954 0.516153514
128175504 0.409851282 0.515178322
128472804 0.411724597 0.513637542
128770004 0.412964671 0.512383043
129067304 0.414604544 0.511273622
129364604 0.416384071 0.510013759
129661904 0.417534083 0.508414924
129959104 0.419174134 0.507523715
130256404 0.420930981 0.506435573
130553704 0.42236337 0.504793286
130851004 0.423871219 0.503724336
131148204 0.425308853 0.502096176
131445504 0.426857113 0.501324772
131742804 0.428495913 0.499780982
132040104 0.430008769 0.498365104
132337304 0.431148916 0.497116774
132634604 0.432729572 0.496075302
132931904 0.434536129 0.494692027
133229204 0.435642242 0.493520855
133526404 0.437627971 0.491996943
133823704 0.438644707 0.490879565
134121004 0.440203994 0.489416599
134418304 0.441393405 0.488188564
134715504 0.442906618 0.486842423
135012804 0.444222778 0.485559672
135310104 0.445986241 0.484373867
135607404 0.447229892 0.482766598
135904604 0.448729127 0.481686919
136201904 0.450019657 0.480365633
136499204 0.451571732 0.478583246
136796504 0.452957212 0.477765798
137093704 0.454231977 0.476299285
137391004 0.455455988 0.475105196
137688304 0.456957906 0.473785132
137985604 0.458297222 0.472323715
138282804 0.459682404 0.470863878
138580104 0.461231261 0.469908148
138877404 0.462387889 0.468427628
139174704 0.463844031 0.466949373
139471904 0.465193092 0.4657844
139769204 0.46647045 0.464365661
140066504 0.46769008 0.462706089
140363804 0.469122946 0.461869865
140661004 0.470568299 0.460286945
140958304 0.471853584 0.459110468
141255604 0.473121911 0.457579612
141552904 0.474451065 0.456228733
141850104 0.475641727 0.454990565
142147404 0.476893514 0.453403085
142444704 0.478200972 0.452398657
142742004 0.479608386 0.450757056
143039204 0.480589717 0.449684023
143336504 0.48185873 0.448397666
143633804 0.483255267 0.447061091
143931104 0.48442167 0.445515185
144228304 0.485677957 0.444190114
144525604 0.486890643 0.442662417
144822904 0.488268136 0.441354304
145120204 0.489446401 0.440243452
145417404 0.490667223 0.438753098
145714704 0.492102295 0.437466353
146012004 0.493320018 0.435996353
146309304 0.494314163 0.434629708
146606504 0.495554327 0.433238267
146903804 0.496764957 0.431990563
147201104 0.497753649 0.430553317
147498404 0.499124735 0.429232329
147795604 0.500444352 0.428096115
148092904 0.501272439 0.426596045
148390204 0.502490937 0.425277203
148687504 0.503867685 0.423811018
148984704 0.50508064 0.422434121
149282004 0.506266236 0.420913457
149579304 0.507402837 0.419844061
149876604 0.508410274 0.417950212
150173872 0.509480476 0.416998803
150471072 0.51078397 0.415627002
150768372 0.51168394 0.414111942
151065672 0.512923777 0.412758588
151362972 0.514116168 0.411380589
151660172 0.515305221 0.409779638
151957472 0.516319811 0.40838769
152254772 0.517438471 0.407296419
152552072 0.51853317 0.405664116
152849272 0.519489288 0.404261976
153146572 0.520700931 0.402926743
153443872 0.52157247 0.401505649
153741172 0.522893905 0.399999111
154038372 0.523920536 0.39886403
154335672 0.524915635 0.397580236
154632972 0.526261568 0.396103084
154930272 0.527112901 0.394750446
155227472 0.5282467 0.393191486
155524772 0.529211163 0.391932398
155822072 0.530205667 0.390332609
156119372 0.531311929 0.389177262
156416572 0.532177865 0.387748807
156713872 0.533273875 0.386307865
157011172 0.5344069 0.384753525
157308472 0.535455822 0.383256971
157605672 0.536419451 0.38179481
157902972 0.53740853 0.380570977
158200272 0.53827238 0.379148751
158497572 0.539433896 0.377577811
158794772 0.540473818 0.376444786
159092072 0.54143691 0.374996066
159389372 0.542347848 0.37347266
159686672 0.543384552 0.372075945
159983872 0.544520318 0.370663672
160281172 0.545409619 0.369385123
160578472 0.546188533 0.367835998
160875772 0.547154784 0.366490662
161172972 0.548134207 0.365103095
161470272 0.549090325 0.363646596
161767572 0.550258517 0.362276017
162064872 0.550952672 0.360835254
162362072 0.552039921 0.359459489
162659372 0.552744209 0.357944488
162956672 0.553769886 0.356769144
163253972 0.554751217 0.355112731
163551172 0.555687665 0.353683084
163848472 0.556542813 0.352522164
164145772 0.557598173 0.35096684
164443072 0.558442413 0.349366188
164740272 0.559456765 0.347999513
165037572 0.560308992 0.346757978
165334872 0.561199843 0.345153659
165632172 0.562198817 0.343943953
165929372 0.563050687 0.342342436
166226672 0.563711345 0.340736001
166523972 0.564703226 0.339612841
166821272 0.565455198 0.337983757
167118472 0.566424548 0.336588799
167415772 0.567087709 0.335249334
167713072 0.56805396 0.333839833
168010372 0.568859815 0.3325136
168307572 0.569779753 0.331031084
168604872 0.570528805 0.329573154
168902172 0.571483135 0.328088223
169199472 0.572103381 0.326946675
169496672 0.57314825 0.325193583
169793972 0.573836088 0.323735654
170091272 0.574699819 0.322265595
170388572 0.575520455 0.320856183
170685772 0.576214611 0.319431781
170983072 0.57704699 0.318293035
171280372 0.577932476 0.316435664
171577672 0.578651547 0.315243482
171874872 0.579554855 0.313924878
172172172 0.580340087 0.312262058
172469472 0.580967068 0.310710191
172766772 0.581816673 0.309369891
173063972 0.582507193 0.308114796
173361272 0.583322227 0.306572437
173658572 0.583985328 0.305202543
173955872 0.584943473 0.303587079
174253072 0.585659503 0.302097767
174550372 0.586336255 0.300585895
174847672 0.587101757 0.299293577
175144972 0.587872326 0.297838479
175442172 0.588632166 0.296493381
175739472 0.589302062 0.29501298
176036772 0.590214729 0.293349027
176334072 0.590618431 0.292157053
176631272 0.59137082 0.290700197
176928572 0.592220723 0.289224237
