# HZ S RI R 50
100000 -0.999242603 0.002998234
397200 -0.997703731 0.040546942
694400 -0.994626402 0.075618669
991600 -0.989430308 0.111368969
1288900 -0.982151091 0.146842241
1586100 -0.970517158 0.183266878
1883300 -0.953706979 0.218526929
2180500 -0.932256996 0.250610619
2477800 -0.906813859 0.278095901
2775000 -0.880382359 0.300486177
3072200 -0.853577852 0.318402498
3369400 -0.827951014 0.332450777
3666700 -0.803596556 0.343410044
3963900 -0.780718624 0.352142184
4261100 -0.7591753 0.358665615
4558300 -0.739533603 0.363972902
4855600 -0.721185266 0.36846435
5152800 -0.70409131 0.372163385
5450000 -0.687856256 0.374972522
5747200 -0.672924041 0.37748292
6044500 -0.658937573 0.379541873
6341700 -0.647047221 0.380342453
6638900 -0.635849833 0.382319599
6936100 -0.619343936 0.387167572
7233400 -0.607717871 0.388893008
7530600 -0.597040653 0.389708161
7827800 -0.586033642 0.39091134
8125000 -0.575430929 0.39190486
8422300 -0.565261483 0.39318031
8719500 -0.555674493 0.394300073
9016700 -0.546207487 0.395397603
9313900 -0.537227392 0.396450877
9611200 -0.528470873 0.397327601
9908400 -0.519749104 0.397864967
10205600 -0.511682987 0.398858904
10502800 -0.503855705 0.399170368
10800100 -0.496321171 0.399570345
11097300 -0.488643914 0.399954885
11394500 -0.481487363 0.400386363
11691700 -0.474775493 0.400849282
11989000 -0.467864573 0.401195913
12286200 -0.461146324 0.401444077
12583400 -0.45495215 0.401575326
12880600 -0.448815345 0.401782304
13177900 -0.44271022 0.402043968
13475100 -0.436570495 0.402069926
13772300 -0.430949926 0.402294546
14069500 -0.425297111 0.402465403
14366800 -0.419951587 0.402522325
14664000 -0.414639979 0.402683526
14961200 -0.409398674 0.402788102
15258400 -0.404181301 0.402650147
15555700 -0.399291187 0.402884036
15852900 -0.394511073 0.402951836
16150100 -0.389661788 0.402967393
16447300 -0.385192573 0.403054505
16744600 -0.380673944 0.403366893
17041800 -0.375933051 0.403305649
17339000 -0.371533393 0.403398096
17636200 -0.367309719 0.403383553
17933500 -0.36309278 0.40334326
18230700 -0.358861088 0.403452724
18527900 -0.354745179 0.403571069
18825100 -0.35084334 0.403585374
19122400 -0.347048342 0.403459668
19419600 -0.343193829 0.403600037
19716800 -0.33955872 0.403313159
20014000 -0.335719794 0.403546273
20311300 -0.332208484 0.403401553
20608500 -0.328614085 0.403566002
20905700 -0.325209587 0.403566837
21202900 -0.32179287 0.403424978
21500200 -0.318553864 0.403457492
21797400 -0.315149635 0.403338283
22094600 -0.311858654 0.403425246
22391800 -0.308763623 0.403416335
22689100 -0.305593639 0.403250783
22986300 -0.302574962 0.403300374
23283500 -0.299585103 0.403425842
23580700 -0.296514511 0.403439283
23878000 -0.293519616 0.403329789
24175200 -0.290779381 0.40337181
24472400 -0.287986546 0.403337448
24769600 -0.285092532 0.403300553
25066900 -0.282458662 0.403369605
25364100 -0.279657304 0.403349816
25661300 -0.277070283 0.403233349
25958500 -0.2745727 0.403357475
26255800 -0.271814286 0.403298974
26553000 -0.269381731 0.403257101
26850200 -0.267121255 0.403350323
27147400 -0.264651387 0.403241932
27444700 -0.262010365 0.403177022
27741900 -0.259886056 0.403247594
28039100 -0.257427543 0.403176486
28336300 -0.255260914 0.403200984
28633600 -0.25307548 0.40324074
28930800 -0.250837981 0.40316677
29228000 -0.248595997 0.40316838
29525200 -0.246383428 0.403195232
29822500 -0.244492948 0.403102755
30119724 -0.242536589 0.403386324
30416924 -0.240082979 0.403280496
30714124 -0.238265007 0.403359323
31011324 -0.236301749 0.403393924
31308624 -0.234212115 0.403373807
31605824 -0.232495307 0.403280824
31903024 -0.230472773 0.403339803
32200224 -0.228585034 0.40310344
32497524 -0.226780667 0.40334028
32794724 -0.224783137 0.403283268
33091924 -0.223063319 0.403310179
33389124 -0.221352979 0.403415083
33686424 -0.21957755 0.403348714
33983624 -0.217775106 0.403721928
34280824 -0.216047942 0.403378427
34578024 -0.214645504 0.403479754
34875324 -0.212939053 0.40385431
35172524 -0.211261808 0.403767377
35469724 -0.210058689 0.403902858
35766924 -0.208266347 0.403843045
36064224 -0.206616699 0.403743326
36361424 -0.205121904 0.403971463
36658624 -0.203674897 0.403979599
36955824 -0.202310726 0.403994739
37253124 -0.200684309 0.404072046
37550324 -0.199154824 0.404047787
37847524 -0.197646081 0.40429452
38144724 -0.196360409 0.40421766
38442024 -0.194951996 0.404350459
38739224 -0.193414062 0.40435484
39036424 -0.192207664 0.404557943
39333624 -0.190696567 0.404246985
39630924 -0.189564168 0.40483722
39928124 -0.187812477 0.404644668
40225324 -0.186804234 0.404972404
40522524 -0.185616612 0.404980838
40819824 -0.184344068 0.405148357
41117024 -0.183322191 0.405112951
41414224 -0.181834876 0.405182421
41711424 -0.181087732 0.405565202
42008724 -0.179688677 0.405750542
42305924 -0.178558707 0.405730009
42603124 -0.177544802 0.405818551
42900324 -0.176261842 0.405777871
43197624 -0.175478875 0.406042039
43494824 -0.174445837 0.406197339
43792024 -0.173023879 0.406088352
44089224 -0.172236904 0.406151294
44386524 -0.170820578 0.406463027
44683724 -0.170027926 0.406438738
44980924 -0.169593527 0.406696796
45278124 -0.168336659 0.406994253
45575424 -0.167481362 0.407115429
45872624 -0.166360676 0.407019168
46169824 -0.165193498 0.407187283
46467024 -0.164332062 0.407423824
46764324 -0.163390681 0.407402575
47061524 -0.162573248 0.407602041
47358724 -0.161716073 0.407687604
47655924 -0.160670235 0.407603085
47953224 -0.159713923 0.407893329
48250424 -0.158989608 0.407796502
48547624 -0.158119544 0.40797463
48844824 -0.157299563 0.40798968
49142124 -0.156144306 0.408310323
49439324 -0.155647993 0.408504575
49736524 -0.154835075 0.408406227
50033724 -0.154114499 0.408652126
50331024 -0.153403073 0.408670276
50628224 -0.152373075 0.408847928
50925424 -0.151762977 0.409247279
51222624 -0.151044189 0.409327685
51519924 -0.150323718 0.409401774
51817124 -0.149670287 0.40968874
52114324 -0.149002611 0.409759432
52411524 -0.148208692 0.410114139
52708824 -0.147646069 0.410192161
53006024 -0.147043496 0.410264551
53303224 -0.146139174 0.410564541
53600424 -0.145843312 0.410694092
53897724 -0.145166218 0.410698503
54194924 -0.144528865 0.411115318
54492124 -0.143964514 0.411274582
54789324 -0.143167644 0.411171495
55086624 -0.142616733 0.41158241
55383824 -0.142109856 0.411699533
55681024 -0.14153698 0.411957621
55978224 -0.141055718 0.412114083
56275524 -0.140506789 0.412443548
56572724 -0.139419823 0.412392705
56869924 -0.139298304 0.412670344
57167124 -0.139053434 0.412951439
57464424 -0.138047873 0.412887126
57761624 -0.138030439 0.41322565
58058824 -0.137455895 0.413558155
58356024 -0.136767774 0.413536041
58653324 -0.136174768 0.413783937
58950524 -0.136280432 0.414181917
59247724 -0.135592132 0.414241522
59544924 -0.135102778 0.414509415
59842224 -0.134546577 0.414872676
60139448 -0.134185522 0.414920747
60436648 -0.133638218 0.415198743
60733848 -0.133462518 0.415338814
61031048 -0.132973641 0.415376305
61328348 -0.132347866 0.415670365
61625548 -0.132300794 0.416153609
61922748 -0.131879374 0.416159152
62219948 -0.131288498 0.41636008
62517248 -0.131036102 0.416622042
62814448 -0.130772411 0.416858911
63111648 -0.130616068 0.417104393
63408848 -0.130285322 0.417221397
63706148 -0.129959672 0.417453259
64003348 -0.129450991 0.41773191
64300548 -0.129375964 0.418456077
64597748 -0.128710478 0.418220758
64895048 -0.128873914 0.418382734
65192248 -0.12815991 0.41861239
65489448 -0.127627372 0.418546974
65786648 -0.127541333 0.419063001
66083948 -0.127066701 0.418859779
66381148 -0.127190947 0.419132202
66678348 -0.126799508 0.4194085
66975548 -0.12649171 0.419833838
67272848 -0.126114875 0.420150279
67570048 -0.125992342 0.420056164
67867248 -0.126025661 0.420732557
68164448 -0.125752478 0.420865148
68461748 -0.125454232 0.42101404
68758948 -0.124986901 0.421553641
69056148 -0.124668642 0.421706616
69353348 -0.124469071 0.42191264
69650648 -0.124301649 0.422343283
69947848 -0.124851562 0.422296941
70245048 -0.123931296 0.422440707
70542248 -0.124260902 0.422989219
70839548 -0.123383298 0.42316997
71136748 -0.12341874 0.42413178
71433948 -0.123461775 0.423554062
71731148 -0.123218618 0.424262702
72028448 -0.123245269 0.424566209
72325648 -0.123610273 0.425127774
72622848 -0.122750401 0.424968361
72920048 -0.122892774 0.425385683
73217348 -0.123044133 0.425566196
73514548 -0.122848764 0.42575705
73811748 -0.123081155 0.425849884
74108948 -0.122255094 0.426660478
74406248 -0.122198276 0.426759272
74703448 -0.121970802 0.426940858
75000648 -0.121692255 0.427781462
75297848 -0.121539548 0.42769429
75595148 -0.121502578 0.428101658
75892348 -0.123006448 0.429377973
76189548 -0.121633775 0.428844988
76486748 -0.121676586 0.429287344
76784048 -0.121609233 0.429105967
77081248 -0.121946588 0.429561495
77378448 -0.12163446 0.42941606
77675648 -0.122283428 0.430420756
77972948 -0.122110716 0.430309504
78270148 -0.122314728 0.430759549
78567348 -0.122331544 0.430954247
78864548 -0.121530175 0.431307673
79161848 -0.121545828 0.431862503
79459048 -0.121225461 0.432355254
79756248 -0.121883004 0.432434678
80053448 -0.122013159 0.432611405
80350748 -0.122628942 0.433593243
80647948 -0.122395053 0.433587133
80945148 -0.121278308 0.433489978
81242348 -0.121616646 0.434243768
81539648 -0.121703885 0.434098243
81836848 -0.121928572 0.434272915
82134048 -0.122446492 0.434859305
82431248 -0.122908249 0.435208767
82728548 -0.122719369 0.435400724
83025748 -0.122642025 0.435368508
83322948 -0.122622072 0.435974031
83620148 -0.122911319 0.436736166
83917448 -0.123030193 0.437214672
84214648 -0.122888281 0.436891406
84511848 -0.122773379 0.437511622
84809048 -0.122494526 0.437408924
85106348 -0.123669594 0.437987983
85403548 -0.122872099 0.438241273
85700748 -0.122899323 0.438604235
85997948 -0.123876087 0.438352853
86295248 -0.123358055 0.439439177
86592448 -0.123899936 0.439469933
86889648 -0.123392686 0.440311193
87186848 -0.124291248 0.43981114
87484148 -0.124039135 0.441122442
87781348 -0.124341204 0.44039902
88078548 -0.124243944 0.440833985
88375748 -0.124296739 0.441204816
88673048 -0.124866291 0.441983044
88970248 -0.124536715 0.441816568
89267448 -0.124652467 0.442557215
89564648 -0.124626785 0.443005234
89861948 -0.125333175 0.442597121
90159176 -0.125381797 0.44386664
90456376 -0.12596935 0.443467617
90753576 -0.125508919 0.444339811
91050776 -0.126305669 0.44448933
91347976 -0.125652194 0.444763779
91645276 -0.126331686 0.444640517
91942476 -0.127072066 0.445062935
92239676 -0.126716673 0.445235729
92536876 -0.127478957 0.446009278
92834176 -0.12721683 0.446469604
93131376 -0.126978889 0.446558952
93428576 -0.127694606 0.447130024
93725776 -0.128149464 0.447278976
94023076 -0.128179222 0.447965323
94320276 -0.127601981 0.448030412
94617476 -0.12939465 0.448985129
94914676 -0.129155278 0.448835641
95211976 -0.128121748 0.448631763
95509176 -0.128394231 0.448850274
95806376 -0.129714235 0.449763208
96103576 -0.129968255 0.450310885
96400876 -0.129517391 0.449988216
96698076 -0.129749789 0.450463294
96995276 -0.130725875 0.450750619
97292476 -0.130926936 0.451068639
97589776 -0.130791574 0.450832188
97886976 -0.130883634 0.451497405
98184176 -0.131281465 0.452366828
98481376 -0.131213128 0.452568471
98778576 -0.131667792 0.45268166
99075876 -0.131431534 0.452940165
99373076 -0.131678491 0.452932059
99670276 -0.131830945 0.454005837
99967476 -0.133399084 0.45368731
100264776 -0.132764473 0.454215288
100561976 -0.133370786 0.454507619
100859176 -0.133299425 0.454769194
101156376 -0.133884519 0.455224782
101453676 -0.134244009 0.455456614
101750876 -0.134464502 0.455547243
102048076 -0.135153889 0.456210911
102345276 -0.134820535 0.456621706
102642576 -0.134930908 0.456602603
102939776 -0.135718628 0.457085371
103236976 -0.13549678 0.457251638
103534176 -0.136286556 0.457683205
103831476 -0.136371746 0.45783165
104128676 -0.136741444 0.458047807
104425876 -0.137169271 0.458710759
104723076 -0.137486875 0.458891332
105020376 -0.137686923 0.45905134
105317576 -0.137977361 0.459552109
105614776 -0.138403221 0.459906578
105911976 -0.138756081 0.460123658
106209176 -0.138886913 0.460310459
106506476 -0.140104711 0.461102545
106803676 -0.139527052 0.460949897
107100876 -0.139650762 0.461344689
107398076 -0.139865919 0.461438536
107695376 -0.141010642 0.462020635
107992576 -0.140825077 0.462191224
108289776 -0.141551256 0.462557017
108586976 -0.141521021 0.462875097
108884276 -0.141987487 0.462983727
109181476 -0.142683923 0.4633632
109478676 -0.1430085 0.463766038
109775876 -0.143332779 0.464026331
110073176 -0.143638193 0.464366436
110370376 -0.143769875 0.464557349
110667576 -0.144252091 0.464639931
110964776 -0.14459747 0.464954018
111262076 -0.144902274 0.465225338
111559276 -0.145352363 0.465580701
111856476 -0.14589253 0.465943098
112153676 -0.146543994 0.465824127
112450976 -0.146467149 0.466049164
112748176 -0.146981075 0.466499239
113045376 -0.147511109 0.466396272
113342576 -0.147890612 0.466969609
113639776 -0.148075401 0.467133522
113937076 -0.148554712 0.467176169
114234276 -0.149358898 0.467367708
114531476 -0.149937734 0.467648088
114828676 -0.150296732 0.467871785
115125976 -0.150981888 0.467825412
115423176 -0.151454046 0.468193173
115720376 -0.152154207 0.468263924
116017576 -0.152698576 0.468724727
116314876 -0.153646513 0.469050884
116612076 -0.154156193 0.469422399
116909276 -0.154867514 0.469825595
117206476 -0.155266001 0.469953715
117503776 -0.155785605 0.470264434
117800976 -0.156527191 0.471027374
118098176 -0.156950548 0.471467226
118395376 -0.15756455 0.471687167
118692676 -0.15809828 0.47216773
118989876 -0.158458307 0.47241795
119287076 -0.159029051 0.473280549
119584276 -0.159671142 0.473369359
119881576 -0.159995615 0.47392711
120178896 -0.160639703 0.474168688
120476096 -0.160960868 0.474842578
120773296 -0.161390438 0.475085318
121070496 -0.161622285 0.475505352
121367796 -0.162404969 0.476056694
121664996 -0.162963092 0.476299852
121962196 -0.162837073 0.476775437
122259396 -0.16347137 0.476925671
122556696 -0.164097249 0.477461695
122853896 -0.164138257 0.477726042
123151096 -0.164728403 0.478117704
123448296 -0.165189877 0.478458583
123745596 -0.165357738 0.478748202
124042796 -0.165942668 0.479168295
124339996 -0.166434362 0.479731559
124637196 -0.166911587 0.479829847
124934496 -0.167645737 0.480095982
125231696 -0.167894929 0.480420172
125528896 -0.168254435 0.480875939
125826096 -0.16919206 0.481008589
126123396 -0.169504001 0.481265276
126420596 -0.169931605 0.481578826
126717796 -0.17059113 0.482019841
127014996 -0.170738592 0.482327014
127312296 -0.171539559 0.482615828
127609496 -0.172063782 0.482861638
127906696 -0.172242432 0.483030647
128203896 -0.17271924 0.483331143
128501196 -0.173484146 0.483811855
128798396 -0.174162641 0.484171628
129095596 -0.174619868 0.484419792
129392796 -0.174679026 0.484444737
129690096 -0.175642251 0.484842032
129987296 -0.175969868 0.48538348
130284496 -0.176195025 0.485413372
130581696 -0.177023962 0.4855856
130878996 -0.177266731 0.486057609
131176196 -0.178043395 0.486081302
131473396 -0.178588151 0.486418783
131770596 -0.178989097 0.486597269
132067896 -0.179660245 0.487138092
132365096 -0.179988384 0.487261474
132662296 -0.180485576 0.4873901
132959496 -0.180937767 0.487856209
133256796 -0.181651383 0.487793087
133553996 -0.18213959 0.488401651
133851196 -0.182919964 0.488526105
134148396 -0.183461055 0.488843411
134445696 -0.18394573 0.489225924
134742896 -0.18460533 0.489488422
135040096 -0.185129567 0.489685446
135337296 -0.185342743 0.489892899
135634596 -0.18633832 0.490540564
135931796 -0.186722919 0.490487098
136228996 -0.187116548 0.490839719
136526196 -0.187604442 0.491061151
136823496 -0.188401281 0.491374015
137120696 -0.188876464 0.491880178
137417896 -0.18950589 0.491855919
137715096 -0.189965471 0.492050081
138012396 -0.190558657 0.492529213
138309596 -0.191030874 0.492768764
138606796 -0.191796228 0.492947548
138903996 -0.192001238 0.493004083
139201296 -0.192870423 0.493346452
139498496 -0.193385899 0.49368906
139795696 -0.193989604 0.493910461
140092896 -0.194539114 0.494010865
140390196 -0.194932505 0.49435538
140687396 -0.195736378 0.494560629
140984596 -0.195933699 0.494699865
141281796 -0.196695402 0.495188653
141579096 -0.197354093 0.495228528
141876296 -0.197560757 0.495342403
142173496 -0.198461785 0.495813041
142470696 -0.199036672 0.495895028
142767996 -0.199501901 0.496245145
143065196 -0.200210958 0.49657309
143362396 -0.200593978 0.496760785
143659596 -0.201237931 0.497015416
143956896 -0.201842054 0.497134029
144254096 -0.202792286 0.497327476
144551296 -0.203168421 0.497548282
144848496 -0.203508764 0.497788131
145145796 -0.20428431 0.498026847
145442996 -0.205182716 0.498310267
145740196 -0.205835402 0.498547732
146037396 -0.206065654 0.498794019
146334696 -0.206893965 0.499133765
146631896 -0.207442596 0.499165534
146929096 -0.208149537 0.49955219
147226296 -0.208727747 0.499604523
147523596 -0.209093376 0.499881058
147820796 -0.209916502 0.500344276
148117996 -0.210727155 0.500359952
148415196 -0.211081519 0.500641584
148712496 -0.211803331 0.501119613
149009696 -0.212421625 0.500912785
149306896 -0.213144436 0.501126408
149604096 -0.21361956 0.5014171
149901396 -0.2141079 0.501499116
150198624 -0.214638829 0.501630961
150495824 -0.215594902 0.501924216
150793024 -0.21613194 0.502303957
151090224 -0.216676205 0.502382099
151387424 -0.217367589 0.502628564
151684724 -0.217917755 0.502609491
151981924 -0.218270063 0.502894282
152279124 -0.219488203 0.502994894
152576324 -0.219954043 0.503468096
152873624 -0.220447972 0.503482639
153170824 -0.221090555 0.503507614
153468024 -0.221603676 0.503627359
153765224 -0.222472876 0.504040479
154062524 -0.22327198 0.504338383
154359724 -0.223797768 0.504489779
154656924 -0.224281251 0.50447601
154954124 -0.225005358 0.504725873
155251424 -0.225729405 0.504903674
155548624 -0.226400896 0.505109429
155845824 -0.227057948 0.505361318
156143024 -0.227634742 0.505583167
156440324 -0.228378608 0.505617856
156737524 -0.228936523 0.505898952
157034724 -0.22975558 0.505923688
157331924 -0.230314761 0.506005406
157629224 -0.231225654 0.506088614
157926424 -0.231847777 0.506388425
158223624 -0.232590511 0.50647372
158520824 -0.233292475 0.506494879
158818024 -0.233871981 0.506828665
159115324 -0.234733432 0.506995558
159412524 -0.235604569 0.507041513
159709724 -0.236275896 0.507215023
160006924 -0.236902788 0.50751245
160304224 -0.237487867 0.507578969
160601424 -0.238202214 0.507956027
160898624 -0.238907441 0.507963895
161195824 -0.23961763 0.508184552
161493124 -0.240190178 0.50817722
161790324 -0.240828663 0.508450388
162087524 -0.241444155 0.508529484
162384724 -0.242161884 0.508884847
162682024 -0.242675453 0.508869647
162979224 -0.243495374 0.509028196
163276424 -0.244078323 0.50912106
163573624 -0.244781941 0.509297132
163870924 -0.245715439 0.509559452
164168124 -0.246377229 0.509610593
164465324 -0.246907338 0.509740233
164762524 -0.247644007 0.510008811
165059824 -0.248193219 0.509848117
165357024 -0.248846277 0.510090172
165654224 -0.249933525 0.510203123
165951424 -0.250349342 0.510120749
166248624 -0.25099194 0.510434746
166545924 -0.251814305 0.510412037
166843124 -0.25249809 0.510772645
167140324 -0.253488719 0.510857284
167437524 -0.254061847 0.51080197
167734824 -0.254877209 0.510848045
168032024 -0.255756378 0.510874152
168329224 -0.255988955 0.510942816
168626424 -0.256806284 0.511220335
168923724 -0.257744193 0.511337995
169220924 -0.258411526 0.511320114
169518124 -0.258851438 0.5115875
169815324 -0.259607255 0.51161623
170112624 -0.26067236 0.511764764
170409824 -0.261105954 0.512001931
170707024 -0.261871337 0.511989235
171004224 -0.262393295 0.51198554
171301524 -0.263256728 0.511981606
171598724 -0.263824343 0.512236535
171895924 -0.264793217 0.512458086
172193124 -0.265380501 0.512394607
172490424 -0.266171693 0.512248635
172787624 -0.266988337 0.512349367
173084824 -0.267720848 0.512433052
173382024 -0.268397212 0.512819647
173679224 -0.269323647 0.512622833
