# HZ S RI R 50
1000000 -0.971109628 0.132669478
1039300 -0.969320118 0.137192457
1078600 -0.967752933 0.142229795
1118000 -0.96630764 0.147156015
1157300 -0.964442789 0.152135327
1196700 -0.96285355 0.156972512
1236000 -0.961144268 0.1616434
1275400 -0.959314107 0.166445359
1314700 -0.957455515 0.171006754
1354100 -0.955311775 0.17600052
1393400 -0.953306853 0.180622562
1432800 -0.951309561 0.185356438
1472100 -0.949052035 0.189971163
1511500 -0.947206616 0.194440186
1550800 -0.944824218 0.199079811
1590200 -0.942644596 0.203539922
1629500 -0.940293669 0.20803073
1668900 -0.937895417 0.212413191
1708200 -0.935429215 0.216715395
1747600 -0.932955205 0.221009179
1786900 -0.930382192 0.22538717
1826300 -0.927929699 0.22962436
1865600 -0.925268352 0.233753368
1905000 -0.922577977 0.237892866
1944300 -0.919955492 0.242030799
1983700 -0.917179524 0.246008083
2023000 -0.914625346 0.250170886
2062400 -0.911765575 0.253794938
2101700 -0.908997178 0.257721453
2141100 -0.906489968 0.26159352
2180400 -0.903514027 0.265362352
2219800 -0.90060842 0.268996238
2259100 -0.897583067 0.272878855
2298500 -0.894643366 0.276471108
2337800 -0.891292214 0.28026852
2377200 -0.888424396 0.283473193
2416500 -0.885320365 0.286838382
2455900 -0.882233858 0.290238142
2495200 -0.879346787 0.293434351
2534600 -0.876137852 0.29675728
2573900 -0.873321175 0.299943
2613300 -0.870178222 0.303039073
2652600 -0.866847872 0.306372612
2692000 -0.863900005 0.309213191
2731300 -0.860755085 0.312251091
2770700 -0.857388973 0.315239459
2810000 -0.85449475 0.318085968
2849400 -0.851260006 0.320964872
2888700 -0.848186969 0.323675572
2928100 -0.844893872 0.326547384
2967400 -0.841807842 0.329026013
3006700 -0.838586807 0.331885606
3046100 -0.835533142 0.334351897
3085400 -0.832214295 0.336829423
3124800 -0.829247474 0.339316278
3164100 -0.825778126 0.341880708
3203500 -0.822829782 0.344106614
3242800 -0.819613158 0.346553087
3282200 -0.816550731 0.34890598
3321500 -0.813365042 0.35103777
3360900 -0.810264885 0.353187769
3400200 -0.807204663 0.355452746
3439600 -0.803995549 0.357575327
3478900 -0.800843477 0.359692245
3518300 -0.797671675 0.361849039
3557600 -0.794615864 0.363706469
3597000 -0.791661381 0.365664124
3636300 -0.788523256 0.367721825
3675700 -0.785477459 0.369559168
3715000 -0.782535195 0.371394455
3754400 -0.779522955 0.373314827
3793700 -0.776407539 0.375015079
3833100 -0.773322105 0.376810371
3872400 -0.770275175 0.378501921
3911800 -0.767372012 0.380226314
3951100 -0.764411509 0.381863534
3990500 -0.761363625 0.383373111
4029800 -0.758407831 0.385125041
4069200 -0.755524754 0.386651009
4108500 -0.752483069 0.388249516
4147900 -0.749514937 0.389571219
4187200 -0.746727228 0.391127437
4226600 -0.743662834 0.392539292
4265900 -0.740922808 0.393763601
4305300 -0.738117158 0.395266473
4344600 -0.735059916 0.396537452
4384000 -0.732346653 0.397841304
4423300 -0.729474723 0.399138659
4462700 -0.726607024 0.400480121
4502000 -0.723895132 0.401575952
4541400 -0.721048116 0.402835905
4580700 -0.718138694 0.404036551
4620100 -0.7154181 0.405166208
4659400 -0.71278131 0.406268775
4698800 -0.710049033 0.40734589
4738100 -0.707302749 0.408496737
4777500 -0.704651415 0.409525305
4816800 -0.701998353 0.410634219
4856200 -0.699095666 0.411663204
4895500 -0.696564555 0.412594884
4934900 -0.694103181 0.413755685
4934996 -0.694180488 0.413664579
4978396 -0.691161632 0.414766341
5021896 -0.688370704 0.415959447
5065396 -0.685498416 0.416942059
5108896 -0.68258655 0.417831808
5152396 -0.679774522 0.41882345
5195896 -0.676936209 0.419867843
5239396 -0.67428404 0.420758962
5282896 -0.671410858 0.421738624
5326396 -0.668695867 0.422472238
5369896 -0.666060507 0.423670887
5413396 -0.663106441 0.424531131
5456896 -0.660460233 0.425140947
5500396 -0.657789766 0.426164418
5543896 -0.655272364 0.426938593
5587396 -0.652635097 0.427721321
5630896 -0.649906456 0.428411066
5674396 -0.647539496 0.429296135
5717896 -0.644929409 0.429975718
5761396 -0.642326831 0.430677264
5804896 -0.639735281 0.431369274
5848396 -0.637195646 0.432026416
5891896 -0.6346969 0.432741194
5935396 -0.632270097 0.433497101
5978896 -0.629861772 0.433954805
6022396 -0.627457678 0.434632807
6065896 -0.625001966 0.435131192
6109396 -0.622638702 0.435679525
6152896 -0.620466768 0.436346083
6196396 -0.618161261 0.43666023
6239896 -0.61605674 0.437300086
6283396 -0.614045977 0.437557637
6326896 -0.612026035 0.437943607
6370396 -0.61015588 0.438366621
6413896 -0.60847944 0.438438981
6457396 -0.606797456 0.438720524
6500896 -0.604829311 0.439385861
6544396 -0.60299921 0.439852595
6587896 -0.600622534 0.440771877
6631396 -0.59776771 0.441962391
6674896 -0.594587504 0.44293341
6718396 -0.59153968 0.443601608
6761896 -0.588367104 0.444563418
6805396 -0.585538864 0.445345968
6848896 -0.582745969 0.446287482
6892396 -0.580007493 0.446913272
6935896 -0.577365994 0.447902053
6979396 -0.574887931 0.448533862
7022896 -0.572622537 0.449392765
7066396 -0.570730149 0.449925899
7109896 -0.568668961 0.450136661
7153396 -0.566611826 0.450477153
7196896 -0.564746618 0.450850456
7240396 -0.562771975 0.451091349
7283896 -0.560824513 0.451229542
7327396 -0.558918774 0.451651483
7370896 -0.55698359 0.451844483
7414396 -0.554859042 0.45207411
7457896 -0.552901864 0.452470839
7501396 -0.550859153 0.45279023
7544896 -0.549024164 0.452961146
7588396 -0.546925008 0.453288376
7631896 -0.545011818 0.453596591
7675396 -0.542996883 0.453923463
7718896 -0.541119694 0.454218983
7762396 -0.539086043 0.454683393
7805896 -0.537153124 0.454861044
7849396 -0.535205841 0.455244123
7892896 -0.533281922 0.455473363
7936396 -0.531397759 0.455949544
7979896 -0.529345273 0.456214576
8023396 -0.52734667 0.456503629
8066896 -0.525583684 0.456902295
8110396 -0.523722946 0.457123428
8153896 -0.521825969 0.457450598
8197396 -0.519992113 0.457634538
8240896 -0.518096029 0.457940816
8284396 -0.516314327 0.458259344
8327896 -0.514444589 0.458504021
8371396 -0.512656509 0.458752334
8414896 -0.510785341 0.458954781
8458396 -0.508910059 0.459347724
8501896 -0.507263898 0.459589779
8545396 -0.505373954 0.459844708
8588896 -0.503606021 0.460223913
8632396 -0.501788914 0.460476517
8675896 -0.50000137 0.460611581
8719396 -0.498135954 0.46103999
8762896 -0.496501535 0.461191296
8806396 -0.494633585 0.461264848
8849896 -0.493051797 0.461684525
8893396 -0.491360217 0.461935341
8936896 -0.489666819 0.46220526
8980396 -0.487921893 0.462402939
9023896 -0.486275285 0.46260488
9067396 -0.484456419 0.462725818
9110896 -0.482761263 0.462944358
9154396 -0.481160044 0.463288158
9197896 -0.479387044 0.463432967
9241396 -0.477846235 0.463769793
9284896 -0.476256012 0.463884502
9284932 -0.476123511 0.464025616
9333532 -0.474309772 0.464269816
9382132 -0.472433835 0.464416444
9430732 -0.470623254 0.46464464
9479432 -0.468835085 0.464806467
9528032 -0.467000752 0.465115725
9576632 -0.465199261 0.465211689
9625232 -0.463241606 0.465571284
9673932 -0.461683511 0.465850114
9722532 -0.459946453 0.465984523
9771132 -0.45792064 0.466179639
9819832 -0.456197887 0.466437011
9868432 -0.454485356 0.466374784
9917032 -0.452803343 0.466710001
9965632 -0.450912833 0.466893017
10014332 -0.449385792 0.467047661
10062932 -0.447756677 0.467193901
10111532 -0.446024775 0.467395275
10160232 -0.444319248 0.467527806
10208832 -0.442693024 0.467691868
10257432 -0.440988987 0.467864632
10306032 -0.439308583 0.468006402
10354732 -0.437838256 0.468248218
10403332 -0.436001241 0.468330919
10451932 -0.434484302 0.468385219
10500632 -0.43265897 0.468490332
10549232 -0.431168377 0.4686369
10597832 -0.429468274 0.468797415
10646432 -0.4278692 0.46904537
10695132 -0.426296114 0.469079434
10743732 -0.424738407 0.469071805
10792332 -0.423106908 0.469250977
10840932 -0.421489685 0.469442099
10889632 -0.419840216 0.469578087
10938232 -0.418288499 0.469612151
10986832 -0.41680333 0.469806939
11035532 -0.415189564 0.469901621
11084132 -0.413680255 0.470049023
11132732 -0.412335872 0.470032334
11181332 -0.410677731 0.470314294
11230032 -0.409038484 0.470372229
11278632 -0.407590001 0.470468223
11327232 -0.406081467 0.470467299
11375932 -0.4042975 0.470589458
11424532 -0.403012394 0.470719963
11473132 -0.401452988 0.470743834
11521732 -0.40009272 0.470937848
11570432 -0.39864853 0.471023112
11619032 -0.397255092 0.471108734
11667632 -0.395754367 0.471171468
11716332 -0.394116789 0.471349418
11764932 -0.392709285 0.471220612
11813532 -0.391181379 0.471541911
11862132 -0.389526724 0.471541345
11910832 -0.38828206 0.471509218
11959432 -0.387029588 0.4716672
12008032 -0.385508537 0.471768051
12056632 -0.383950799 0.471781164
12105332 -0.382483392 0.471848785
12153932 -0.381212264 0.471991896
12202532 -0.379733651 0.472003221
12251232 -0.378354251 0.472020834
12299832 -0.376893967 0.471944123
12348432 -0.375428259 0.472232788
12397032 -0.374074578 0.472135186
12445732 -0.372813522 0.4723441
12494332 -0.37130475 0.472172886
12542932 -0.369962841 0.472434043
12591632 -0.368730932 0.472445547
12640232 -0.36737594 0.472538441
12688832 -0.36603856 0.472550779
12737432 -0.364567697 0.472561568
12786132 -0.363296598 0.472579985
12834732 -0.361743986 0.472817093
12883332 -0.36065191 0.472767174
12932032 -0.35912016 0.472673922
12980632 -0.35786572 0.472689062
13029232 -0.356507539 0.472934007
13077832 -0.355430066 0.472963362
13126532 -0.353835999 0.472865045
13175132 -0.352706104 0.473007917
13223732 -0.351356208 0.473097056
13272332 -0.349953174 0.47315827
13321032 -0.348659396 0.472969114
13369632 -0.347340941 0.473248213
13418232 -0.345978975 0.4731687
13466932 -0.344756215 0.473325848
13515532 -0.343525439 0.473202615
13564132 -0.342280834 0.473354041
13612732 -0.340920746 0.473382502
13661432 -0.339592695 0.473362892
13710032 -0.33857426 0.473471373
13758632 -0.337225645 0.473338216
13807332 -0.335878968 0.473403066
13855932 -0.334712117 0.473607718
13904532 -0.333384901 0.473598927
13953132 -0.332223713 0.473642975
14001832 -0.331195741 0.473639905
14050432 -0.329796224 0.473648667
14099032 -0.328462272 0.473600625
14147732 -0.327299237 0.473633468
14147747 -0.327155381 0.473566561
14202847 -0.325691133 0.473667055
14257947 -0.32440409 0.473704785
14313047 -0.323108643 0.473892599
14368247 -0.321762293 0.473949372
14423347 -0.320481359 0.47391954
14478447 -0.318902224 0.473886102
14533647 -0.317586272 0.4738608
14588747 -0.316234171 0.473928511
14643847 -0.314921677 0.473775237
14699047 -0.313622921 0.473821729
14754147 -0.312221914 0.473734676
14809247 -0.310872882 0.473918318
14864347 -0.309757769 0.473900228
14919547 -0.308270186 0.473901778
14974647 -0.306952685 0.474018931
15029747 -0.305546849 0.473814427
15084947 -0.304268449 0.473962903
15140047 -0.303084909 0.473914414
15195147 -0.301591932 0.473995059
15250347 -0.300336509 0.47391048
15305447 -0.299206495 0.473889529
15360547 -0.297840386 0.474034607
15415647 -0.29654473 0.473906546
15470847 -0.295374333 0.474040001
15525947 -0.293798685 0.473933756
15581047 -0.292837679 0.473758697
15636247 -0.291507273 0.473870277
15691347 -0.290214568 0.473673909
15746447 -0.288937389 0.47387284
15801647 -0.287635833 0.473700761
15856747 -0.286568969 0.473640471
15911847 -0.285205304 0.473747134
15966947 -0.284041106 0.473720788
16022147 -0.282734125 0.473827093
16077247 -0.281500041 0.473612397
16132347 -0.280158251 0.473581016
16187547 -0.278971731 0.473664432
16242647 -0.277812242 0.473615467
16297747 -0.276578456 0.47349146
16352947 -0.275400847 0.473618894
16408047 -0.274269402 0.473466962
16463147 -0.272849768 0.473446249
16518247 -0.271711885 0.473317027
16573447 -0.270601928 0.473366647
16628547 -0.269303351 0.473173111
16683647 -0.268179327 0.473274528
16738847 -0.267006695 0.47317624
16793947 -0.265767991 0.473007738
16849047 -0.264558702 0.473144441
16904247 -0.263405621 0.472966969
16959347 -0.262439489 0.472966372
17014447 -0.261260598 0.472760856
17069547 -0.260071843 0.472786307
17124747 -0.258941739 0.472738862
17179847 -0.257843822 0.472785532
17234947 -0.256526887 0.472641378
17290147 -0.255585014 0.472581118
17345247 -0.254123508 0.472328931
17400347 -0.253161519 0.472459554
17455547 -0.251957565 0.472247689
17510647 -0.250880062 0.472323626
17565747 -0.249707564 0.472227066
17620847 -0.24857068 0.472232401
17676047 -0.247431173 0.47201848
17731147 -0.246355265 0.472031444
17786247 -0.245110139 0.472166657
17841447 -0.244075998 0.471950173
17896547 -0.242919713 0.471910178
17951647 -0.241712868 0.471821695
18006847 -0.240824505 0.471827328
18061947 -0.239912346 0.471509218
18117047 -0.238519176 0.471698313
18172147 -0.237482011 0.471475154
18227347 -0.236524611 0.471455425
18282447 -0.235391229 0.471316516
18337547 -0.234249979 0.471007227
18392747 -0.233226254 0.471058011
18447847 -0.232289716 0.471098005
18502947 -0.231042921 0.471002548
18558147 -0.229788303 0.470899641
18613247 -0.228956252 0.470805406
18668347 -0.227965056 0.470722079
18723447 -0.22677572 0.470568597
18778647 -0.225804954 0.470621854
18833747 -0.224587306 0.47058615
18888847 -0.223661154 0.470357298
18944047 -0.222680047 0.470311909
18999147 -0.221489459 0.470186382
19054247 -0.220486819 0.469897359
19109447 -0.219448715 0.470141321
19164547 -0.218353599 0.469812273
19219647 -0.217548027 0.469909727
19274747 -0.216466084 0.469830453
19329947 -0.215345785 0.469580709
19385047 -0.21432881 0.469670832
19440147 -0.213143229 0.469485849
19495347 -0.212283119 0.469365358
19550447 -0.211256682 0.469389796
19605547 -0.210383459 0.46913141
19660747 -0.209215179 0.469109028
19660752 -0.209443673 0.469368994
19724352 -0.208203628 0.468965888
19787952 -0.206907629 0.468884497
19851652 -0.205792382 0.468690425
19915252 -0.204568788 0.468593537
19978952 -0.203409567 0.468346327
20042552 -0.202368408 0.468349844
20106152 -0.201218098 0.468118995
20169852 -0.199923098 0.46815598
20233452 -0.198869183 0.468079328
20297152 -0.197956591 0.468026548
20360752 -0.196715801 0.467666953
20424452 -0.195489689 0.467474728
20488052 -0.194450318 0.467522144
20551652 -0.193399757 0.467334419
20615352 -0.192184686 0.467274725
20678952 -0.191065594 0.467126697
20742652 -0.190154701 0.467014491
20806252 -0.188876003 0.466743528
20869852 -0.187825545 0.466862499
20933552 -0.186715185 0.466623008
20997152 -0.185696214 0.466220617
21060852 -0.184583485 0.466149628
21124452 -0.183639809 0.466080397
21188152 -0.182584092 0.466043084
21251752 -0.181437075 0.46585825
21315352 -0.180335655 0.46590659
21379052 -0.179337039 0.465585619
21442652 -0.178160011 0.465440452
21506352 -0.177140682 0.465111196
21569952 -0.176044523 0.465112328
21633652 -0.174998566 0.46493265
21697252 -0.174037963 0.46477434
21760852 -0.172941133 0.464708954
21824552 -0.17175208 0.464600116
21888152 -0.17089799 0.46442005
21951852 -0.169915378 0.464223712
22015452 -0.168794259 0.464070498
22079052 -0.167817398 0.463880926
22142752 -0.166752099 0.463833957
22206352 -0.165772497 0.463766396
22270052 -0.164665773 0.463591963
22333652 -0.163979858 0.463443875
22397352 -0.162726476 0.463275849
22460952 -0.161810949 0.463026523
22524552 -0.160694003 0.462902814
22588252 -0.15969482 0.462741672
22651852 -0.158657744 0.462510317
22715552 -0.157754346 0.462643593
22779152 -0.15664421 0.462443828
22842852 -0.15551728 0.462058424
22906452 -0.154703035 0.462139755
22970052 -0.153703436 0.461827754
23033752 -0.152806743 0.461725682
23097352 -0.151726424 0.461690813
23161052 -0.150759488 0.461391061
23224652 -0.149571269 0.461312323
23288252 -0.148854225 0.461064487
23351952 -0.147788211 0.460963338
23415552 -0.14682056 0.460883051
23479252 -0.14579986 0.460691809
23542852 -0.145036265 0.460525482
23606552 -0.144081771 0.460469335
23670152 -0.143026039 0.460285335
23733752 -0.141932681 0.460048764
23797452 -0.141135588 0.460012108
23861052 -0.140359908 0.459868997
23924752 -0.139366835 0.459675192
23988352 -0.138490661 0.459459722
24051952 -0.137439474 0.459106981
24115652 -0.136526823 0.459224522
24179252 -0.135497778 0.459122002
24242952 -0.134748712 0.459039926
24306552 -0.133581429 0.458684116
24370252 -0.132698416 0.458531558
24433852 -0.13202311 0.458301246
24497452 -0.130962193 0.458099931
24561152 -0.129998281 0.457977056
24624752 -0.129103973 0.457800239
24688452 -0.128442928 0.457599192
24752052 -0.127358093 0.457572966
24815752 -0.126461505 0.457263976
24879352 -0.125581443 0.457098275
24942952 -0.124616697 0.456916123
25006652 -0.123671859 0.456647396
25070252 -0.12269815 0.456545263
25133952 -0.122137486 0.456486195
25197552 -0.121009044 0.456357091
25261152 -0.120241127 0.455969154
25324852 -0.119402304 0.455834984
25388452 -0.118555448 0.455805212
25452152 -0.117593251 0.455617129
25515752 -0.11661832 0.45543313
25579452 -0.115756802 0.455267041
25643052 -0.115067452 0.455077707
25706652 -0.114128977 0.454716831
25770352 -0.113314099 0.454773634
25833952 -0.112345397 0.454620927
25897652 -0.111684598 0.454144835
25961252 -0.110827483 0.454178899
26024952 -0.10991507 0.454032063
26025048 -0.109876595 0.453915596
26100248 -0.108817435 0.453865319
26175548 -0.108013436 0.45365557
26250848 -0.106839872 0.453403025
26326048 -0.105774283 0.453066915
26401348 -0.104888848 0.452782213
26476648 -0.103865399 0.452742695
26551948 -0.102981232 0.452483952
26627148 -0.101809382 0.452304005
26702448 -0.100993767 0.451932221
26777748 -0.099940173 0.451941132
26853048 -0.098987154 0.451494574
26928248 -0.098078824 0.451333016
27003548 -0.097218699 0.451067119
27078848 -0.096228957 0.450800955
27154048 -0.095387674 0.450623691
27229348 -0.094245791 0.450333535
27304648 -0.093345195 0.45016846
27379948 -0.092467308 0.450014084
27455148 -0.091387718 0.449906289
27530448 -0.090547449 0.449596643
27605748 -0.089553698 0.449360281
27681048 -0.088612847 0.44925639
27756248 -0.087774023 0.448765158
27831548 -0.086841516 0.44868955
27906848 -0.085760764 0.448470383
27982048 -0.085013918 0.44824326
28057348 -0.084141314 0.448031157
28132648 -0.083108566 0.447633475
28207948 -0.08234217 0.447506994
28283148 -0.081413589 0.447431653
28358448 -0.080486178 0.447110772
28433748 -0.079498097 0.447109669
28509048 -0.078571639 0.44666323
28584248 -0.077768236 0.446450173
28659548 -0.076903879 0.446273535
28734848 -0.075863935 0.445861637
28810148 -0.075009979 0.445748567
28885348 -0.074036888 0.445521324
28960648 -0.073410004 0.445361942
29035948 -0.072490796 0.44517669
29111148 -0.071611091 0.444953441
29186448 -0.07063055 0.444720119
29261748 -0.069841787 0.444406718
29337048 -0.069003477 0.444126099
29412248 -0.06814111 0.444129645
29487548 -0.067089959 0.443778842
29562848 -0.066307343 0.443417698
29638148 -0.065504968 0.443325102
29713348 -0.06477461 0.442978531
29788648 -0.063752621 0.442925065
29863948 -0.062887653 0.442679852
29939148 -0.062114488 0.442290961
30014448 -0.061190102 0.442135244
30089748 -0.060257107 0.441884607
30165048 -0.059612657 0.441732019
30240248 -0.058802116 0.44151014
30315548 -0.057952925 0.441245764
30390848 -0.057227604 0.440980762
30466148 -0.056240886 0.440809577
30541348 -0.055452764 0.440521806
30616648 -0.054537892 0.440261483
30691948 -0.05372468 0.440174221
30767148 -0.052873693 0.439997881
30842448 -0.052116975 0.439718663
30917748 -0.051371596 0.439559549
30993048 -0.05043824 0.43927282
31068248 -0.049602203 0.438772231
31143548 -0.048997372 0.438692986
31218848 -0.048167578 0.43841955
31294148 -0.047196488 0.43807134
31369348 -0.046562433 0.438019543
31444648 -0.045645348 0.437746852
31519948 -0.044964484 0.437439233
31595248 -0.044175848 0.437096834
31670448 -0.043404065 0.437183767
31745748 -0.042722597 0.436845213
31821048 -0.041899506 0.436549723
31896248 -0.041042957 0.436240971
31971548 -0.040276035 0.436112076
32046848 -0.039520312 0.435768842
32122148 -0.038752377 0.435649096
32197348 -0.037847403 0.435280561
32272648 -0.036882247 0.435169756
32347948 -0.036418996 0.434755623
32423248 -0.035503759 0.434726923
32498448 -0.034815564 0.434555888
32573748 -0.034038219 0.434147924
32649048 -0.03333117 0.433958381
32724248 -0.032430082 0.433749049
32799548 -0.031923092 0.433642625
32874848 -0.030902285 0.433172106
