# HZ S RI R 50
1000000 -0.806710541 0.299423575
1039300 -0.798770487 0.305278927
1078600 -0.790314078 0.310667037
1118000 -0.782851517 0.315964281
1157300 -0.774555504 0.320869266
1196700 -0.766575038 0.325422316
1236000 -0.75934273 0.329797983
1275400 -0.751620113 0.33428654
1314700 -0.744322597 0.338299512
1354100 -0.737055182 0.342116624
1393400 -0.729543149 0.345847249
1432800 -0.722490072 0.349327921
1472100 -0.715656101 0.352607011
1511500 -0.708714604 0.355777353
1550800 -0.701917052 0.358787983
1590200 -0.695325076 0.361610978
1629500 -0.688896059 0.364517569
1668900 -0.682284116 0.367214024
1708200 -0.676248133 0.369844675
1747600 -0.669853568 0.372392296
1786900 -0.663592278 0.374612659
1826300 -0.658010721 0.376873344
1865600 -0.651996135 0.378934442
1905000 -0.646290898 0.380993396
1944300 -0.640648245 0.383170813
1983700 -0.635084629 0.385074287
2023000 -0.629701495 0.386896133
2062400 -0.624079525 0.388813942
2101700 -0.61895585 0.390416264
2141100 -0.613676071 0.392237663
2180400 -0.608543753 0.393760979
2219800 -0.603377461 0.39550814
2259100 -0.5983361 0.396952539
2298500 -0.59316653 0.398601949
2337800 -0.588383913 0.39985606
2377200 -0.583533883 0.40140143
2416500 -0.578739881 0.402648478
2455900 -0.574085295 0.404132515
2495200 -0.569466114 0.405102998
2534600 -0.565059661 0.406563133
2573900 -0.560566365 0.407824546
2613300 -0.55602163 0.408901244
2652600 -0.551829814 0.41008377
2692000 -0.547385215 0.411204844
2731300 -0.543144404 0.412224531
2770700 -0.538852453 0.413458794
2810000 -0.534838497 0.414263844
2849400 -0.530573487 0.415375471
2888700 -0.526583194 0.416309893
2928100 -0.522588372 0.417294979
2967400 -0.518767714 0.41820243
3006700 -0.514516413 0.419183462
3046100 -0.510960459 0.420136868
3085400 -0.506837546 0.421087086
3124800 -0.503154098 0.421975165
3164100 -0.499492794 0.422763049
3203500 -0.495699554 0.423496931
3242800 -0.492105424 0.424387127
3282200 -0.488418042 0.42540422
3321500 -0.484858602 0.42607823
3360900 -0.481224924 0.427125304
3400200 -0.477753579 0.427645802
3439600 -0.474363118 0.428493201
3478900 -0.4707807 0.429106384
3518300 -0.467439264 0.429844886
3557600 -0.464050054 0.430515795
3597000 -0.460713446 0.431321889
3636300 -0.457327187 0.432205468
3675700 -0.454073667 0.432708173
3715000 -0.450782001 0.433214962
3754400 -0.447441399 0.433895766
3793700 -0.444251745 0.434606164
3833100 -0.441099107 0.435396134
3872400 -0.437993973 0.436071962
3911800 -0.434762567 0.436642944
3951100 -0.43160963 0.436992079
3990500 -0.428622841 0.437707275
4029800 -0.425423115 0.438368916
4069200 -0.422309368 0.438915848
4108500 -0.419278919 0.439322054
4147900 -0.416220426 0.439854592
4187200 -0.413196474 0.440538942
4226600 -0.410172373 0.440914928
4265900 -0.407220631 0.441497206
4305300 -0.404370993 0.442119687
4344600 -0.401438534 0.442458331
4384000 -0.398582667 0.442859292
4423300 -0.39570412 0.443405926
4462700 -0.3927446 0.443850308
4502000 -0.390100836 0.444334745
4541400 -0.387057691 0.444788277
4580700 -0.384398043 0.445102095
4620100 -0.381671577 0.445522069
4659400 -0.378799736 0.446071922
4698800 -0.376066476 0.446548759
4738100 -0.373443871 0.446809947
4777500 -0.37060377 0.447147101
4816800 -0.367955118 0.447716176
4856200 -0.365164548 0.447980165
4895500 -0.362535715 0.448379814
4934900 -0.359986901 0.44885534
4934996 -0.360053956 0.448881536
4978396 -0.357041925 0.449234247
5021896 -0.354173749 0.449516683
5065396 -0.35120216 0.449943631
5108896 -0.348535567 0.450354039
5152396 -0.345508307 0.450719535
5195896 -0.342928171 0.451070219
5239396 -0.339838266 0.451221138
5282896 -0.337157726 0.45156905
5326396 -0.334338217 0.452054649
5369896 -0.3315427 0.452273368
5413396 -0.329012572 0.452596664
5456896 -0.326354593 0.452976524
5500396 -0.323437929 0.453182011
5543896 -0.320788115 0.453543305
5587396 -0.318145036 0.453669935
5630896 -0.315515935 0.454016327
5674396 -0.312728255 0.454177588
5717896 -0.310136467 0.454461455
5761396 -0.307689577 0.454678505
5804896 -0.305034488 0.454857289
5848396 -0.302449107 0.454996943
5891896 -0.299984902 0.455357879
5935396 -0.297322839 0.455441117
5978896 -0.294989854 0.455593764
6022396 -0.292629241 0.455840051
6065896 -0.290141552 0.455860674
6109396 -0.287578433 0.4561567
6152896 -0.285322576 0.456411391
6196396 -0.283039063 0.456348985
6239896 -0.280868291 0.45672062
6283396 -0.278618395 0.456531614
6326896 -0.276717305 0.456739813
6370396 -0.274571835 0.456845998
6413896 -0.272440969 0.456938028
6457396 -0.270655125 0.456944972
6500896 -0.268584579 0.457336187
6544396 -0.266493141 0.457570225
6587896 -0.26384291 0.457814633
6631396 -0.260882526 0.458100944
6674896 -0.257947832 0.458243906
6718396 -0.254954218 0.458368539
6761896 -0.251902639 0.458502829
6805396 -0.248983114 0.45865646
6848896 -0.246180862 0.458860248
6892396 -0.243470311 0.458932191
6935896 -0.240806624 0.458985447
6979396 -0.23825173 0.459254503
7022896 -0.235764026 0.459439575
7066396 -0.233574211 0.459378927
7109896 -0.231593504 0.459436416
7153396 -0.229478523 0.459494084
7196896 -0.22729662 0.459437996
7240396 -0.225289061 0.459336042
7283896 -0.223338589 0.459222733
7327396 -0.221217036 0.459243953
7370896 -0.219027116 0.459159702
7414396 -0.217104241 0.458884149
7457896 -0.214925825 0.458885312
7501396 -0.212784588 0.458906084
7544896 -0.210853785 0.458776563
7588396 -0.208814188 0.458649367
7631896 -0.206472024 0.458568692
7675396 -0.204652175 0.458561569
7718896 -0.202500015 0.458611726
7762396 -0.200612127 0.458423763
7805896 -0.198439806 0.458319544
7849396 -0.19631879 0.458222478
7892896 -0.194370999 0.45797348
7936396 -0.19228962 0.458062231
7979896 -0.190285846 0.457912176
8023396 -0.188353091 0.457876265
8066896 -0.186091363 0.457832396
8110396 -0.184334903 0.457601159
8153896 -0.182333976 0.457429945
8197396 -0.180450424 0.457336187
8240896 -0.178467139 0.45742473
8284396 -0.176463544 0.45708087
8327896 -0.17441304 0.456902176
8371396 -0.172525063 0.456920295
8414896 -0.170607686 0.456813246
8458396 -0.168702304 0.456529259
8501896 -0.166857734 0.456589192
8545396 -0.164893388 0.456363111
8588896 -0.163114905 0.456137895
8632396 -0.161162108 0.456014215
8675896 -0.159286215 0.455848604
8719396 -0.157418698 0.455571472
8762896 -0.155660673 0.455435693
8806396 -0.153738841 0.455314666
8849896 -0.151978716 0.45516619
8893396 -0.150172725 0.454890578
8936896 -0.148318231 0.454885244
8980396 -0.146444678 0.454484105
9023896 -0.144791528 0.454185366
9067396 -0.14277023 0.454181492
9110896 -0.140950053 0.453973233
9154396 -0.139291822 0.453678339
9197896 -0.137664675 0.453544259
9241396 -0.135944262 0.453360617
9284896 -0.134018138 0.453137099
9284932 -0.134139925 0.453046619
9333532 -0.132218182 0.452938944
9382132 -0.130246862 0.45264253
9430732 -0.128388181 0.452303707
9479432 -0.126368626 0.452019095
9528032 -0.124516136 0.451784193
9576632 -0.122547239 0.451627969
9625232 -0.120895408 0.451201051
9673932 -0.119039967 0.451105445
9722532 -0.117087997 0.45059815
9771132 -0.11516568 0.450408697
9819832 -0.113500431 0.45009768
9868432 -0.111634209 0.449914872
9917032 -0.109689459 0.449574708
9965632 -0.107939943 0.449267685
10014332 -0.1061939 0.448866128
10062932 -0.104411564 0.448617428
10111532 -0.102676391 0.44827187
10160232 -0.100893624 0.447871774
10208832 -0.099084757 0.447572439
10257432 -0.09749256 0.44725576
10306032 -0.095760025 0.446938633
10354732 -0.094183787 0.446706026
10403332 -0.092427581 0.446200311
10451932 -0.090773299 0.445768564
10500632 -0.088962301 0.445588231
10549232 -0.08739949 0.445139944
10597832 -0.085671111 0.444956779
10646432 -0.084109887 0.44449222
10695132 -0.082459047 0.44410628
10743732 -0.080735623 0.443617731
10792332 -0.079278558 0.443319022
10840932 -0.077552147 0.443046063
10889632 -0.075967103 0.442639946
10938232 -0.074194289 0.442414402
10986832 -0.072789616 0.441827118
11035532 -0.071253873 0.441566079
11084132 -0.069627575 0.441160619
11132732 -0.068088807 0.440663039
11181332 -0.066392138 0.440542846
11230032 -0.064912825 0.440132528
11278632 -0.063450887 0.439614176
11327232 -0.06184072 0.439274132
11375932 -0.060431532 0.438854515
11424532 -0.058879815 0.438521385
11473132 -0.057396057 0.438039571
11521732 -0.055981647 0.437611818
11570432 -0.054367776 0.437439173
11619032 -0.052857767 0.436917543
11667632 -0.051535312 0.436417758
11716332 -0.050147268 0.436095029
11764932 -0.048536136 0.435707002
11813532 -0.04723237 0.435324609
11862132 -0.045720633 0.434754043
11910832 -0.044409431 0.434389233
11959432 -0.042740065 0.434201359
12008032 -0.041539207 0.433682799
12056632 -0.040165483 0.433249413
12105332 -0.038630008 0.432783097
12153932 -0.03738847 0.432350903
12202532 -0.035855989 0.431946009
12251232 -0.034665849 0.431717872
12299832 -0.033240992 0.431166589
12348432 -0.031953748 0.430688679
12397032 -0.030501611 0.430253595
12445732 -0.029171587 0.429623425
12494332 -0.027839493 0.429355084
12542932 -0.026401361 0.429189175
12591632 -0.02518001 0.428480297
12640232 -0.023742388 0.428203582
12688832 -0.022457281 0.427794486
12737432 -0.021232964 0.427388608
12786132 -0.020008463 0.426863491
12834732 -0.018641991 0.426393419
12883332 -0.017506204 0.42606011
12932032 -0.016179509 0.425569593
12980632 -0.014879235 0.425103634
13029232 -0.01360934 0.424704581
13077832 -0.012412588 0.424258649
13126532 -0.01092767 0.423823386
13175132 -0.009950754 0.423290759
13223732 -0.008667129 0.422994107
13272332 -0.007478281 0.422630667
13321032 -0.006359203 0.422288954
13369632 -0.004985252 0.421864509
13418232 -0.003728086 0.421480089
13466932 -0.002603802 0.421088993
13515532 -0.001437354 0.420705616
13564132 -0.000180022 0.420063734
13612732 0.00095481 0.419629901
13661432 0.002160197 0.419356971
13710032 0.003290437 0.418622612
13758632 0.004410097 0.418332278
13807332 0.00548448 0.417988926
13855932 0.00676208 0.41745463
13904532 0.007698081 0.417298585
13953132 0.00896345 0.416613668
14001832 0.010216547 0.416368156
14050432 0.011273114 0.415916651
14099032 0.012384025 0.41540873
14147732 0.013529362 0.414937257
14147747 0.013545628 0.414987713
14202847 0.014872247 0.414348483
14257947 0.016018368 0.414030909
14313047 0.017329229 0.413459092
14368247 0.01854816 0.413049638
14423347 0.019644953 0.412650138
14478447 0.020982295 0.41190052
14533647 0.022331265 0.411633133
14588747 0.023388553 0.410947084
14643847 0.02478701 0.410564839
14699047 0.025849532 0.410096794
14754147 0.026992868 0.409651547
14809247 0.028216402 0.409201323
14864347 0.029312808 0.40857014
14919547 0.030616458 0.408224821
14974647 0.031760852 0.407552242
15029747 0.032895471 0.407224059
15084947 0.033959984 0.406654357
15140047 0.035147249 0.406324803
15195147 0.036258179 0.405704408
15250347 0.037388291 0.405243635
15305447 0.038496024 0.404582202
15360547 0.039691239 0.404023826
15415647 0.040641773 0.40374729
15470847 0.041804678 0.403211474
15525947 0.043072562 0.402743309
15581047 0.044141046 0.402202337
15636247 0.045090761 0.401744663
15691347 0.04607563 0.401152014
15746447 0.047339014 0.400720387
15801647 0.048258263 0.400206208
15856747 0.049422029 0.3998833
15911847 0.050330158 0.399285137
15966947 0.051395822 0.398819774
16022147 0.052592083 0.398270189
16077247 0.053480263 0.397750437
16132347 0.054521556 0.397293657
16187547 0.055666975 0.39692083
16242647 0.056611843 0.396402627
16297747 0.057544168 0.395921468
16352947 0.05862499 0.395378381
16408047 0.059620678 0.394911795
16463147 0.060576576 0.394435971
16518247 0.061557356 0.3938376
16573447 0.06263449 0.393374502
16628547 0.063511244 0.392915248
16683647 0.06436266 0.392447173
16738847 0.065578587 0.391967713
16793947 0.066407427 0.391490489
16849047 0.067295022 0.391066819
16904247 0.068319104 0.390427798
16959347 0.069131545 0.389945298
17014447 0.069998525 0.389487922
17069547 0.07110355 0.388929814
17124747 0.072074659 0.388548672
17179847 0.072937883 0.388068497
17234947 0.073834046 0.387584388
17290147 0.074728287 0.387191176
17345247 0.075734786 0.386618167
17400347 0.076610714 0.386245876
17455547 0.077424488 0.385788857
17510647 0.078365184 0.385238677
17565747 0.079242311 0.384692758
17620847 0.080064959 0.384221434
17676047 0.080974631 0.383902072
17731147 0.081915847 0.383397161
17786247 0.082678593 0.382955074
17841447 0.083674035 0.3824099
17896547 0.084588706 0.382038146
17951647 0.08534 0.381448358
18006847 0.086153559 0.381005316
18061947 0.086956627 0.380614519
18117047 0.087763302 0.380010098
18172147 0.088683329 0.379654377
18227347 0.089319862 0.379179388
18282447 0.090413168 0.378819078
18337547 0.091169692 0.378259032
18392747 0.091949664 0.377528995
18447847 0.092869922 0.377328217
18502947 0.093584775 0.376817494
18558147 0.094381794 0.376270383
18613247 0.095259271 0.375909179
18668347 0.096061959 0.375446379
18723447 0.096660465 0.374876976
18778647 0.097710452 0.374415725
18833747 0.098389297 0.373938053
18888847 0.099086314 0.373545587
18944047 0.100056573 0.37302652
18999147 0.100795432 0.37264952
19054247 0.10158012 0.372356325
19109447 0.102359503 0.371543675
19164547 0.102994062 0.371254831
19219647 0.103813409 0.370778799
19274747 0.10448233 0.370338469
19329947 0.105332724 0.369806349
19385047 0.106118232 0.369396597
19440147 0.106804639 0.368860006
19495347 0.10750959 0.368352323
19550447 0.108059257 0.368093341
19605547 0.109125949 0.36760962
19660747 0.109897963 0.367313832
19660752 0.109655432 0.36724925
19724352 0.11071594 0.366688728
19787952 0.111472003 0.366187512
19851652 0.112288482 0.365599811
19915252 0.113061867 0.36499533
19978952 0.113766573 0.364490598
20042552 0.114703461 0.364111691
20106152 0.115318372 0.363449007
20169852 0.116443917 0.363129764
20233452 0.117264576 0.362540572
20297152 0.118018075 0.362096369
20360752 0.118734881 0.361564725
20424452 0.119450122 0.361052393
20488052 0.120393022 0.360615015
20551652 0.121220521 0.360168993
20615352 0.12178339 0.359561264
20678952 0.12250705 0.359122216
20742652 0.123345926 0.35862115
20806252 0.124009273 0.357880979
20869852 0.124867543 0.35762915
20933552 0.125603169 0.357001572
20997152 0.126413077 0.356600224
21060852 0.12726356 0.356153249
21124452 0.127798348 0.355572491
21188152 0.128663361 0.35520929
21251752 0.129157006 0.354667842
21315352 0.129969164 0.354162335
21379052 0.130730554 0.353812396
21442652 0.131521329 0.353155106
21506352 0.132229298 0.352648288
21569952 0.132920697 0.352187305
21633652 0.133561834 0.351865321
21697252 0.134409531 0.351390957
21760852 0.135129168 0.350818157
21824552 0.135898709 0.350363433
21888152 0.136390402 0.349829465
21951852 0.137264549 0.349225997
22015452 0.137828558 0.34888029
22079052 0.138584077 0.348194926
22142752 0.139229953 0.347939342
22206352 0.140019878 0.347508698
22270052 0.140745148 0.347035408
22333652 0.141281723 0.346603423
22397352 0.142063841 0.346246838
22460952 0.142602294 0.345589667
22524552 0.143254205 0.345120161
22588252 0.143867418 0.344620019
22651852 0.144552484 0.344399392
22715552 0.145176813 0.343867659
22779152 0.145932152 0.343444168
22842852 0.146547362 0.342825204
22906452 0.147169843 0.34257555
22970052 0.147714495 0.342038542
23033752 0.148340985 0.341611593
23097352 0.149120762 0.341042935
23161052 0.149740725 0.340775281
23224652 0.150236532 0.340177565
23288252 0.150932759 0.339803755
23351952 0.151551038 0.33933866
23415552 0.151993945 0.339053243
23479252 0.152707695 0.33872348
23542852 0.153301462 0.338179796
23606552 0.153939098 0.337596476
23670152 0.154703393 0.337210834
23733752 0.155100911 0.336846739
23797452 0.155783608 0.336281538
23861052 0.156337887 0.336076229
23924752 0.156826987 0.335545003
23988352 0.157531753 0.334949463
24051952 0.158325374 0.33464989
24115652 0.158700183 0.33430621
24179252 0.159275591 0.334137022
24242952 0.160013139 0.333510428
24306552 0.160514667 0.333032548
24370252 0.161032885 0.332715153
24433852 0.161687478 0.332334995
24497452 0.1621425 0.331739187
24561152 0.162700474 0.331482559
24624752 0.163430005 0.330815285
24688452 0.163800492 0.330380111
24752052 0.164550915 0.33011344
24815752 0.165128663 0.329721987
24879352 0.165497839 0.329358577
24942952 0.166112437 0.328937053
25006652 0.166771247 0.328662276
25070252 0.167289361 0.328083008
25133952 0.167744189 0.327779501
25197552 0.168273299 0.327230185
25261152 0.1686185 0.326798379
25324852 0.169221252 0.326409786
25388452 0.169941633 0.325927436
25452152 0.170301422 0.325701534
25515752 0.170859903 0.325067281
25579452 0.171266034 0.324807256
25643052 0.171874105 0.324443727
25706652 0.172357201 0.323998928
25770352 0.172978773 0.323633253
25833952 0.173189669 0.323214828
25897652 0.173773989 0.32277134
25961252 0.174474418 0.32242769
26024952 0.174932152 0.322139889
26025048 0.174816027 0.322048127
26100248 0.17562364 0.321636885
26175548 0.176171794 0.321105778
26250848 0.176614224 0.320667177
26326048 0.177253484 0.320455521
26401348 0.177913635 0.31986624
26476648 0.178381845 0.31928879
26551948 0.179045394 0.318995922
26627148 0.179547771 0.318393498
26702448 0.180084303 0.317914158
26777748 0.180627301 0.317573726
26853048 0.181101024 0.317162841
26928248 0.181794434 0.3167755
27003548 0.1822654 0.316158592
27078848 0.182871833 0.315731465
27154048 0.183353632 0.315307527
27229348 0.183986112 0.314892411
27304648 0.18466793 0.314405053
27379948 0.185039877 0.313924729
27455148 0.185513108 0.313526451
27530448 0.18603985 0.313201725
27605748 0.186656981 0.312676131
27681048 0.187237918 0.312204778
27756248 0.187643989 0.311871856
27831548 0.188329041 0.311360895
27906848 0.188790366 0.310950815
27982048 0.189387455 0.310687452
28057348 0.18985854 0.310193359
28132648 0.190329194 0.309669941
28207948 0.190820485 0.309346199
28283148 0.191445142 0.308799237
28358448 0.19186452 0.308483064
28433748 0.192393094 0.308111876
28509048 0.193010598 0.307632863
28584248 0.193388089 0.307229906
28659548 0.193883419 0.306746989
28734848 0.194598481 0.306371361
28810148 0.195074066 0.305972903
28885348 0.195422396 0.305599331
28960648 0.195856362 0.305101066
29035948 0.196274369 0.304738014
29111148 0.196736305 0.304224938
29186448 0.197408884 0.303953945
29261748 0.197776079 0.303531885
29337048 0.198332861 0.303360462
29412248 0.19883129 0.302729815
29487548 0.199297338 0.302290558
29562848 0.1997509 0.301951408
29638148 0.200343877 0.30149427
29713348 0.20075497 0.301135689
29788648 0.201195865 0.300866663
29863948 0.201823189 0.30039528
29939148 0.202183187 0.300020426
30014448 0.202526956 0.299632549
30089748 0.203027263 0.299305915
30165048 0.203555345 0.298853993
30240248 0.203913658 0.298530906
30315548 0.204419508 0.298168987
30390848 0.20499888 0.297805935
30466148 0.205261394 0.29729402
30541348 0.205832034 0.296833008
30616648 0.20627883 0.296638965
30691948 0.206671997 0.296157419
30767148 0.207101568 0.295758396
30842448 0.20767194 0.295432955
30917748 0.208011522 0.294979155
30993048 0.208428785 0.294664174
31068248 0.20884779 0.294442772
31143548 0.209215208 0.294164091
31218848 0.209712699 0.293498367
31294148 0.210107922 0.293068557
31369348 0.210591569 0.292832434
31444648 0.211041182 0.292473107
31519948 0.211493954 0.292148798
31595248 0.211768627 0.291606247
31670448 0.212374612 0.291309833
31745748 0.212712764 0.29093331
31821048 0.213141426 0.290743052
31896248 0.213637962 0.290260374
31971548 0.214025139 0.289873719
32046848 0.214468598 0.289617866
32122148 0.214765354 0.289144903
32197348 0.215179234 0.288801074
32272648 0.215597793 0.288430988
32347948 0.216022521 0.288036763
32423248 0.216394454 0.287686675
32498448 0.216875612 0.287268698
32573748 0.21711634 0.287172466
32649048 0.217562213 0.286685556
32724248 0.218078404 0.286242157
32799548 0.218504115 0.286003351
32874848 0.21877548 0.285759508
32950148 0.219222053 0.285290926
33025348 0.219625771 0.28483662
33100648 0.219834044 0.284544318
33175948 0.220493689 0.284115374
33251248 0.22078076 0.283958822
33326448 0.221198022 0.283507823
33401748 0.221449881 0.283076405
33477048 0.221928745 0.28278923
33552348 0.222339496 0.282458066
33552414 0.222246438 0.282756626
