# HZ S RI R 50
50000 -0.99777919 0.002958926
98000 -0.998492836 0.021253345
146100 -0.997251689 0.037229653
194200 -0.995970189 0.052640754
242200 -0.994084119 0.067762352
290300 -0.991506755 0.082859396
338400 -0.988413035 0.098041318
386400 -0.984465062 0.113432027
434500 -0.979386866 0.128634929
482600 -0.973365187 0.143485665
530600 -0.966372787 0.157799348
578700 -0.958496153 0.171495616
626800 -0.94972831 0.184494167
674800 -0.94060719 0.196159347
722900 -0.931046307 0.207102239
771000 -0.92110902 0.217114686
819000 -0.911104381 0.226327702
867100 -0.901210665 0.234826996
915200 -0.891423106 0.242382451
963200 -0.881742715 0.249454051
1011300 -0.872231245 0.25595501
1059400 -0.86295849 0.261619687
1107400 -0.853914976 0.266848683
1155500 -0.845038712 0.27151224
1203600 -0.836401224 0.276171982
1251700 -0.828137755 0.279991686
1299700 -0.820291459 0.283944457
1347800 -0.812225282 0.287459224
1395900 -0.804556012 0.290997534
1443900 -0.797361373 0.29406315
1492000 -0.790211975 0.297166675
1540100 -0.783344566 0.299991309
1588100 -0.77643454 0.302652746
1636200 -0.769921362 0.305494993
1684300 -0.763418495 0.307812213
1732300 -0.756823301 0.310059398
1780400 -0.750598788 0.312600195
1828500 -0.744565546 0.314597845
1876500 -0.738590061 0.316789865
1924600 -0.732850492 0.318800479
1972700 -0.727145314 0.32095471
2020700 -0.721661627 0.322759389
2068800 -0.715997636 0.324693083
2116900 -0.710557043 0.326533019
2164900 -0.705287098 0.328252822
2213000 -0.700168371 0.329962283
2261100 -0.694819986 0.331697553
2309100 -0.689449965 0.333378791
2357200 -0.684512317 0.334826737
2405300 -0.679446876 0.336269259
2453400 -0.674382746 0.337626665
2501400 -0.669539868 0.339031577
2549500 -0.664846479 0.340397745
2597600 -0.660131394 0.341566234
2645600 -0.655578017 0.342893391
2693700 -0.650877475 0.344076424
2741800 -0.646365702 0.345313876
2789800 -0.641802847 0.346249371
2837900 -0.637287557 0.347463876
2886000 -0.632968127 0.348240971
2934000 -0.628521859 0.349206894
2982100 -0.624073982 0.350207895
3030200 -0.619771599 0.351140558
3078200 -0.615644454 0.351999938
3126300 -0.61150521 0.3530294
3174400 -0.607385873 0.35383135
3222400 -0.603414773 0.354607462
3270500 -0.599255561 0.355351716
3318600 -0.595284581 0.355996131
3366600 -0.591588258 0.356647223
3414700 -0.58765161 0.357254624
3462800 -0.58355987 0.357843965
3510800 -0.579862594 0.358559042
3558900 -0.575984299 0.359038323
3607000 -0.572200715 0.359437406
3655100 -0.568611323 0.360023319
3703100 -0.564834594 0.360295683
3751200 -0.561401128 0.3609595
3799300 -0.557921707 0.361181855
3847300 -0.554283559 0.36178115
3895400 -0.550617754 0.362046509
3943500 -0.547115027 0.362377256
3991500 -0.543673813 0.362662822
4039600 -0.540429055 0.362852603
4087700 -0.536877036 0.363241344
4135700 -0.533455133 0.363532483
4183800 -0.530433595 0.363843947
4231900 -0.527142465 0.363991469
4279900 -0.52404052 0.364217638
4328000 -0.52063775 0.364166557
4376100 -0.517385601 0.364366739
4424100 -0.514446675 0.364468485
4472200 -0.511403799 0.364660888
4520300 -0.508209526 0.36478734
4568300 -0.505135476 0.36490184
4616400 -0.502156913 0.364876955
4664500 -0.499174863 0.365066528
4712500 -0.496127933 0.364934772
4760600 -0.493368893 0.365155249
4808700 -0.490542948 0.36491993
4856800 -0.487544268 0.365068644
4856865 -0.48755306 0.365175694
4907365 -0.484614521 0.364918857
4957865 -0.481701195 0.364989906
5008465 -0.478774636 0.364694297
5058965 -0.475736528 0.364802211
5109465 -0.472925961 0.36458081
5160065 -0.470207452 0.364691644
5210565 -0.467350274 0.364578008
5261065 -0.464728742 0.364284187
5311665 -0.461738586 0.364258766
5362165 -0.459375381 0.364138305
5412665 -0.456502825 0.364108681
5463265 -0.453884452 0.363740026
5513765 -0.451195657 0.363621443
5564265 -0.448827177 0.363390505
5614865 -0.44602549 0.363397091
5665365 -0.443579524 0.362962067
5715865 -0.440923213 0.363050371
5766465 -0.438689202 0.362645059
5816965 -0.436067909 0.362461507
5867465 -0.433864593 0.362184852
5918065 -0.431452542 0.361876636
5968565 -0.428917735 0.361468225
6019065 -0.426902174 0.361187875
6069665 -0.424594581 0.360919713
6120165 -0.422371715 0.360396862
6170665 -0.420378059 0.359925031
6221265 -0.418531984 0.359487861
6271765 -0.416384488 0.358890265
6322265 -0.414606869 0.35854578
6372865 -0.412971168 0.357841938
6423365 -0.411166131 0.357306331
6473865 -0.409588217 0.356731534
6524465 -0.408045113 0.356343656
6574965 -0.405902147 0.356254249
6625465 -0.403650492 0.356393337
6676065 -0.400924742 0.356266051
6726565 -0.398157 0.356150269
6777065 -0.395540356 0.356236845
6827665 -0.392838448 0.35587579
6878165 -0.39038518 0.355762153
6928665 -0.388156294 0.355476945
6979265 -0.385897338 0.355493813
7029765 -0.383659094 0.355628967
7080265 -0.381768345 0.354978919
7130865 -0.380145728 0.354578912
7181365 -0.378289997 0.354252785
7231865 -0.376570135 0.353769183
7282465 -0.374807387 0.353238642
7332965 -0.373136788 0.35276854
7383565 -0.371282964 0.352074444
7434065 -0.36951363 0.351834237
7484565 -0.367755174 0.351398497
7535165 -0.365941226 0.35088256
7585665 -0.364443123 0.350489884
7636165 -0.362602919 0.350059539
7686765 -0.360706716 0.349560946
7737265 -0.359163731 0.349217057
7787765 -0.357343792 0.34886077
7838365 -0.355860829 0.348373532
7888865 -0.354007005 0.348124027
7939365 -0.352431416 0.347772061
7989965 -0.350937426 0.347244977
8040465 -0.34924367 0.346793085
8090965 -0.347836285 0.346364885
8141565 -0.346139878 0.346089214
8192065 -0.344566792 0.345576912
8242565 -0.343149542 0.345389246
8293165 -0.341585695 0.344677358
8343665 -0.339952856 0.344356864
8394165 -0.338560461 0.343989253
8444765 -0.337253242 0.343465179
8495265 -0.335688352 0.343106955
8545765 -0.334364712 0.342698842
8596365 -0.332946807 0.342254906
8646865 -0.331429988 0.341935545
8697365 -0.330082207 0.341500163
8747965 -0.328679263 0.341114163
8798465 -0.32733184 0.340766131
8848965 -0.32590416 0.3403382
8899565 -0.324460983 0.339743435
8950065 -0.323255062 0.339657127
9000565 -0.321721553 0.339146822
9051165 -0.320619195 0.338688105
9101665 -0.319237738 0.338325232
9152165 -0.318086355 0.337806969
9202765 -0.316785812 0.337293505
9253265 -0.315562218 0.337039917
9303765 -0.314326703 0.33664897
9354365 -0.313152611 0.33594799
9404865 -0.311983048 0.335721194
9455365 -0.310559839 0.335324287
9505965 -0.309463262 0.334909528
9556465 -0.308330386 0.334439903
9606965 -0.307103842 0.334262311
9657565 -0.305804401 0.333422183
9708065 -0.304770797 0.333397686
9758565 -0.303613364 0.332869201
9809165 -0.302387446 0.33257234
9859665 -0.301317542 0.332118451
9910265 -0.300297945 0.331732809
9910342 -0.300115883 0.331679552
9963542 -0.299082159 0.33114928
10016842 -0.297685831 0.330985575
10070142 -0.296629756 0.330420583
10123342 -0.295439094 0.330000311
10176642 -0.294527679 0.329559177
10229942 -0.293319433 0.329272747
10283142 -0.29210779 0.328935444
10336442 -0.290987759 0.328519135
10389742 -0.290056914 0.327982932
10442942 -0.288752228 0.32766658
10496242 -0.287797391 0.327266693
10549542 -0.286710202 0.326778739
10602742 -0.285521686 0.326605886
10656042 -0.284672737 0.326018482
10709342 -0.283738195 0.325675249
10762542 -0.282603949 0.325331985
10815842 -0.281554162 0.325015395
10869142 -0.280547678 0.32443428
10922342 -0.279491811 0.324249893
10975642 -0.278528183 0.323972135
11028942 -0.277524352 0.32356581
11082142 -0.276423335 0.323275744
11135442 -0.275478839 0.322694629
11188742 -0.274387717 0.322244316
11241942 -0.273607552 0.321981012
11295242 -0.272490322 0.321473687
11348542 -0.271675884 0.321075826
11401742 -0.270660638 0.320882588
11455042 -0.269788265 0.320562392
11508342 -0.268958538 0.320084482
11561542 -0.267850071 0.319686532
11614842 -0.267042577 0.319462954
11668142 -0.266025692 0.318962901
11721342 -0.265212923 0.318585783
11774642 -0.264329493 0.318409323
11827942 -0.263408213 0.317979305
11881142 -0.262454569 0.317626088
11934442 -0.261682361 0.317295491
11987742 -0.26080963 0.316940128
12040942 -0.259895831 0.316634535
12094242 -0.259337723 0.316232293
12147542 -0.258383631 0.315931946
12200742 -0.25742796 0.315694391
12254042 -0.256761521 0.315186202
12307342 -0.255980253 0.314942985
12360542 -0.255135506 0.314549416
12413842 -0.254107624 0.31425926
12467142 -0.253675729 0.31384921
12520342 -0.252762615 0.313493251
12573642 -0.252019584 0.313253968
12626942 -0.251262962 0.312858402
12680142 -0.25040555 0.312711954
12733442 -0.249598383 0.312298417
12786742 -0.248953834 0.31193152
12839942 -0.248215436 0.311577171
12893242 -0.24745959 0.311251431
12946542 -0.246733888 0.310927033
12999742 -0.245904415 0.310842692
13053042 -0.245206788 0.310449302
13106342 -0.244538769 0.310175597
13159542 -0.243786111 0.309884637
13212842 -0.243148252 0.309595763
13266142 -0.242379635 0.309336155
13319342 -0.241743266 0.308808445
13372642 -0.241072446 0.308757245
13425942 -0.240353241 0.308607816
13479142 -0.239751547 0.308273196
13532442 -0.239047706 0.308072656
13585742 -0.238114133 0.307709902
13638942 -0.237726628 0.307466298
13692242 -0.237072512 0.307056754
13745542 -0.236356541 0.306817322
13798742 -0.235749676 0.306589752
13852042 -0.235079318 0.306284874
13905342 -0.234321847 0.30602476
13958542 -0.233718231 0.305941611
14011842 -0.23318763 0.305463105
14065142 -0.232208892 0.305123031
14118342 -0.231860667 0.305086344
14171642 -0.23109816 0.304738461
14224942 -0.230570241 0.304377138
14278142 -0.229858562 0.304339319
14331442 -0.229328021 0.304042875
14384742 -0.228797614 0.303648471
14437942 -0.228084892 0.303491503
14491242 -0.227512598 0.303210973
14544542 -0.226776003 0.302927851
14597742 -0.226418912 0.302740573
14651042 -0.225539103 0.302494764
14704342 -0.225055515 0.302231222
14757542 -0.22452189 0.302102744
14810842 -0.223848447 0.301826179
14864142 -0.223403573 0.301582425
14917342 -0.222846761 0.301353037
14970642 -0.222082316 0.30108571
15023942 -0.221547365 0.301025152
15077142 -0.220978245 0.300852388
15130442 -0.220514312 0.300467878
15183742 -0.21996659 0.300373613
15237042 -0.219435036 0.300088942
15237110 -0.219121173 0.300156354
15293410 -0.218584924 0.299945682
15349710 -0.218166708 0.299786657
15406010 -0.217464372 0.29941681
15462310 -0.216957077 0.299210965
15518610 -0.216432005 0.298951715
15574910 -0.215922921 0.298990666
15631210 -0.215297713 0.298553675
15687610 -0.214624613 0.298551529
15743910 -0.214087083 0.298284083
15800210 -0.213480412 0.29806146
15856510 -0.21304731 0.297840774
15912810 -0.212561056 0.297584831
15969110 -0.211851552 0.297382175
16025410 -0.211375147 0.297234147
16081710 -0.21076174 0.297236859
16138110 -0.210419461 0.296834856
16194410 -0.209781616 0.296831697
16250710 -0.209184721 0.296489506
16307010 -0.208922311 0.296296149
16363310 -0.208178475 0.296345919
16419610 -0.207792699 0.296140909
16475910 -0.207086548 0.295771718
16532210 -0.206732809 0.295591205
16588610 -0.206105858 0.29542607
16644910 -0.205773353 0.295200824
16701210 -0.20509018 0.295164793
16757510 -0.204697266 0.294814318
16813810 -0.204177513 0.294819563
16870110 -0.203591316 0.294588416
16926410 -0.203250586 0.294466406
16982810 -0.202602893 0.294349312
17039110 -0.202353894 0.29423505
17095410 -0.20166701 0.294054627
17151710 -0.201253667 0.293844759
17208010 -0.200871244 0.293697088
17264310 -0.200299397 0.293447643
17320610 -0.199742734 0.293513178
17376910 -0.199213027 0.293176054
17433310 -0.198769032 0.293086558
17489610 -0.198311537 0.292904168
17545910 -0.198016986 0.292747199
17602210 -0.197424337 0.292642116
17658510 -0.196899622 0.29244244
17714810 -0.196432545 0.29242435
17771110 -0.195970863 0.292145013
17827410 -0.195647254 0.292047411
17883810 -0.195113316 0.291999489
17940110 -0.194644734 0.291840076
17996410 -0.194348067 0.291755288
18052710 -0.193819254 0.291555047
18109010 -0.193499624 0.291457772
18165310 -0.192813441 0.291383773
18221610 -0.192377611 0.29111135
18278010 -0.192003235 0.291033118
18334310 -0.191432371 0.290839672
18390610 -0.19117242 0.290721416
18446910 -0.190763205 0.290602654
18503210 -0.190326958 0.290482819
18559510 -0.189912781 0.290339529
18615810 -0.189553201 0.29020524
18672110 -0.189037129 0.29023981
18728510 -0.188680514 0.290079653
18784810 -0.188332274 0.28998062
18841110 -0.187926232 0.289754152
18897410 -0.187406584 0.289735257
18953710 -0.187040328 0.289670258
19010010 -0.186583817 0.289433598
19066310 -0.186190351 0.28941217
19122610 -0.185820743 0.289252042
19179010 -0.185362711 0.28920421
19235310 -0.184997305 0.289091914
19291610 -0.184637963 0.289168894
19347910 -0.184271946 0.288916468
19404210 -0.183793798 0.288980245
19460510 -0.183454394 0.28857392
19516810 -0.182909339 0.288567692
19573210 -0.182646304 0.288540959
19629510 -0.182257369 0.288477689
19685810 -0.181858956 0.288418143
19742110 -0.181474283 0.288180768
19798410 -0.181189462 0.288080394
19854710 -0.180699616 0.288104295
19911010 -0.180205225 0.288049608
19967310 -0.179815009 0.28782311
20023710 -0.179545953 0.287716865
20080010 -0.179047361 0.287775933
20136310 -0.178700968 0.287645727
20192610 -0.178453251 0.287463217
20248910 -0.177899152 0.287403881
20305210 -0.177587211 0.287433147
20361510 -0.177271276 0.287329375
20417810 -0.176995277 0.287190854
20474210 -0.176526084 0.287187486
20530510 -0.175984948 0.287102907
20586810 -0.175794243 0.286993116
20643110 -0.17533876 0.286998361
20699410 -0.17509596 0.286885738
20755710 -0.174556002 0.286778509
20812010 -0.174264341 0.286728322
20868410 -0.17402479 0.286651581
20868424 -0.173702538 0.286788731
20928124 -0.173407003 0.286697238
20987824 -0.173127725 0.286581516
21047524 -0.172701537 0.286546289
21107324 -0.172216698 0.286415994
21167024 -0.171871393 0.286486178
21226724 -0.171686396 0.286201149
21286424 -0.171219617 0.2861633
21346224 -0.170888409 0.286198884
21405924 -0.170486465 0.286248445
21465624 -0.170187368 0.286061257
21525424 -0.169795721 0.286059468
21585124 -0.169437915 0.28589937
21644824 -0.169141009 0.285882294
21704524 -0.168712124 0.285837024
21764324 -0.168350696 0.285703003
21824024 -0.167916953 0.285771936
21883724 -0.167557954 0.285718739
21943524 -0.16742821 0.285602182
22003224 -0.166871115 0.285621047
22062924 -0.166645571 0.28554821
22122624 -0.16619879 0.285449564
22182424 -0.165871426 0.285309702
22242124 -0.165612474 0.285346597
22301824 -0.165254741 0.285248219
22361624 -0.165025129 0.285265505
22421324 -0.164702609 0.285185098
22481024 -0.164146393 0.28521496
22540724 -0.163914784 0.285082459
22600524 -0.163566485 0.284960389
22660224 -0.163332507 0.284954249
22719924 -0.163049787 0.285113841
22779624 -0.162607759 0.284886658
22839424 -0.162366792 0.28491795
22899124 -0.162026241 0.285014271
22958824 -0.161669731 0.284927576
23018624 -0.161343634 0.284714341
23078324 -0.160975977 0.28470388
23138024 -0.160731196 0.284766435
23197724 -0.160059019 0.28474009
23257524 -0.159818381 0.284719288
23317224 -0.159633174 0.284740686
23376924 -0.15927644 0.284641295
23436724 -0.158875331 0.284735053
23496424 -0.15871717 0.284628331
23556124 -0.158317178 0.28458172
23615824 -0.158010765 0.284531414
23675624 -0.157708182 0.284617364
23735324 -0.157379329 0.284562587
23795024 -0.157001227 0.284662872
23854824 -0.15691705 0.284436821
23914524 -0.156444251 0.284706175
23974224 -0.1560781 0.284454017
24033924 -0.155749469 0.284626275
24093724 -0.15544337 0.284560203
24153424 -0.155020236 0.284532815
24213124 -0.154777765 0.284476935
24272824 -0.154609933 0.284470915
24332624 -0.154250115 0.284447073
24392324 -0.153909415 0.28450486
24452024 -0.153522819 0.284501343
24511824 -0.153258815 0.284469574
24571524 -0.152907416 0.284511715
24631224 -0.152548655 0.28456062
24690924 -0.152377903 0.284502655
24750724 -0.151960074 0.284479677
24810424 -0.151656687 0.284466147
24870124 -0.151321083 0.284543603
24929924 -0.151064634 0.284592658
24989624 -0.150850638 0.28436619
25049324 -0.150367766 0.284516572
25109024 -0.150048017 0.28447014
25168824 -0.149822905 0.284490287
25228524 -0.14956513 0.28437069
25288224 -0.14919801 0.284512937
25348024 -0.148886442 0.284580022
25407724 -0.14869152 0.284563958
25467424 -0.148296102 0.28458029
25527124 -0.148144572 0.284718036
25586924 -0.147590175 0.284607648
25646624 -0.147514671 0.284630715
25706324 -0.147053778 0.284652322
25766024 -0.146837756 0.284570425
25825824 -0.146485924 0.284804582
25885524 -0.146366864 0.284665107
25945224 -0.14596416 0.284816384
26005024 -0.145813956 0.284684658
26064724 -0.145484954 0.284720778
26124424 -0.145029574 0.284602999
26184124 -0.144926548 0.284693539
26243924 -0.144571557 0.284618407
26303624 -0.144308164 0.284668833
26363324 -0.143992155 0.28466615
26423124 -0.143838509 0.284651637
26482824 -0.143447354 0.284677177
26542524 -0.142971098 0.284545511
26602224 -0.14300099 0.284643769
26662024 -0.14255397 0.284828007
26721724 -0.142425909 0.284632831
26781424 -0.142169952 0.284868955
26841224 -0.141623541 0.284704148
26841236 -0.141841426 0.284789502
26904736 -0.141393855 0.284797996
26968336 -0.140953257 0.284771591
27031936 -0.140699788 0.28481552
27095536 -0.140533223 0.284785568
27159136 -0.140142202 0.284843444
27222736 -0.139838963 0.285010367
27286236 -0.139481708 0.28513357
27349836 -0.139247059 0.28517425
27413436 -0.138985961 0.285232722
27477036 -0.138677537 0.285375565
27540636 -0.138312563 0.285136163
27604236 -0.137947261 0.285281091
27667736 -0.137740492 0.285149365
27731336 -0.13764666 0.28537333
27794936 -0.13733673 0.285353243
27858536 -0.136742219 0.285411
27922136 -0.136428534 0.285425215
27985736 -0.136409953 0.285543471
28049236 -0.13609834 0.285528749
28112836 -0.135771572 0.285604298
28176436 -0.13565281 0.285612285
28240036 -0.135173723 0.28554967
28303636 -0.134941011 0.285755991
28367236 -0.134671092 0.285725533
28430836 -0.13434717 0.285780578
28494336 -0.134233146 0.285895526
28557936 -0.133863851 0.285870462
28621536 -0.133525356 0.285666763
28685136 -0.133353605 0.285809576
28748736 -0.132929772 0.285914689
28812336 -0.132549136 0.285916686
28875836 -0.132369384 0.286037355
28939436 -0.132179275 0.286148428
29003036 -0.131779417 0.286073476
29066636 -0.131547883 0.286242038
29130236 -0.131338566 0.28627628
29193836 -0.131148472 0.28606674
29257336 -0.130765795 0.286180287
29320936 -0.130668312 0.286415427
29384536 -0.130300939 0.286415994
29448136 -0.13011983 0.286320418
29511736 -0.129842609 0.286572754
29575336 -0.129604846 0.286513119
29638836 -0.129296377 0.286663919
29702436 -0.128982231 0.286646336
29766036 -0.128666967 0.2866337
29829636 -0.128473758 0.286814272
29893236 -0.128325402 0.28676176
29956836 -0.127831026 0.286828845
30020436 -0.127608194 0.286952793
30083936 -0.127392679 0.286995142
30147536 -0.127222627 0.286985009
30211136 -0.126734018 0.287222981
30274736 -0.126734554 0.287221163
30338336 -0.126318514 0.28717342
30401936 -0.126030936 0.2872321
30465436 -0.125880807 0.2873708
30529036 -0.125471249 0.287195235
30592636 -0.125207528 0.287280619
30656236 -0.125026658 0.287499547
30719836 -0.124858938 0.287449687
30783436 -0.124486766 0.287614166
30846936 -0.124181069 0.287684202
30910536 -0.124119445 0.287769943
30974136 -0.123758889 0.287850677
31037736 -0.123497828 0.287883013
31101336 -0.123267263 0.287872254
31164936 -0.122982189 0.288088023
31228436 -0.122974507 0.288196474
31292036 -0.122538439 0.288300246
31355636 -0.122377127 0.288275957
31419236 -0.122160173 0.288279563
31482836 -0.121603444 0.288460403
31546436 -0.121574431 0.288430601
31610036 -0.121192224 0.288484275
31673536 -0.120979174 0.288533389
31737136 -0.120735466 0.288792878
31800736 -0.120473779 0.288621813
31864336 -0.120264485 0.288863599
31927936 -0.120020665 0.288856506
31991536 -0.119696617 0.288970232
32055036 -0.119440972 0.289054483
32118636 -0.11928457 0.289254486
32182236 -0.118996672 0.289104104
32245836 -0.118611417 0.289234578
32309436 -0.118281215 0.289199739
32373036 -0.118244171 0.289455294
32436536 -0.1178632 0.289262473
32500136 -0.117616936 0.289383292
32563736 -0.117489896 0.289380788
32627336 -0.117200233 0.289695769
32690936 -0.116841159 0.289637535
