# HZ S RI R 50
1000000 -0.91411674 0.205738887
1039300 -0.910354137 0.212380021
1078600 -0.906918406 0.218767181
1118000 -0.903246402 0.225290074
1157300 -0.899408161 0.231737926
1196700 -0.895627379 0.237910121
1236000 -0.89175558 0.244284793
1275400 -0.887773931 0.250355631
1314700 -0.883938908 0.256420642
1354100 -0.879846513 0.262505024
1393400 -0.875505328 0.268472701
1432800 -0.87139827 0.274143099
1472100 -0.867243945 0.2799443
1511500 -0.8628515 0.285354435
1550800 -0.858548939 0.290893703
1590200 -0.854206085 0.296302616
1629500 -0.849792897 0.301734864
1668900 -0.845310568 0.306829124
1708200 -0.840662121 0.311937808
1747600 -0.836135804 0.316871792
1786900 -0.831504106 0.321902871
1826300 -0.827089428 0.326613873
1865600 -0.822263777 0.331350415
1905000 -0.817711353 0.336114078
1944300 -0.813067495 0.340703338
1983700 -0.808195471 0.34493196
2023000 -0.803535163 0.349322944
2062400 -0.798754215 0.353501677
2101700 -0.794064402 0.357591032
2141100 -0.7893489 0.361762285
2180400 -0.784498989 0.365637809
2219800 -0.779701292 0.36939603
2259100 -0.774702727 0.373116374
2298500 -0.770019531 0.376938134
2337800 -0.765035986 0.380516469
2377200 -0.760067164 0.383911579
2416500 -0.755385577 0.38729456
2455900 -0.75041759 0.390484869
2495200 -0.745820701 0.393587321
2534600 -0.741087377 0.39657554
2573900 -0.736204624 0.39964354
2613300 -0.731473565 0.402688443
2652600 -0.726755201 0.405478417
2692000 -0.72193259 0.408187568
2731300 -0.717356324 0.410806596
2770700 -0.71248573 0.41360265
2810000 -0.708230137 0.416038841
2849400 -0.703319072 0.418688923
2888700 -0.698715507 0.421012878
2928100 -0.694164931 0.423322528
2967400 -0.689817309 0.425655186
3006700 -0.685111403 0.427854508
3046100 -0.680497288 0.429706454
3085400 -0.676122665 0.43187341
3124800 -0.671695649 0.433987379
3164100 -0.667097687 0.436050534
3203500 -0.662828445 0.437728375
3242800 -0.658622622 0.43955776
3282200 -0.654279589 0.441334366
3321500 -0.650055706 0.443131595
3360900 -0.645738899 0.444709897
3400200 -0.641522288 0.446339666
3439600 -0.637272119 0.447930037
3478900 -0.633134603 0.44947803
3518300 -0.628992319 0.451070338
3557600 -0.62501496 0.452360659
3597000 -0.620851337 0.453789919
3636300 -0.616891264 0.455273985
3675700 -0.612942993 0.456579446
3715000 -0.609027206 0.457816809
3754400 -0.604971408 0.459091722
3793700 -0.601171195 0.46031329
3833100 -0.597210347 0.461425095
3872400 -0.59347862 0.46265161
3911800 -0.589645028 0.463668406
3951100 -0.586022078 0.464701622
3990500 -0.582200109 0.46566236
4029800 -0.578388929 0.46677953
4069200 -0.574893236 0.467681318
4108500 -0.571010112 0.468797892
4147900 -0.567429542 0.469633758
4187200 -0.563979923 0.470614254
4226600 -0.560335695 0.471369564
4265900 -0.556924223 0.472148567
4305300 -0.553513765 0.472954779
4344600 -0.549989283 0.473682194
4384000 -0.546627044 0.474516123
4423300 -0.543134152 0.475183635
4462700 -0.539643108 0.476031869
4502000 -0.53631705 0.476610541
4541400 -0.532988309 0.477296262
4580700 -0.529600441 0.478171139
4620100 -0.526525557 0.478680312
4659400 -0.523198723 0.479204207
4698800 -0.520037114 0.47966206
4738100 -0.516788125 0.480400085
4777500 -0.513763487 0.480987817
4816800 -0.510540306 0.481543421
4856200 -0.507437646 0.482116848
4895500 -0.504360854 0.482697606
4934900 -0.501321852 0.483200132
4934996 -0.501298546 0.483368933
4978396 -0.49794808 0.483835637
5021896 -0.494641453 0.484383165
5065396 -0.49126771 0.484663188
5108896 -0.488138139 0.485404133
5152396 -0.48493275 0.485732018
5195896 -0.481807559 0.486486256
5239396 -0.478347182 0.486809849
5282896 -0.47534883 0.487307608
5326396 -0.472282409 0.487532913
5369896 -0.469009757 0.488208264
5413396 -0.465960562 0.48860076
5456896 -0.462797909 0.48902297
5500396 -0.459783226 0.489278465
5543896 -0.456963568 0.489878088
5587396 -0.453746974 0.490032643
5630896 -0.450826704 0.490398198
5674396 -0.447829216 0.490704655
5717896 -0.445030897 0.491096884
5761396 -0.442128092 0.491606354
5804896 -0.439209312 0.491779386
5848396 -0.436416834 0.492008447
5891896 -0.433737695 0.492332905
5935396 -0.430871814 0.492626577
5978896 -0.428208619 0.492857486
6022396 -0.425361484 0.493208676
6065896 -0.422734707 0.493320286
6109396 -0.42016232 0.493701457
6152896 -0.417551279 0.493812143
6196396 -0.414974778 0.493934661
6239896 -0.412566959 0.494380533
6283396 -0.4103733 0.494391053
6326896 -0.40798074 0.494460731
6370396 -0.405909448 0.494581878
6413896 -0.403820991 0.494646996
6457396 -0.401766777 0.494789928
6500896 -0.399534493 0.4952223
6544396 -0.397131145 0.495654612
6587896 -0.394118964 0.496047437
6631396 -0.391040205 0.49641636
6674896 -0.387591898 0.497063636
6718396 -0.38439989 0.497276604
6761896 -0.381129562 0.497481226
6805396 -0.377862006 0.497982352
6848896 -0.374713361 0.498462617
6892396 -0.371805906 0.498568236
6935896 -0.368931561 0.499007105
6979396 -0.366309762 0.499319165
7022896 -0.363594114 0.49965313
7066396 -0.361450493 0.499857813
7109896 -0.359148144 0.499937742
7153396 -0.356874138 0.499987214
7196896 -0.354687273 0.499856531
7240396 -0.352495193 0.499934852
7283896 -0.35017699 0.499901473
7327396 -0.348019868 0.500036835
7370896 -0.345868587 0.499949127
7414396 -0.343493402 0.499844908
7457896 -0.341401249 0.500023663
7501396 -0.339044928 0.500117897
7544896 -0.336832553 0.500043809
7588396 -0.334463894 0.500009357
7631896 -0.33232668 0.500153839
7675396 -0.330135285 0.500249266
7718896 -0.327723264 0.500264942
7762396 -0.325764745 0.500339508
7805896 -0.323491632 0.500296175
7849396 -0.321336537 0.500275135
7892896 -0.319033205 0.500373899
7936396 -0.31682834 0.500521719
7979896 -0.314667671 0.5003587
8023396 -0.31257081 0.500511825
8066896 -0.310394883 0.500519454
8110396 -0.308112144 0.500475168
8153896 -0.306007772 0.500501155
8197396 -0.3040618 0.500608325
8240896 -0.301824599 0.500698447
8284396 -0.299754321 0.500527024
8327896 -0.297578126 0.500514626
8371396 -0.295634776 0.500443756
8414896 -0.293453723 0.500500679
8458396 -0.291555285 0.500536322
8501896 -0.289479225 0.500497698
8545396 -0.287351638 0.500511825
8588896 -0.285275012 0.500391721
8632396 -0.283262282 0.500395715
8675896 -0.281281292 0.500356137
8719396 -0.279182136 0.500251948
8762896 -0.277332872 0.50028932
8806396 -0.275224506 0.50019133
8849896 -0.273321986 0.500149428
8893396 -0.271321833 0.499966114
8936896 -0.269157052 0.500056326
8980396 -0.267145574 0.499899506
9023896 -0.265444695 0.499817073
9067396 -0.263434231 0.499858826
9110896 -0.261632204 0.499626427
9154396 -0.259532332 0.499608844
9197896 -0.257728755 0.499817281
9241396 -0.255880057 0.499542206
9284896 -0.253925919 0.499495357
9284932 -0.254050195 0.499528795
9333532 -0.251758813 0.499433517
9382132 -0.24955289 0.499171108
9430732 -0.247528061 0.499123901
9479432 -0.245541378 0.499076932
9528032 -0.243385598 0.499154746
9576632 -0.241504892 0.498797863
9625232 -0.239341393 0.498930037
9673932 -0.237286105 0.498474657
9722532 -0.235366448 0.498402416
9771132 -0.233368307 0.498274505
9819832 -0.231374815 0.498147338
9868432 -0.229318708 0.497984051
9917032 -0.227296933 0.497875064
9965632 -0.225385174 0.497688502
10014332 -0.223429992 0.497605681
10062932 -0.221421673 0.497363656
10111532 -0.219518452 0.497217953
10160232 -0.217627272 0.496961623
10208832 -0.215738758 0.496815741
10257432 -0.213903963 0.496577113
10306032 -0.211950421 0.496494442
10354732 -0.210014417 0.49634248
10403332 -0.208129763 0.495928049
10451932 -0.206270039 0.495700657
10500632 -0.204412117 0.495490044
10549232 -0.202522426 0.495298564
10597832 -0.200630024 0.495157003
10646432 -0.199035912 0.494959473
10695132 -0.197205111 0.494728863
10743732 -0.195173427 0.494455873
10792332 -0.193479388 0.494116336
10840932 -0.191739514 0.494072109
10889632 -0.189916148 0.493724524
10938232 -0.188145235 0.493510127
10986832 -0.186385691 0.493372797
11035532 -0.184671953 0.493091672
11084132 -0.182754561 0.492741465
11132732 -0.18105708 0.492604345
11181332 -0.179171696 0.492293596
11230032 -0.177693575 0.492029547
11278632 -0.175957337 0.491823315
11327232 -0.174130469 0.491478145
11375932 -0.172557383 0.491163164
11424532 -0.170705452 0.490783125
11473132 -0.16913776 0.490481793
11521732 -0.167472839 0.490239948
11570432 -0.165780901 0.490217477
11619032 -0.164171606 0.489873468
11667632 -0.162371292 0.489481478
11716332 -0.160800829 0.489164769
11764932 -0.15920788 0.488814443
11813532 -0.157599553 0.488625854
11862132 -0.155935689 0.488303661
11910832 -0.154248088 0.487967431
11959432 -0.152707681 0.487690806
12008032 -0.151118725 0.487455785
12056632 -0.149503648 0.487236917
12105332 -0.147846072 0.486837208
12153932 -0.146452069 0.48641014
12202532 -0.144775539 0.486164152
12251232 -0.143215954 0.485925465
12299832 -0.141652241 0.485515266
12348432 -0.140212953 0.485261708
12397032 -0.138640075 0.484892249
12445732 -0.137003585 0.484445512
12494332 -0.135604292 0.484371721
12542932 -0.133999437 0.484026074
12591632 -0.132597923 0.483590364
12640232 -0.13104397 0.483136534
12688832 -0.129656493 0.48307988
12737432 -0.128185063 0.482641369
12786132 -0.126645147 0.482226103
12834732 -0.125038459 0.481983572
12883332 -0.123694039 0.481663644
12932032 -0.122148267 0.481202989
12980632 -0.120731189 0.481016993
13029232 -0.119290903 0.480663955
13077832 -0.117750801 0.480322927
13126532 -0.116348236 0.479941874
13175132 -0.114950656 0.479702919
13223732 -0.113725796 0.479322165
13272332 -0.112035952 0.478903949
13321032 -0.110586524 0.478747725
13369632 -0.109352745 0.478383362
13418232 -0.107931844 0.477976918
13466932 -0.106534175 0.477549463
13515532 -0.105068869 0.477217912
13564132 -0.103746816 0.477020233
13612732 -0.102404415 0.476630687
13661432 -0.101165384 0.476349145
13710032 -0.099795952 0.475915223
13758632 -0.098429404 0.475524663
13807332 -0.096946172 0.475293517
13855932 -0.09566009 0.474794745
13904532 -0.094297222 0.474494606
13953132 -0.093039736 0.474143713
14001832 -0.091584123 0.473965227
14050432 -0.090289682 0.473496496
14099032 -0.089215703 0.473222285
14147732 -0.087773337 0.472761958
14147747 -0.087845116 0.472837418
14202847 -0.086341626 0.472489118
14257947 -0.085037283 0.471987336
14313047 -0.083380818 0.471493303
14368247 -0.081878237 0.47102043
14423347 -0.080532856 0.470745563
14478447 -0.079063639 0.470197767
14533647 -0.077627889 0.469865888
14588747 -0.076423026 0.469495356
14643847 -0.074858129 0.469041675
14699047 -0.073486238 0.468646824
14754147 -0.071898832 0.468315899
14809247 -0.070696905 0.467788755
14864347 -0.069328121 0.467457234
14919547 -0.067962862 0.466888844
14974647 -0.066551513 0.466621845
15029747 -0.065113574 0.466146796
15084947 -0.06383229 0.465660572
15140047 -0.062575496 0.465326398
15195147 -0.061254452 0.46471697
15250347 -0.059857714 0.46442908
15305447 -0.058516997 0.464017212
15360547 -0.057360652 0.463431715
15415647 -0.055881194 0.463195711
15470847 -0.054718699 0.462737619
15525947 -0.053342025 0.462295442
15581047 -0.052042365 0.461836785
15636247 -0.050683602 0.46147111
15691347 -0.049381338 0.461036682
15746447 -0.048084829 0.460542917
15801647 -0.046827528 0.460172116
15856747 -0.045478802 0.459838151
15911847 -0.044304747 0.459219366
15966947 -0.043119259 0.458991527
16022147 -0.041945014 0.458515793
16077247 -0.040793266 0.457827001
16132347 -0.039599284 0.457484245
16187547 -0.038386952 0.457165837
16242647 -0.037069179 0.456564158
16297747 -0.03593121 0.456195622
16352947 -0.034672681 0.455846101
16408047 -0.03356342 0.455382078
16463147 -0.032456867 0.454941689
16518247 -0.031109228 0.454487621
16573447 -0.030014203 0.453908562
16628547 -0.028735423 0.453478842
16683647 -0.027652937 0.453229933
16738847 -0.026415264 0.452722042
16793947 -0.025311402 0.452130138
16849047 -0.024118475 0.451739668
16904247 -0.023065391 0.451399505
16959347 -0.021772781 0.450786471
17014447 -0.020719297 0.450428009
17069547 -0.019708102 0.450022697
17124747 -0.018702443 0.449541568
17179847 -0.017548073 0.449024677
17234947 -0.016247574 0.448605597
17290147 -0.015242183 0.448221534
17345247 -0.014024063 0.447642207
17400347 -0.013014551 0.447359144
17455547 -0.012050925 0.446874737
17510647 -0.010893652 0.446553826
17565747 -0.009975643 0.445975691
17620847 -0.008727792 0.445425748
17676047 -0.007721673 0.444923192
17731147 -0.006541423 0.444619148
17786247 -0.005657569 0.444154798
17841447 -0.004541637 0.443707674
17896547 -0.003354123 0.443378597
17951647 -0.002444204 0.442716985
18006847 -0.001274471 0.442466497
18061947 -0.000410513 0.442011296
18117047 0.00071204 0.44130817
18172147 0.001725963 0.440906554
18227347 0.002498166 0.440685242
18282447 0.003541306 0.440139263
18337547 0.004702377 0.439608603
18392747 0.005625767 0.439408123
18447847 0.006636517 0.438850164
18502947 0.007629486 0.438350319
18558147 0.008715089 0.437901377
18613247 0.009672408 0.437569409
18668347 0.010564073 0.436939686
18723447 0.011616704 0.436735123
18778647 0.012403027 0.436131924
18833747 0.013608225 0.435715854
18888847 0.014311468 0.435197502
18944047 0.015550864 0.434761911
18999147 0.016241472 0.434505522
19054247 0.017361501 0.434057235
19109447 0.018249219 0.433596253
19164547 0.019155252 0.433179378
19219647 0.020093854 0.432662814
19274747 0.020894816 0.432041615
19329947 0.02199611 0.431809514
19385047 0.022829027 0.431232213
19440147 0.023687496 0.430969238
19495347 0.024648338 0.430371642
19550447 0.025515137 0.430064857
19605547 0.026392994 0.429619222
19660747 0.027414971 0.429285943
19660752 0.02734095 0.429033726
19724352 0.028374908 0.428625226
19787952 0.029548177 0.428096771
19851652 0.030369682 0.427805572
19915252 0.031549558 0.427076101
19978952 0.032564986 0.426663249
20042552 0.033420793 0.426205545
20106152 0.034521963 0.425697743
20169852 0.035550348 0.425273507
20233452 0.036594886 0.424742639
20297152 0.037529584 0.424060016
20360752 0.03850729 0.423774719
20424452 0.039373416 0.423117667
20488052 0.040326647 0.422721892
20551652 0.041379164 0.422250479
20615352 0.042333114 0.421673029
20678952 0.043270017 0.42109242
20742652 0.044098012 0.420703738
20806252 0.045025516 0.420259147
20869852 0.046100255 0.419642388
20933552 0.047013193 0.419308006
20997152 0.048006076 0.418687224
21060852 0.048831969 0.418406188
21124452 0.049741607 0.41785258
21188152 0.050844591 0.417319148
21251752 0.051740314 0.416906833
21315352 0.052589006 0.416278988
21379052 0.053387437 0.415790826
21442652 0.054423552 0.415454626
21506352 0.055244982 0.414779037
21569952 0.056211035 0.414388149
21633652 0.057087928 0.413822829
21697252 0.057909373 0.413356482
21760852 0.058894816 0.412939131
21824552 0.059531271 0.412424921
21888152 0.060483843 0.411934256
21951852 0.061337362 0.411465913
22015452 0.062350463 0.411004364
22079052 0.063155218 0.41045475
22142752 0.064001888 0.409954398
22206352 0.064832702 0.409671157
22270052 0.065760657 0.409147351
22333652 0.066546544 0.408661931
22397352 0.067278869 0.408126473
22460952 0.068235851 0.407758444
22524552 0.069066904 0.407205402
22588252 0.069849684 0.406796872
22651852 0.070668913 0.406378
22715552 0.07134296 0.405929267
22779152 0.072317779 0.405463755
22842852 0.073161326 0.404977887
22906452 0.073817715 0.404487878
22970052 0.074536055 0.404085546
23033752 0.075399965 0.403572827
23097352 0.076352149 0.403084784
23161052 0.077084116 0.402657091
23224652 0.077748835 0.402180224
23288252 0.078585401 0.401858925
23351952 0.079471446 0.40136066
23415552 0.080217503 0.400876402
23479252 0.080951802 0.400479137
23542852 0.081932783 0.399997442
23606552 0.082527697 0.399529665
23670152 0.083237804 0.399194598
23733752 0.084152221 0.398706823
23797452 0.084793426 0.398083984
23861052 0.085600882 0.397734224
23924752 0.086314767 0.397162109
23988352 0.087084136 0.396943479
24051952 0.087822988 0.396388441
24115652 0.088641017 0.396083742
24179252 0.089022815 0.395724833
24242952 0.090088605 0.395094603
24306552 0.090687215 0.39460498
24370252 0.091430313 0.3941904
24433852 0.092357806 0.393754601
24497452 0.092904493 0.39322108
24561152 0.093586772 0.392925977
24624752 0.094246312 0.392549961
24688452 0.095009811 0.392111957
24752052 0.095742829 0.391690582
24815752 0.096307806 0.391221404
24879352 0.097183257 0.390744477
24942952 0.09784726 0.390237361
25006652 0.098507754 0.390036314
25070252 0.099279269 0.389422208
25133952 0.099936187 0.388896018
25197552 0.100491024 0.388597488
25261152 0.101177111 0.388229042
25324852 0.101998172 0.387740403
25388452 0.102539896 0.387334406
25452152 0.103381156 0.386791467
25515752 0.103833809 0.386413872
25579452 0.104612991 0.386090815
25643052 0.105282269 0.385553032
25706652 0.10587456 0.385236918
25770352 0.106678821 0.384866148
25833952 0.107197113 0.384462028
25897652 0.107903391 0.383950591
25961252 0.108456753 0.383625328
26024952 0.109103165 0.383184254
26025048 0.109384991 0.383004248
26100248 0.109947331 0.382407724
26175548 0.110763326 0.382033079
26250848 0.111433789 0.381504267
26326048 0.112102381 0.381107807
26401348 0.113056875 0.380520612
26476648 0.113703034 0.380125105
26551948 0.114339396 0.379501312
26627148 0.115110531 0.378995358
26702448 0.115794137 0.378606617
26777748 0.116466864 0.37806949
26853048 0.117292761 0.37751159
26928248 0.118220813 0.377206444
27003548 0.118808187 0.376806169
27078848 0.119275815 0.376193881
27154048 0.119994029 0.37567389
27229348 0.12078987 0.375208139
27304648 0.121497862 0.374652385
27379948 0.122252754 0.374191045
27455148 0.122952416 0.373893409
27530448 0.123642891 0.373412847
27605748 0.124092862 0.372945576
27681048 0.125076904 0.372409909
27756248 0.12567012 0.371951371
27831548 0.126336023 0.371471524
27906848 0.126835837 0.371115386
27982048 0.127662286 0.370426207
28057348 0.128230914 0.370176106
28132648 0.128958851 0.369619876
28207948 0.129529848 0.369297593
28283148 0.130171015 0.368815064
28358448 0.131072863 0.368223249
28433748 0.13166812 0.367816507
28509048 0.132110163 0.367440611
28584248 0.132873058 0.366956263
28659548 0.133602201 0.366245239
28734848 0.134078487 0.366022527
28810148 0.134815812 0.365577369
28885348 0.135509058 0.365147352
28960648 0.13609974 0.364600986
29035948 0.136828437 0.36412546
29111148 0.137381151 0.363687217
29186448 0.137894779 0.363454639
29261748 0.138511225 0.362958848
29337048 0.139157801 0.362241417
29412248 0.139791086 0.362114965
29487548 0.14030078 0.361550658
29562848 0.141020655 0.361238569
29638148 0.141534179 0.360822618
29713348 0.142235711 0.360301882
29788648 0.142781898 0.359751492
29863948 0.14357917 0.359537333
29939148 0.143996074 0.35905978
30014448 0.144563496 0.358574241
30089748 0.145298182 0.358052283
30165048 0.145849332 0.357729047
30240248 0.146445795 0.357209801
30315548 0.146944954 0.356887966
30390848 0.147474914 0.356564402
30466148 0.148067697 0.355974912
30541348 0.148732692 0.355691075
30616648 0.149370148 0.355079829
30691948 0.149979308 0.354737818
30767148 0.150434136 0.354303538
30842448 0.150972887 0.35376051
30917748 0.151726171 0.353631377
30993048 0.152091249 0.353159993
31068248 0.152715086 0.352656662
31143548 0.153264969 0.35212028
31218848 0.153739646 0.351861238
31294148 0.154210016 0.35132271
31369348 0.154868513 0.350914061
31444648 0.155412778 0.350646257
31519948 0.155968606 0.350240379
31595248 0.156422033 0.34979242
31670448 0.156978547 0.349298119
31745748 0.157727822 0.348938256
31821048 0.158067405 0.348665386
31896248 0.158810213 0.348308652
31971548 0.159187361 0.347548723
32046848 0.159660235 0.347355127
32122148 0.160214453 0.346859127
32197348 0.160861358 0.346478909
32272648 0.161203503 0.346183478
32347948 0.161848783 0.345677018
32423248 0.162423402 0.345363676
32498448 0.162828668 0.344747006
32573748 0.16336359 0.344372063
32649048 0.163913235 0.344017744
32724248 0.164450883 0.34385243
32799548 0.165004685 0.343251973
32874848 0.165368229 0.342794418
32950148 0.166041627 0.342540949
33025348 0.166415914 0.342098623
33100648 0.167004108 0.341685742
33175948 0.167472019 0.34139797
33251248 0.167999744 0.341004252
33326448 0.16838485 0.340561926
33401748 0.168907836 0.340129345
