# HZ S RI R 50
1000000 -0.882763087 0.245008572
1039300 -0.877093791 0.251550942
1078600 -0.871546447 0.258130967
1118000 -0.865949809 0.264191538
1157300 -0.860304653 0.270137071
1196700 -0.854753077 0.276204824
1236000 -0.849121391 0.281844168
1275400 -0.843405187 0.287104427
1314700 -0.837932825 0.292640149
1354100 -0.831908941 0.297916084
1393400 -0.826343059 0.303036063
1432800 -0.820822775 0.307901173
1472100 -0.815010488 0.312775582
1511500 -0.809529721 0.317134797
1550800 -0.803878009 0.321814
1590200 -0.79827845 0.326225489
1629500 -0.792710304 0.330445379
1668900 -0.787270188 0.334616094
1708200 -0.78168708 0.338528126
1747600 -0.77620995 0.342357486
1786900 -0.770906269 0.346360206
1826300 -0.765220642 0.349754244
1865600 -0.759885311 0.353390634
1905000 -0.754589259 0.356787383
1944300 -0.749240517 0.360189557
1983700 -0.743814051 0.363390535
2023000 -0.738811194 0.366469055
2062400 -0.733438253 0.369561761
2101700 -0.728378593 0.372346609
2141100 -0.723470985 0.375256419
2180400 -0.718247532 0.378084152
2219800 -0.713350057 0.380857944
2259100 -0.708207368 0.383536279
2298500 -0.703084051 0.386226803
2337800 -0.698144018 0.388682812
2377200 -0.693057954 0.391025871
2416500 -0.68833673 0.393175125
2455900 -0.68345189 0.395595341
2495200 -0.67877537 0.397596627
2534600 -0.674065887 0.399752885
2573900 -0.6692276 0.401760846
2613300 -0.664530098 0.403727144
2652600 -0.660047471 0.405796229
2692000 -0.655427336 0.407576292
2731300 -0.651105225 0.409392684
2770700 -0.646578252 0.411350548
2810000 -0.642230451 0.412853538
2849400 -0.637857317 0.414449095
2888700 -0.63353002 0.416184216
2928100 -0.629210412 0.417706787
2967400 -0.624865353 0.419286668
3006700 -0.620562791 0.420732647
3046100 -0.616492927 0.422180056
3085400 -0.612148046 0.423607349
3124800 -0.608175635 0.424954533
3164100 -0.604141831 0.426304668
3203500 -0.599886715 0.427692323
3242800 -0.5960114 0.428973734
3282200 -0.5920583 0.430191904
3321500 -0.588255465 0.431282788
3360900 -0.584220945 0.43254888
3400200 -0.580489099 0.43368563
3439600 -0.576760709 0.434524357
3478900 -0.572703719 0.435943603
3518300 -0.569166302 0.436818569
3557600 -0.565431058 0.437745034
3597000 -0.562021851 0.43891707
3636300 -0.558119773 0.439839899
3675700 -0.554517626 0.440661579
3715000 -0.551056742 0.441523015
3754400 -0.547436475 0.442519336
3793700 -0.543822884 0.443389952
3833100 -0.540401935 0.444191634
3872400 -0.536957681 0.445065796
3911800 -0.533469676 0.445840716
3951100 -0.530014932 0.446582257
3990500 -0.52693355 0.447305679
4029800 -0.523579537 0.448082119
4069200 -0.520229041 0.448813378
4108500 -0.516790747 0.449628442
4147900 -0.513492166 0.450104027
4187200 -0.510444939 0.451015233
4226600 -0.507056415 0.451521247
4265900 -0.504149436 0.4519324
4305300 -0.500922858 0.452746093
4344600 -0.497596561 0.453258335
4384000 -0.494620054 0.453867286
4423300 -0.49148491 0.454323112
4462700 -0.488457292 0.45500651
4502000 -0.485399335 0.455597698
4541400 -0.482500582 0.456017762
4580700 -0.479269951 0.456499904
4620100 -0.476439833 0.457122832
4659400 -0.473607778 0.457695633
4698800 -0.470675617 0.458024203
4738100 -0.467751652 0.458472639
4777500 -0.465002238 0.458862394
4816800 -0.462146878 0.459190815
4856200 -0.459018647 0.459841102
4895500 -0.456349611 0.460292637
4934900 -0.4536798 0.460669219
4934996 -0.453978896 0.460699528
4978396 -0.450569033 0.461083769
5021896 -0.447624534 0.46148774
5065396 -0.444732129 0.461883932
5108896 -0.441610187 0.462443947
5152396 -0.438557326 0.462719202
5195896 -0.43572545 0.463118582
5239396 -0.432836592 0.46359086
5282896 -0.429959118 0.463848441
5326396 -0.427071541 0.464339077
5369896 -0.424246996 0.46470949
5413396 -0.421490997 0.465056329
5456896 -0.418528467 0.465398162
5500396 -0.416111171 0.465400695
5543896 -0.413234889 0.465873807
5587396 -0.410347789 0.466265201
5630896 -0.407572746 0.466480165
5674396 -0.404853671 0.467070728
5717896 -0.402302592 0.467067092
5761396 -0.399699658 0.467470139
5804896 -0.39704737 0.467735707
5848396 -0.394216507 0.467850923
5891896 -0.391827225 0.468155384
5935396 -0.389102727 0.46851769
5978896 -0.386535853 0.468777269
6022396 -0.384093791 0.468633562
6065896 -0.381831198 0.468938916
6109396 -0.379437297 0.46925956
6152896 -0.376927405 0.469419747
6196396 -0.374675691 0.46946612
6239896 -0.372395366 0.469854861
6283396 -0.370103776 0.469889372
6326896 -0.368075072 0.470014333
6370396 -0.366193354 0.470001518
6413896 -0.364187747 0.470283955
6457396 -0.362352102 0.47024244
6500896 -0.360412031 0.470513761
6544396 -0.358127385 0.471044808
6587896 -0.355450391 0.471455693
6631396 -0.352509438 0.471859306
6674896 -0.349269658 0.472229927
6718396 -0.346088647 0.47246316
6761896 -0.343104571 0.472665816
6805396 -0.340133428 0.472898244
6848896 -0.337341219 0.473283201
6892396 -0.33471921 0.47351107
6935896 -0.331890851 0.473739981
6979396 -0.329481273 0.474030375
7022896 -0.327172309 0.474504917
7066396 -0.324710696 0.474609673
7109896 -0.322689503 0.474690496
7153396 -0.320511519 0.474882334
7196896 -0.318506151 0.47473371
7240396 -0.3163836 0.474771231
7283896 -0.314435124 0.474778741
7327396 -0.312180727 0.474736124
7370896 -0.310335367 0.47462365
7414396 -0.308236747 0.474534511
7457896 -0.306097716 0.474592119
7501396 -0.304134041 0.474661976
7544896 -0.302004218 0.474662244
7588396 -0.299850016 0.474799335
7631896 -0.297608345 0.47479245
7675396 -0.295720279 0.474735349
7718896 -0.293648272 0.474924951
7762396 -0.291531264 0.474771976
7805896 -0.289492905 0.47494331
7849396 -0.287512362 0.475015848
7892896 -0.285331845 0.474916487
7936396 -0.283471465 0.475073039
7979896 -0.281320035 0.474761217
8023396 -0.279195398 0.474959373
8066896 -0.277373462 0.475132197
8110396 -0.275326371 0.475063532
8153896 -0.273281514 0.475067853
8197396 -0.271313488 0.475176423
8240896 -0.26920256 0.475131273
8284396 -0.267343759 0.47502163
8327896 -0.265585631 0.474875092
8371396 -0.263461679 0.475045233
8414896 -0.261588811 0.475048393
8458396 -0.259458631 0.474933445
8501896 -0.257703006 0.47496137
8545396 -0.25575456 0.474916547
8588896 -0.254033893 0.474924892
8632396 -0.251968353 0.474820345
8675896 -0.250145375 0.474755972
8719396 -0.248141556 0.474785059
8762896 -0.246350422 0.474678844
8806396 -0.244413226 0.474774509
8849896 -0.242699563 0.474763661
8893396 -0.240821093 0.474504113
8936896 -0.239042073 0.474578142
8980396 -0.237132012 0.474530518
9023896 -0.235317885 0.474347144
9067396 -0.233506307 0.474391311
9110896 -0.231744691 0.474422723
9154396 -0.229982972 0.474175304
9197896 -0.228103131 0.474074363
9241396 -0.226293072 0.474081963
9284896 -0.224585756 0.474042981
9284932 -0.224629119 0.473943382
9333532 -0.22268939 0.474009513
9382132 -0.220724731 0.473816812
9430732 -0.218638643 0.473718792
9479432 -0.216729134 0.473537594
9528032 -0.21495819 0.473540544
9576632 -0.213062465 0.473507225
9625232 -0.211028069 0.473131746
9673932 -0.208986356 0.473114758
9722532 -0.207130819 0.472695708
9771132 -0.205333739 0.472785204
9819832 -0.203281342 0.472774624
9868432 -0.201479688 0.472540587
9917032 -0.199803113 0.472448408
9965632 -0.197834491 0.472257614
10014332 -0.196063861 0.472155958
10062932 -0.194175913 0.471880704
10111532 -0.192443132 0.471859514
10160232 -0.190503597 0.471563428
10208832 -0.189053252 0.471546232
10257432 -0.187000021 0.471326589
10306032 -0.185222506 0.47100979
10354732 -0.18346104 0.470841139
10403332 -0.181695863 0.470706045
10451932 -0.179898887 0.470453739
10500632 -0.178225681 0.470369547
10549232 -0.176490992 0.470042854
10597832 -0.174742728 0.469925671
10646432 -0.173127844 0.469817131
10695132 -0.171341508 0.469577074
10743732 -0.169709444 0.469264209
10792332 -0.167957887 0.468997567
10840932 -0.166349276 0.468943297
10889632 -0.164470434 0.468809038
10938232 -0.162855833 0.468466013
10986832 -0.161353126 0.468271881
11035532 -0.159596145 0.467964589
11084132 -0.157975316 0.467620998
11132732 -0.156414523 0.467320054
11181332 -0.154535353 0.4672378
11230032 -0.153054207 0.467112392
11278632 -0.151382386 0.466854542
11327232 -0.150015279 0.46643874
11375932 -0.148420661 0.466279029
11424532 -0.146679058 0.465904474
11473132 -0.14486429 0.465747147
11521732 -0.143553346 0.465563178
11570432 -0.141948014 0.465344399
11619032 -0.140506938 0.464985579
11667632 -0.139037862 0.464781582
11716332 -0.137236803 0.464538037
11764932 -0.135742515 0.464088559
11813532 -0.134100869 0.464007079
11862132 -0.13264364 0.463701784
11910832 -0.131165847 0.463345468
11959432 -0.129707321 0.463035047
12008032 -0.128077536 0.462834745
12056632 -0.126669228 0.462646096
12105332 -0.125120684 0.462159514
12153932 -0.123572453 0.46208626
12202532 -0.122248083 0.461816668
12251232 -0.120935894 0.461510419
12299832 -0.11940132 0.461265087
12348432 -0.11785259 0.460817784
12397032 -0.116474658 0.460601955
12445732 -0.115042611 0.460236132
12494332 -0.113438285 0.459889292
12542932 -0.112168438 0.45938614
12591632 -0.11068774 0.459444046
12640232 -0.109195262 0.458990305
12688832 -0.107845127 0.458868622
12737432 -0.106483034 0.458508133
12786132 -0.105027467 0.458163321
12834732 -0.103662669 0.457871884
12883332 -0.102427564 0.457654416
12932032 -0.10092879 0.457173764
12980632 -0.099541991 0.457057207
13029232 -0.098374649 0.45677936
13077832 -0.096870958 0.456292599
13126532 -0.095391571 0.456100046
13175132 -0.09407705 0.455757439
13223732 -0.092718459 0.455361753
13272332 -0.091319121 0.455151468
13321032 -0.090143747 0.45471239
13369632 -0.08892434 0.454601496
13418232 -0.087344326 0.454181462
13466932 -0.086164973 0.453897327
13515532 -0.084828779 0.453717917
13564132 -0.083562344 0.453237563
13612732 -0.082232818 0.452960848
13661432 -0.081083528 0.452746599
13710032 -0.079847566 0.452193081
13758632 -0.078521363 0.451975911
13807332 -0.077144801 0.451634407
13855932 -0.075872763 0.451318532
13904532 -0.074517294 0.45117262
13953132 -0.073461599 0.450788795
14001832 -0.072177641 0.450458467
14050432 -0.070935115 0.449990957
14099032 -0.069529876 0.449761956
14147732 -0.068417377 0.449256122
14147747 -0.068508185 0.44937244
14202847 -0.06714113 0.448985695
14257947 -0.065550632 0.44860059
14313047 -0.064374692 0.448232382
14368247 -0.062930397 0.448046475
14423347 -0.061637867 0.44755578
14478447 -0.060192093 0.447190433
14533647 -0.05885012 0.446774214
14588747 -0.05757407 0.446440011
14643847 -0.056252196 0.445935606
14699047 -0.05474672 0.445654511
14754147 -0.053598936 0.445284307
14809247 -0.052146978 0.444874674
14864347 -0.051055878 0.444464147
14919547 -0.049650814 0.444064646
14974647 -0.048450928 0.443808674
15029747 -0.04690605 0.443353354
15084947 -0.045902457 0.442927479
15140047 -0.044549744 0.442485302
15195147 -0.043242461 0.442247182
15250347 -0.041757375 0.441782563
15305447 -0.040969733 0.44134289
15360547 -0.039539385 0.440942853
15415647 -0.03812452 0.440463513
15470847 -0.036882892 0.440216541
15525947 -0.035646144 0.43994522
15581047 -0.034587256 0.439373791
15636247 -0.033272758 0.439031481
15691347 -0.032189115 0.438707202
15746447 -0.030868865 0.438212066
15801647 -0.029611546 0.43786922
15856747 -0.02851643 0.437425285
15911847 -0.027330877 0.436999082
15966947 -0.026123583 0.436721533
16022147 -0.024974687 0.436077743
16077247 -0.023746596 0.435743391
16132347 -0.022601561 0.435256153
16187547 -0.021401405 0.434949129
16242647 -0.020372577 0.434598743
16297747 -0.019295053 0.434037774
16352947 -0.018057167 0.433680266
16408047 -0.016762776 0.433299154
16463147 -0.015779731 0.432929724
16518247 -0.01469688 0.432506322
16573447 -0.013739402 0.432001471
16628547 -0.012616809 0.431768566
16683647 -0.01122748 0.431239008
16738847 -0.010232393 0.430710822
16793947 -0.009062991 0.430342644
16849047 -0.008019031 0.430059283
16904247 -0.006969055 0.429701298
16959347 -0.005953753 0.429170399
17014447 -0.004807909 0.428738772
17069547 -0.003712526 0.428269982
17124747 -0.002786131 0.427954375
17179847 -0.00159616 0.427561849
17234947 -0.000509992 0.427007436
17290147 0.000419411 0.426629662
17345247 0.001599248 0.426269352
17400347 0.002486984 0.425715208
17455547 0.003659956 0.425566405
17510647 0.004560649 0.425114214
17565747 0.005794918 0.424481779
17620847 0.006815572 0.42408654
17676047 0.007686152 0.423886299
17731147 0.008750081 0.423324346
17786247 0.009578644 0.422914028
17841447 0.010510602 0.422626644
17896547 0.011733916 0.422017633
17951647 0.012735765 0.421774715
18006847 0.013632456 0.421366006
18061947 0.014625095 0.420843243
18117047 0.015587433 0.42035073
18172147 0.016704794 0.420160442
18227347 0.017481382 0.41955614
18282447 0.018574893 0.419364243
18337547 0.019432695 0.418769001
18392747 0.020383238 0.418367475
18447847 0.021331096 0.418055087
18502947 0.022366842 0.417425125
18558147 0.023097891 0.417130887
18613247 0.024250028 0.416653275
18668347 0.02526506 0.416248381
18723447 0.026104895 0.415908843
18778647 0.026960331 0.41548267
18833747 0.027860868 0.41513437
18888847 0.028866767 0.41463235
18944047 0.029862804 0.414202839
18999147 0.030803121 0.413814842
19054247 0.031643066 0.413383275
19109447 0.032418247 0.413078516
19164547 0.033451374 0.412563711
19219647 0.034201577 0.412057846
19274747 0.035117421 0.411703735
19329947 0.036002341 0.411451518
19385047 0.036734156 0.410980045
19440147 0.037714108 0.410363435
19495347 0.038601387 0.410117834
19550447 0.039503358 0.409765362
19605547 0.040453542 0.409227609
19660747 0.041238639 0.408956527
19660752 0.041203506 0.409082114
19724352 0.042231667 0.408493191
19787952 0.043251745 0.408002793
19851652 0.04414092 0.407572597
19915252 0.045229442 0.406950324
19978952 0.046273089 0.406536817
20042552 0.047151483 0.40606305
20106152 0.048037603 0.405543953
20169852 0.04887849 0.405117571
20233452 0.049868635 0.404662281
20297152 0.050760932 0.404297441
20360752 0.051638737 0.403800129
20424452 0.052752222 0.403353959
20488052 0.053515918 0.402839004
20551652 0.054533883 0.402262568
20615352 0.055507652 0.40191254
20678952 0.056453477 0.401443541
20742652 0.057219237 0.400827765
20806252 0.058257389 0.400406956
20869852 0.059203173 0.400151252
20933552 0.059936922 0.399692356
20997152 0.060928843 0.399162977
21060852 0.061845976 0.398593157
21124452 0.062601827 0.398133724
21188152 0.063571244 0.397606372
21251752 0.064499989 0.39731279
21315352 0.065289385 0.39683032
21379052 0.066206678 0.396310865
21442652 0.067074038 0.395755767
21506352 0.067803531 0.39544034
21569952 0.068857163 0.394932925
21633652 0.069586932 0.394486367
21697252 0.070401653 0.394120961
21760852 0.07125914 0.393558591
21824552 0.072144821 0.393106132
21888152 0.072868987 0.392627537
21951852 0.073769435 0.3922095
22015452 0.074548676 0.391753882
22079052 0.075412519 0.391330003
22142752 0.07612992 0.39089483
22206352 0.077080585 0.390442758
22270052 0.077775947 0.39002642
22333652 0.078688807 0.389651387
22397352 0.079437308 0.389010936
22460952 0.080289997 0.388737261
22524552 0.081248648 0.38821429
22588252 0.081830725 0.387790322
22651852 0.082606278 0.387316524
22715552 0.083378143 0.386834204
22779152 0.084233798 0.386551082
22842852 0.084993243 0.386014074
22906452 0.085785351 0.385562866
22970052 0.086394235 0.385187655
23033752 0.087359726 0.384729534
23097352 0.088018126 0.384251236
23161052 0.088878259 0.383961141
23224652 0.089711435 0.383541762
23288252 0.090336963 0.383031934
23351952 0.09111391 0.382570654
23415552 0.091685473 0.382136404
23479252 0.092335805 0.381679415
23542852 0.093194544 0.381199717
23606552 0.093983933 0.381033152
23670152 0.094855003 0.380517989
23733752 0.095389768 0.37997049
23797452 0.096363253 0.379536181
23861052 0.096870683 0.379181981
23924752 0.097613736 0.378738105
23988352 0.098209992 0.378360152
24051952 0.099060967 0.37796998
24115652 0.099769733 0.377508193
24179252 0.100477315 0.377166718
24242952 0.101080186 0.376526802
24306552 0.101712562 0.376278847
24370252 0.102695055 0.375908017
24433852 0.103235267 0.375363439
24497452 0.103962056 0.375055909
24561152 0.104622162 0.374471783
24624752 0.105387672 0.374286025
24688452 0.105966225 0.37382096
24752052 0.106831438 0.373360574
24815752 0.107410654 0.373117953
24879352 0.107948057 0.372539252
24942952 0.108627066 0.372169822
25006652 0.109266541 0.371801644
25070252 0.110093362 0.371273785
25133952 0.110673256 0.370912402
25197552 0.111270904 0.370586454
25261152 0.111945852 0.370034366
25324852 0.112589746 0.369812518
25388452 0.113274902 0.36930111
25452152 0.113911569 0.368778705
25515752 0.114478603 0.368396669
25579452 0.115198388 0.367915838
25643052 0.115706346 0.367620885
25706652 0.11642912 0.367348968
25770352 0.117059446 0.366753697
25833952 0.11757563 0.366464436
25897652 0.118440032 0.366149157
25961252 0.119063697 0.365542709
26024952 0.119480878 0.365095198
26025048 0.119588382 0.365363448
26100248 0.120053768 0.364810645
26175548 0.120893485 0.364480525
26250848 0.121600471 0.363827884
26326048 0.122365623 0.363541662
26401348 0.123122602 0.362914919
26476648 0.123801432 0.36253184
26551948 0.124526672 0.362045913
26627148 0.125433027 0.36156404
26702448 0.125790894 0.361094921
26777748 0.126581028 0.360533863
26853048 0.12717843 0.360135436
26928248 0.127781093 0.359689325
27003548 0.128631725 0.359290152
27078848 0.129282042 0.358709782
27154048 0.130030408 0.358418107
27229348 0.130651086 0.35788384
27304648 0.131206765 0.357538431
27379948 0.131934165 0.356880128
27455148 0.132630079 0.356436461
27530448 0.133317947 0.356148064
27605748 0.133920028 0.355691641
27681048 0.134544745 0.355109095
27756248 0.135218515 0.354752242
27831548 0.13584879 0.354323446
27906848 0.136576965 0.35388565
27982048 0.137126311 0.353473961
28057348 0.137776046 0.352986365
28132648 0.138391345 0.352529644
28207948 0.139128059 0.352048516
28283148 0.139482453 0.351595312
28358448 0.140291154 0.351193517
28433748 0.140788212 0.350916266
28509048 0.141497462 0.350509971
28584248 0.142121911 0.349863201
28659548 0.142693743 0.349484533
28734848 0.143409758 0.349207848
28810148 0.144144028 0.348772197
28885348 0.144590839 0.348243892
28960648 0.145173579 0.347738742
29035948 0.145810544 0.34744206
29111148 0.146386489 0.347049146
29186448 0.146994665 0.346596032
29261748 0.147509664 0.346153706
29337048 0.14815022 0.345757901
29412248 0.148911848 0.345381021
29487548 0.149306073 0.344779282
29562848 0.149947464 0.344529867
29638148 0.150497376 0.343963593
29713348 0.151134043 0.343623697
29788648 0.151779443 0.343262284
29863948 0.152229443 0.342787295
29939148 0.152809873 0.342469841
30014448 0.153358295 0.341956704
30089748 0.154061868 0.341500878
30165048 0.15438117 0.34109351
30240248 0.155240431 0.340648502
30315548 0.155688032 0.340276181
30390848 0.156178429 0.339909732
30466148 0.156938076 0.339447617
30541348 0.157264694 0.339136987
30616648 0.157911524 0.338781982
30691948 0.158427312 0.338268846
30767148 0.159130513 0.337763279
30842448 0.159468159 0.337697476
30917748 0.160061284 0.337087541
30993048 0.160534843 0.336628705
31068248 0.161188125 0.336353838
31143548 0.161582916 0.335787534
31218848 0.162305295 0.335603505
31294148 0.162658363 0.335117906
31369348 0.163114026 0.334784567
31444648 0.163708761 0.334233015
31519948 0.16427125 0.333868443
31595248 0.164899304 0.33339706
31670448 0.165221765 0.333187997
31745748 0.165997207 0.332776814
31821048 0.166455402 0.332237958
31896248 0.167018696 0.332036226
31971548 0.167446404 0.331606715
32046848 0.168011203 0.331329792
32122148 0.168199449 0.330993145
32197348 0.168948322 0.330602079
32272648 0.169259786 0.330019503
32347948 0.169924095 0.329591989
32423248 0.170455336 0.329390764
32498448 0.17094478 0.328882426
32573748 0.17138499 0.328445643
32649048 0.172052308 0.328123062
32724248 0.172468617 0.327775597
32799548 0.172777444 0.327344596
32874848 0.17340441 0.327163577
32950148 0.17393589 0.326739966
33025348 0.174214184 0.326238483
33100648 0.174801811 0.325942605
33175948 0.17537792 0.325451254
33251248 0.175783559 0.325191974
33326448 0.176333457 0.324766844
33401748 0.176804542 0.324261218
33477048 0.177136048 0.323985338
