# HZ S RI R 50
1000000 -0.888257622 0.247168362
1039300 -0.882434606 0.253953427
1078600 -0.876616358 0.260365635
1118000 -0.870941042 0.266643196
1157300 -0.864978373 0.272852569
1196700 -0.859049618 0.278856456
1236000 -0.853389859 0.284397244
1275400 -0.847252905 0.290010869
1314700 -0.841545641 0.295397043
1354100 -0.835580825 0.300834238
1393400 -0.829720258 0.305840224
1432800 -0.823843479 0.310635387
1472100 -0.818085193 0.315090477
1511500 -0.812104821 0.319941192
1550800 -0.806324303 0.324492305
1590200 -0.800601601 0.328605502
1629500 -0.794767022 0.332817882
1668900 -0.789016127 0.336850047
1708200 -0.783359944 0.340708553
1747600 -0.777707457 0.344430565
1786900 -0.772028625 0.348153442
1826300 -0.766499817 0.351598471
1865600 -0.760811924 0.355093419
1905000 -0.755305171 0.358375251
1944300 -0.749952137 0.361304491
1983700 -0.744525134 0.364556252
2023000 -0.739243984 0.367595463
2062400 -0.734018266 0.370339572
2101700 -0.728694558 0.373196423
2141100 -0.723448336 0.375864923
2180400 -0.718272686 0.378560692
2219800 -0.713254749 0.381093382
2259100 -0.708055734 0.383521735
2298500 -0.702930927 0.386023849
2337800 -0.697684347 0.388438999
2377200 -0.692722201 0.390314042
2416500 -0.687972068 0.392453521
2455900 -0.68312931 0.394535094
2495200 -0.67818427 0.39642778
2534600 -0.673522651 0.398372977
2573900 -0.668709576 0.400359809
2613300 -0.664057195 0.402212291
2652600 -0.659554958 0.403863251
2692000 -0.654885053 0.405655115
2731300 -0.650443732 0.407148718
2770700 -0.645863652 0.408798962
2810000 -0.641604661 0.410428613
2849400 -0.637058794 0.411937415
2888700 -0.632776498 0.413340538
2928100 -0.628335058 0.414843261
2967400 -0.624259829 0.415958434
3006700 -0.620010554 0.41743654
3046100 -0.61563909 0.41867724
3085400 -0.611671447 0.419988393
3124800 -0.607590734 0.421154648
3164100 -0.603331387 0.422457605
3203500 -0.599694848 0.423357725
3242800 -0.595589458 0.424601942
3282200 -0.59160602 0.425771564
3321500 -0.587819397 0.426744192
3360900 -0.583900928 0.427765816
3400200 -0.580036461 0.428647845
3439600 -0.576260924 0.429673731
3478900 -0.572538018 0.430577307
3518300 -0.568853735 0.431542098
3557600 -0.565267741 0.432515561
3597000 -0.561625063 0.433293402
3636300 -0.557964444 0.434154212
3675700 -0.554465472 0.435159325
3715000 -0.55093944 0.435832321
3754400 -0.547402262 0.436469972
3793700 -0.54401195 0.437304824
3833100 -0.54046601 0.438120067
3872400 -0.537137687 0.438649266
3911800 -0.533742368 0.439423263
3951100 -0.53047049 0.440134465
3990500 -0.527203738 0.440707445
4029800 -0.523930013 0.441410034
4069200 -0.520501792 0.441973447
4108500 -0.517209649 0.442584425
4147900 -0.514282763 0.443072557
4187200 -0.511007785 0.443470567
4226600 -0.507750451 0.444104254
4265900 -0.504905283 0.444644778
4305300 -0.501677095 0.445131242
4344600 -0.49859184 0.445739537
4384000 -0.495613783 0.445996642
4423300 -0.492463231 0.446649193
4462700 -0.489544272 0.44697228
4502000 -0.48673591 0.447559863
4541400 -0.483703732 0.448003917
4580700 -0.480720758 0.448258638
4620100 -0.477851361 0.448732137
4659400 -0.475046753 0.449176788
4698800 -0.472255289 0.449472814
4738100 -0.469470441 0.449861913
4777500 -0.466550201 0.450335979
4816800 -0.463891088 0.450541466
4856200 -0.461092114 0.450872987
4895500 -0.458132952 0.451380997
4934900 -0.455498963 0.451712071
4934996 -0.455779522 0.45150721
4978396 -0.452663838 0.452011346
5021896 -0.449723035 0.452444791
5065396 -0.446765601 0.452560275
5108896 -0.443777322 0.452919006
5152396 -0.440930992 0.453138947
5195896 -0.438185423 0.453752279
5239396 -0.435268461 0.453872501
5282896 -0.43255791 0.454178899
5326396 -0.429695963 0.454488456
5369896 -0.427037507 0.45486772
5413396 -0.424332648 0.455029994
5456896 -0.421541661 0.455274373
5500396 -0.418879508 0.455471605
5543896 -0.416098207 0.455681711
5587396 -0.413521647 0.456113427
5630896 -0.410835325 0.456093013
5674396 -0.40834698 0.45621854
5717896 -0.405768841 0.456505119
5761396 -0.403143912 0.456929713
5804896 -0.400572806 0.456896275
5848396 -0.39797157 0.45717433
5891896 -0.395652532 0.457263082
5935396 -0.393056482 0.457353293
5978896 -0.390553921 0.457673013
6022396 -0.38829863 0.457739323
6065896 -0.385878562 0.457877069
6109396 -0.383488744 0.458174943
6152896 -0.381193488 0.458148986
6196396 -0.378994762 0.458163172
6239896 -0.376922786 0.458478718
6283396 -0.374903678 0.458347886
6326896 -0.372928828 0.458490759
6370396 -0.370892912 0.458310753
6413896 -0.369123607 0.458352327
6457396 -0.367127031 0.458657056
6500896 -0.365274518 0.458876878
6544396 -0.36321789 0.458994805
6587896 -0.360663414 0.459561496
6631396 -0.357822716 0.459692627
6674896 -0.354871571 0.460019171
6718396 -0.351817011 0.460294097
6761896 -0.348760575 0.460549056
6805396 -0.346047192 0.460759341
6848896 -0.343151181 0.461034327
6892396 -0.340660572 0.46116507
6935896 -0.338098853 0.46151337
6979396 -0.335633546 0.46175462
7022896 -0.333230972 0.46198371
7066396 -0.331147879 0.46202898
7109896 -0.32921338 0.462310999
7153396 -0.327243119 0.462224125
7196896 -0.325293004 0.462137341
7240396 -0.323224037 0.462079554
7283896 -0.321260184 0.462011277
7327396 -0.319467127 0.4618887
7370896 -0.317350864 0.461930066
7414396 -0.31543985 0.461963832
7457896 -0.313223034 0.461864024
7501396 -0.311307609 0.461959093
7544896 -0.309379965 0.461931377
7588396 -0.307523667 0.461869508
7631896 -0.305406659 0.461886495
7675396 -0.303530961 0.461674124
7718896 -0.301514953 0.461883723
7762396 -0.299630284 0.461838811
7805896 -0.297597348 0.461809486
7849396 -0.295587122 0.46178019
7892896 -0.293778717 0.46185705
7936396 -0.29173702 0.461940288
7979896 -0.289709866 0.461680561
8023396 -0.28790456 0.461772173
8066896 -0.286070406 0.461637645
8110396 -0.284107238 0.461791187
8153896 -0.282233417 0.461859852
8197396 -0.280335336 0.461724549
8240896 -0.278540819 0.461801081
8284396 -0.276527822 0.461680203
8327896 -0.274588465 0.461635917
8371396 -0.272882699 0.461582154
8414896 -0.270920693 0.461516141
8458396 -0.269329726 0.461545199
8501896 -0.267392277 0.461493074
8545396 -0.265516668 0.461522519
8588896 -0.263855695 0.461449086
8632396 -0.261978507 0.461370766
8675896 -0.26003164 0.46130234
8719396 -0.258370727 0.461198806
8762896 -0.256605148 0.461250066
8806396 -0.254846751 0.461033135
8849896 -0.25309962 0.461165606
8893396 -0.251304715 0.461197763
8936896 -0.249490708 0.461094975
8980396 -0.247794747 0.460834115
9023896 -0.246110036 0.460856705
9067396 -0.244299054 0.46078366
9110896 -0.242673814 0.460625648
9154396 -0.240886136 0.460560292
9197896 -0.239275008 0.460662811
9241396 -0.237725198 0.460666239
9284896 -0.235872969 0.46036005
9284932 -0.236050665 0.460597544
9333532 -0.234030321 0.46037212
9382132 -0.232357472 0.460170179
9430732 -0.23018755 0.460114061
9479432 -0.228438541 0.459962397
9528032 -0.226679772 0.459874093
9576632 -0.224902749 0.459898054
9625232 -0.223134309 0.459768533
9673932 -0.221229285 0.459648758
9722532 -0.21929267 0.459516346
9771132 -0.217751309 0.459325134
9819832 -0.215932041 0.45919919
9868432 -0.214098766 0.459250092
9917032 -0.212277457 0.459072023
9965632 -0.210624888 0.458888888
10014332 -0.208998024 0.458540052
10062932 -0.207067787 0.458562254
10111532 -0.205429047 0.458282619
10160232 -0.203737571 0.458288788
10208832 -0.202017575 0.458204299
10257432 -0.200173243 0.458004295
10306032 -0.198608219 0.457716375
10354732 -0.196870297 0.457460999
10403332 -0.195173904 0.457261234
10451932 -0.193698242 0.457360357
10500632 -0.191986188 0.456971645
10549232 -0.190363839 0.456903308
10597832 -0.188646063 0.456813395
10646432 -0.18702045 0.456412434
10695132 -0.185455054 0.456249922
10743732 -0.183854401 0.456133693
10792332 -0.18220441 0.455962657
10840932 -0.180705383 0.455524921
10889632 -0.179050996 0.455538749
10938232 -0.177670836 0.455290585
10986832 -0.176048815 0.455195873
11035532 -0.174371629 0.454910486
11084132 -0.172884479 0.454874783
11132732 -0.171380162 0.454413652
11181332 -0.169722616 0.454317569
11230032 -0.168035611 0.454145222
11278632 -0.166794463 0.453762888
11327232 -0.165020212 0.453588575
11375932 -0.163630113 0.45345658
11424532 -0.162107884 0.453249633
11473132 -0.160614296 0.452999711
11521732 -0.159004688 0.452783882
11570432 -0.157667845 0.452553927
11619032 -0.156127169 0.452407419
11667632 -0.154710128 0.451982766
11716332 -0.153171688 0.451807767
11764932 -0.151781871 0.451719701
11813532 -0.150431975 0.451480716
11862132 -0.148839741 0.451133519
11910832 -0.147415712 0.450922757
11959432 -0.145859882 0.450599819
12008032 -0.144574373 0.450548559
12056632 -0.143140122 0.45007795
12105332 -0.141628876 0.449931532
12153932 -0.140334591 0.449839293
12202532 -0.138883024 0.449419289
12251232 -0.137663275 0.449214428
12299832 -0.136112526 0.449050664
12348432 -0.134679123 0.448675185
12397032 -0.13349092 0.448435068
12445732 -0.131986096 0.448338598
12494332 -0.130682498 0.447982072
12542932 -0.12912397 0.447513848
12591632 -0.128001838 0.447423458
12640232 -0.126508712 0.447223424
12688832 -0.125108882 0.447016
12737432 -0.124009646 0.446783155
12786132 -0.122593484 0.446480304
12834732 -0.121255517 0.446264654
12883332 -0.119993485 0.44579482
12932032 -0.118779405 0.445684075
12980632 -0.117392279 0.445387572
13029232 -0.115916959 0.445135802
13077832 -0.11468254 0.444823026
13126532 -0.113510377 0.44450283
13175132 -0.112137719 0.444221317
13223732 -0.11077395 0.443977147
13272332 -0.109601095 0.443646937
13321032 -0.108368419 0.443532586
13369632 -0.107033647 0.443283647
13418232 -0.105790972 0.442960232
13466932 -0.104611083 0.442637562
13515532 -0.103401407 0.442450582
13564132 -0.102090813 0.442150384
13612732 -0.100805103 0.441809386
13661432 -0.099594831 0.441683083
13710032 -0.098482981 0.441198587
13758632 -0.097328245 0.441131949
13807332 -0.095982469 0.440782725
13855932 -0.094696998 0.440387189
13904532 -0.093612127 0.440219461
13953132 -0.092336528 0.4399423
14001832 -0.091142863 0.439624696
14050432 -0.09001737 0.439365714
14099032 -0.088678121 0.439238488
14147732 -0.087444178 0.438783496
14147747 -0.087576575 0.439049333
14202847 -0.086126692 0.438645511
14257947 -0.084879636 0.438196599
14313047 -0.083611696 0.437854617
14368247 -0.082312978 0.437605798
14423347 -0.080975949 0.437267273
14478447 -0.079686343 0.436891853
14533647 -0.07830622 0.436542212
14588747 -0.077139966 0.436237961
14643847 -0.075863674 0.435874432
14699047 -0.074684768 0.435556083
14754147 -0.073390342 0.43513292
14809247 -0.072071529 0.434954971
14864347 -0.071021914 0.434657275
14919547 -0.069473572 0.434322178
14974647 -0.068307623 0.433796614
15029747 -0.066896542 0.433726966
15084947 -0.065776906 0.433309346
15140047 -0.064515344 0.433035641
15195147 -0.063567541 0.43255636
15250347 -0.061996802 0.432317405
15305447 -0.060904577 0.43193221
15360547 -0.059885837 0.431467413
15415647 -0.058625344 0.431310772
15470847 -0.057317811 0.430940896
15525947 -0.056320756 0.430595606
15581047 -0.054972846 0.430152982
15636247 -0.053852368 0.429894655
15691347 -0.052622199 0.429669618
15746447 -0.051363274 0.429101973
15801647 -0.050444103 0.428876101
15856747 -0.049214929 0.428547978
15911847 -0.048069365 0.428116887
15966947 -0.046943407 0.427708655
16022147 -0.045771043 0.427381753
16077247 -0.044686719 0.426949977
16132347 -0.043499544 0.42675057
16187547 -0.042398493 0.426254421
16242647 -0.041320383 0.425972998
16297747 -0.040334276 0.425578147
16352947 -0.039005719 0.425147771
16408047 -0.037933807 0.424879342
16463147 -0.036954857 0.424555152
16518247 -0.03570155 0.424136668
16573447 -0.03465294 0.423851877
16628547 -0.033846408 0.42363581
16683647 -0.032611902 0.423162579
16738847 -0.031523339 0.422742933
16793947 -0.030457686 0.422442406
16849047 -0.029418282 0.422152072
16904247 -0.028258241 0.421655684
16959347 -0.027203101 0.421351552
17014447 -0.026209197 0.420860439
17069547 -0.025347962 0.420718103
17124747 -0.02408453 0.420311778
17179847 -0.023141838 0.41995126
17234947 -0.022235101 0.419466465
17290147 -0.021183541 0.419133692
17345247 -0.020242251 0.418911814
17400347 -0.019102049 0.418526709
17455547 -0.017883339 0.418218582
17510647 -0.017047252 0.417658776
17565747 -0.016103139 0.417343378
17620847 -0.015225175 0.416992723
17676047 -0.014210036 0.416642755
17731147 -0.012965307 0.416176676
17786247 -0.012184725 0.415808826
17841447 -0.011295319 0.415493756
17896547 -0.01022884 0.41511771
17951647 -0.00936012 0.414932459
18006847 -0.008312093 0.41432771
18061947 -0.007462605 0.414123237
18117047 -0.006411243 0.413608968
18172147 -0.00554124 0.413475513
18227347 -0.004558174 0.412906974
18282447 -0.003820766 0.41275078
18337547 -0.002649766 0.412217736
18392747 -0.001837989 0.411945968
18447847 -0.000772171 0.411626547
18502947 6.1682e-05 0.411155819
18558147 0.000955032 0.410853981
18613247 0.001851917 0.410493731
18668347 0.002739744 0.410079628
18723447 0.003479391 0.409697771
18778647 0.004717196 0.409506946
18833747 0.005624565 0.409103035
18888847 0.006483282 0.408726751
18944047 0.007445113 0.408293902
18999147 0.007979092 0.407925546
19054247 0.009177781 0.407502591
19109447 0.009997382 0.40729022
19164547 0.010823804 0.40683487
19219647 0.011675745 0.406426072
19274747 0.012716691 0.406040281
19329947 0.013578562 0.405706226
19385047 0.014267458 0.405424833
19440147 0.015270382 0.405076652
19495347 0.016122953 0.40469098
19550447 0.016932304 0.40433222
19605547 0.017745152 0.403900384
19660747 0.018595214 0.403681457
19660752 0.018601695 0.403594583
19724352 0.019655624 0.403145551
19787952 0.020569762 0.402897864
19851652 0.021250834 0.402396649
19915252 0.022525025 0.401839256
19978952 0.023431023 0.401523679
20042552 0.02444317 0.401035994
20106152 0.025236627 0.400529652
20169852 0.02616618 0.400216668
20233452 0.0272109 0.399940282
20297152 0.028017746 0.399487286
20360752 0.028986975 0.399157971
20424452 0.029747685 0.398609191
20488052 0.030898621 0.398267179
20551652 0.031703002 0.397789657
20615352 0.032597493 0.397337079
20678952 0.03350665 0.396917194
20742652 0.03431753 0.396472722
20806252 0.035332012 0.396067291
20869852 0.036152675 0.395743966
20933552 0.037175465 0.395334869
20997152 0.038009416 0.394904851
21060852 0.038851421 0.394525617
21124452 0.039634946 0.394144237
21188152 0.04060442 0.393653899
21251752 0.041416134 0.393294066
21315352 0.042312651 0.392733126
21379052 0.043212264 0.392581552
21442652 0.043973349 0.392049849
21506352 0.044931795 0.391625881
21569952 0.045676399 0.391271859
21633652 0.046598039 0.390799552
21697252 0.04748965 0.390462726
21760852 0.048318237 0.390151023
21824552 0.049041468 0.389692038
21888152 0.049881082 0.389325797
21951852 0.050796695 0.388813793
22015452 0.051509749 0.388460993
22079052 0.052280917 0.38808307
22142752 0.053090449 0.387590467
22206352 0.054046314 0.387135237
22270052 0.054909471 0.386881232
22333652 0.055617485 0.386577904
22397352 0.056387867 0.386162012
22460952 0.057129248 0.385688155
22524552 0.057976689 0.385273009
22588252 0.058690924 0.384876161
22651852 0.059590257 0.384592264
22715552 0.060306031 0.384186267
22779152 0.061135452 0.383642226
22842852 0.061905466 0.383365005
22906452 0.062663726 0.38287422
22970052 0.063495881 0.382615864
23033752 0.064174756 0.382041424
23097352 0.06491246 0.381783157
23161052 0.065819315 0.381342738
23224652 0.066484831 0.381081908
23288252 0.067109704 0.380561977
23351952 0.067845858 0.380215644
23415552 0.068576246 0.379980981
23479252 0.069215826 0.379510611
23542852 0.070196636 0.379169344
23606552 0.070772178 0.378693968
23670152 0.071523278 0.378492265
23733752 0.072253689 0.378189116
23797452 0.073010079 0.377773672
23861052 0.073908165 0.377225637
23924752 0.074469752 0.376974374
23988352 0.075093269 0.376651823
24051952 0.075875394 0.376192092
24115652 0.076640576 0.375769734
24179252 0.077328883 0.375323951
24242952 0.077980451 0.375026524
24306552 0.078832894 0.374557942
24370252 0.079426296 0.374162673
24433852 0.080097466 0.373905539
24497452 0.08085592 0.373464912
24561152 0.081513993 0.373165726
24624752 0.082120656 0.37286213
24688452 0.082993708 0.372546136
24752052 0.083575658 0.37203744
24815752 0.084414742 0.371610224
24879352 0.084943793 0.371380865
24942952 0.085584983 0.371084421
25006652 0.086276866 0.370581418
25070252 0.086923688 0.370294928
25133952 0.087510131 0.369835019
25197552 0.088198497 0.369461536
25261152 0.088825456 0.369147419
25324852 0.089497745 0.368827581
25388452 0.090080849 0.368281751
25452152 0.090709954 0.367849826
25515752 0.091353945 0.36772418
25579452 0.092114597 0.367310464
25643052 0.092674791 0.366862893
25706652 0.093402877 0.366671919
25770352 0.093981273 0.366270869
25833952 0.094432145 0.365761339
25897652 0.095223844 0.365387052
25961252 0.095778152 0.364990562
26024952 0.096413552 0.364824056
26025048 0.096364259 0.364771425
26100248 0.097069405 0.36446011
26175548 0.097814396 0.363977402
26250848 0.098585903 0.363451659
26326048 0.099395841 0.363042116
26401348 0.100069858 0.36254397
26476648 0.100622855 0.362254142
26551948 0.101472839 0.361887276
26627148 0.102183468 0.361443459
26702448 0.102694526 0.361023157
26777748 0.103662699 0.360565185
26853048 0.104314677 0.36020267
26928248 0.104961372 0.359747052
27003548 0.105545349 0.359363406
27078848 0.10624922 0.358948051
27154048 0.106944739 0.358445435
27229348 0.10773997 0.358094841
27304648 0.108311831 0.357704341
27379948 0.109059885 0.35728541
27455148 0.109700761 0.356830179
27530448 0.110452868 0.356447994
27605748 0.110863737 0.356025099
27681048 0.111646421 0.355617046
27756248 0.112366855 0.355373829
27831548 0.112888745 0.354699134
27906848 0.113618731 0.354467004
27982048 0.114334851 0.354064464
28057348 0.114808157 0.353578895
28132648 0.115552924 0.353331178
28207948 0.116230055 0.352761358
28283148 0.116851992 0.35238263
28358448 0.117489673 0.352096617
28433748 0.118174903 0.351478606
28509048 0.11862234 0.35123521
28584248 0.119337096 0.350870072
28659548 0.119956813 0.350472033
28734848 0.120502844 0.350126475
28810148 0.121047861 0.349645942
28885348 0.121904015 0.349349379
28960648 0.122592926 0.348874002
29035948 0.122991509 0.348522782
29111148 0.123776666 0.347964525
29186448 0.124295979 0.347788989
29261748 0.124888487 0.347426474
29337048 0.125502318 0.347064048
29412248 0.126220986 0.346498012
29487548 0.12672539 0.346268922
29562848 0.12733075 0.345833063
29638148 0.127806141 0.34549582
29713348 0.128522917 0.345038801
29788648 0.129059359 0.344675481
29863948 0.129577368 0.344220578
29939148 0.130358323 0.343845725
30014448 0.130796283 0.343640387
30089748 0.131494522 0.343146145
30165048 0.13207291 0.342979043
30240248 0.132567375 0.342499077
30315548 0.133121207 0.342075794
30390848 0.133627116 0.341711252
30466148 0.134230405 0.341486126
30541348 0.134931683 0.341028749
30616648 0.135407775 0.340744614
30691948 0.136036291 0.340260356
30767148 0.136422276 0.339897692
30842448 0.137161612 0.339540094
30917748 0.137532785 0.339075237
30993048 0.138122439 0.338789373
31068248 0.13884513 0.338280171
31143548 0.139219626 0.338064163
31218848 0.140015646 0.33755666
31294148 0.14030604 0.337244987
31369348 0.141022473 0.337002515
31444648 0.141459256 0.336918205
31519948 0.142044454 0.336236983
31595248 0.14252156 0.335853993
31670448 0.143110692 0.335544109
31745748 0.143522948 0.33515045
31821048 0.14418818 0.334872752
31896248 0.144733563 0.334583878
31971548 0.145021334 0.334071069
32046848 0.14586009 0.333679467
32122148 0.146213769 0.333394676
32197348 0.14677529 0.332893759
32272648 0.147239044 0.332812875
32347948 0.14755629 0.332322269
32423248 0.148294925 0.331874251
32498448 0.148655012 0.331700414
32573748 0.149235904 0.331255763
32649048 0.149848788 0.33086577
32724248 0.150227606 0.330506712
32799548 0.150850027 0.330157309
32874848 0.15138714 0.329765647
32950148 0.151791259 0.329458296
33025348 0.152388557 0.329140931
33100648 0.152806803 0.32899028
33175948 0.153238534 0.328412204
33251248 0.153707116 0.328306794
33326448 0.154218822 0.327727019
33401748 0.154722049 0.327394008
