# HZ S RI R 50
50000 -0.992298007 0.008510484
89700 -0.9901914 0.027293922
129400 -0.986548721 0.042890898
169100 -0.983265817 0.057352006
208900 -0.97895193 0.070582777
248600 -0.974912166 0.083461798
288300 -0.970530033 0.095694519
328000 -0.966164946 0.107533603
367800 -0.961597859 0.119064122
407500 -0.956871092 0.130366221
447200 -0.952173054 0.141074329
486900 -0.94710946 0.151802182
526700 -0.942354917 0.16215606
566400 -0.937155783 0.172187104
606100 -0.931755304 0.182403936
645900 -0.925768613 0.191666647
685600 -0.921058654 0.201270923
725300 -0.915332376 0.21057102
765000 -0.909622848 0.219640821
804800 -0.90368849 0.228371411
844500 -0.897825837 0.236872017
884200 -0.891916811 0.245231956
923900 -0.886004805 0.253403156
963700 -0.8799479 0.261225193
1003400 -0.87347716 0.269234269
1043100 -0.867230296 0.276688963
1082900 -0.860885143 0.283793985
1122600 -0.854637444 0.290700644
1162300 -0.848157346 0.297597289
1202000 -0.841793954 0.304297357
1241800 -0.835279524 0.310878634
1281500 -0.82884103 0.316806375
1321200 -0.822450637 0.32291001
1360900 -0.815980136 0.328725695
1400700 -0.809307992 0.334649592
1440400 -0.802829563 0.340099036
1480100 -0.796292066 0.34545809
1519800 -0.78965187 0.35031858
1559600 -0.7833696 0.355241984
1599300 -0.776594281 0.360285937
1639000 -0.770109713 0.364755362
1678800 -0.76359868 0.369415342
1718500 -0.757289886 0.373687446
1758200 -0.750848293 0.377886652
1797900 -0.744421064 0.381795406
1837700 -0.738028347 0.385922729
1877400 -0.73165822 0.389506608
1917100 -0.725301861 0.393001139
1956800 -0.719157278 0.396617025
1996600 -0.712886691 0.399918287
2036300 -0.706858754 0.403177738
2076000 -0.700566887 0.406115412
2115800 -0.694676458 0.409155994
2155500 -0.688859939 0.412018567
2195200 -0.68263489 0.414826631
2234900 -0.676630139 0.417517542
2274700 -0.670855998 0.420148104
2314400 -0.66491878 0.422589004
2354100 -0.659276425 0.424980282
2393800 -0.653470814 0.42722401
2433600 -0.648068726 0.429340809
2473300 -0.64242959 0.431365549
2513000 -0.63692516 0.433342754
2552800 -0.631380259 0.435320556
2592500 -0.626097798 0.43710342
2632200 -0.620727658 0.439083695
2671900 -0.615203559 0.440589815
2711700 -0.610089898 0.442270219
2751400 -0.604967832 0.44378364
2791100 -0.599786281 0.445283532
2830800 -0.594802558 0.446708828
2870600 -0.589848041 0.448095351
2910300 -0.585102319 0.449401468
2950000 -0.580217838 0.450679898
2989700 -0.575155496 0.452140122
3029500 -0.570486187 0.453056365
3069200 -0.565708279 0.4543235
3108900 -0.561071753 0.455389469
3148700 -0.55638051 0.456155061
3188400 -0.551810979 0.457454949
3228100 -0.547455549 0.458448201
3267800 -0.542966187 0.459301263
3307600 -0.538538873 0.460154652
3347300 -0.534345984 0.461031317
3387000 -0.529923319 0.461981654
3426700 -0.525879263 0.462727487
3466500 -0.521597743 0.463377445
3506200 -0.517500221 0.464066028
3545900 -0.513317644 0.464773327
3585700 -0.50937283 0.465548306
3625400 -0.505207717 0.466240674
3665100 -0.501300215 0.466915637
3704800 -0.497401803 0.467203348
3744600 -0.493515908 0.467855632
3784300 -0.489654213 0.46847561
3824000 -0.485917478 0.468933045
3863700 -0.481999993 0.469612658
3903500 -0.478260815 0.470010757
3943200 -0.474718004 0.470603615
3982900 -0.471188187 0.471033841
4022700 -0.467367649 0.471392422
4022756 -0.467427611 0.471088737
4066656 -0.463501572 0.471784859
4110556 -0.459495455 0.472196847
4154456 -0.455853432 0.472654193
4198356 -0.451920777 0.473119676
4242256 -0.448126554 0.473292678
4286156 -0.444416075 0.473753511
4330156 -0.4405092 0.474086135
4374056 -0.43702501 0.4742527
4417956 -0.433233499 0.474616438
4461856 -0.429946392 0.474965661
4505756 -0.426285445 0.475148618
4549656 -0.422808229 0.47531718
4593656 -0.419276475 0.47561407
4637556 -0.415702462 0.475883364
4681456 -0.412338167 0.476253598
4725356 -0.408939898 0.476352691
4769256 -0.405789405 0.476514756
4813156 -0.402375519 0.476772695
4857156 -0.399069279 0.476897478
4901056 -0.395779043 0.477172702
4944956 -0.392666876 0.47743529
4988856 -0.389372497 0.477496176
5032756 -0.38612008 0.477651
5076656 -0.383271038 0.477652937
5120656 -0.380180835 0.477970898
5164556 -0.376942664 0.478113919
5208456 -0.374023288 0.478232681
5252356 -0.370822936 0.478300154
5296256 -0.367848098 0.478495776
5340156 -0.364957779 0.47841835
5384056 -0.361932665 0.47848773
5428056 -0.358920216 0.478558778
5471956 -0.356201231 0.478687912
5515856 -0.353511184 0.478752523
5559756 -0.35043776 0.478772729
5603656 -0.347743272 0.478837102
5647556 -0.34482032 0.478847771
5691556 -0.342085778 0.479170173
5735456 -0.339395672 0.478960961
5779356 -0.336507081 0.479047268
5823256 -0.334002345 0.479039937
5867156 -0.331244736 0.479206711
5911056 -0.328609853 0.479134291
5955056 -0.325980454 0.479160487
5998956 -0.323306977 0.479038029
6042856 -0.320864409 0.479070007
6086756 -0.318280041 0.47919929
6130656 -0.315805286 0.479023844
6174556 -0.313440024 0.478900581
6218556 -0.310976833 0.479055643
6262456 -0.308807581 0.478942275
6306356 -0.306606978 0.478911787
6350256 -0.304507672 0.478821516
6394156 -0.302515327 0.478850007
6438056 -0.300630062 0.478736579
6481956 -0.298588454 0.478778988
6525956 -0.29634115 0.478907138
6569856 -0.294087111 0.47918111
6613756 -0.291134536 0.479254662
6657656 -0.288211971 0.479340106
6701556 -0.285022228 0.479332864
6745456 -0.281851708 0.479432314
6789456 -0.278761416 0.479332894
6833356 -0.275858521 0.47938323
6877256 -0.273011386 0.479502439
6921156 -0.270199388 0.479644924
6965056 -0.267768681 0.479588657
7008956 -0.265172451 0.479519903
7052956 -0.262773543 0.479746371
7096856 -0.260421097 0.479706823
7140756 -0.258199095 0.479660511
7184656 -0.256413787 0.479378014
7228556 -0.254282712 0.479201704
7272456 -0.25213468 0.479151159
7316456 -0.250053524 0.478931814
7360356 -0.248037561 0.478715509
7404256 -0.24585773 0.478572428
7448156 -0.243895769 0.478511571
7492056 -0.241585657 0.478292644
7535956 -0.23969978 0.478055924
7579856 -0.237489253 0.478016614
7623856 -0.235357463 0.477833688
7667756 -0.233330264 0.477832078
7711656 -0.231301292 0.477611929
7755556 -0.228988498 0.477445095
7799456 -0.22712998 0.477293103
7843356 -0.225157886 0.477128893
7887356 -0.223004952 0.477007746
7931256 -0.221049904 0.476933896
7975156 -0.218932211 0.476710885
8019056 -0.216831862 0.476527184
8062956 -0.21488592 0.476336121
8106856 -0.212814062 0.476380169
8150856 -0.210780575 0.476162254
8194756 -0.208986207 0.476014196
8238656 -0.207014456 0.475750774
8282556 -0.20488879 0.475555926
8326456 -0.202987238 0.475361049
8370356 -0.201242625 0.475379109
8414356 -0.199149176 0.475196033
8414434 -0.199231088 0.475155055
8463434 -0.196904093 0.475042551
8512534 -0.19487375 0.474723696
8561634 -0.192859262 0.474597871
8610734 -0.190512672 0.474274992
8659834 -0.188538476 0.474041581
8708934 -0.186391904 0.473962813
8758034 -0.184254407 0.473650038
8807134 -0.182313382 0.473384261
8856234 -0.180200994 0.47320789
8905334 -0.178078919 0.473092734
8954434 -0.176001131 0.472663551
9003534 -0.174025252 0.472759395
9052634 -0.17183572 0.472393155
9101734 -0.169925928 0.47209832
9150834 -0.167929321 0.472053021
9199934 -0.166218653 0.471641957
9248934 -0.164150461 0.471437186
9298034 -0.162008538 0.47106263
9347134 -0.160058349 0.470966368
9396234 -0.158071652 0.470722556
9445334 -0.15623869 0.470154583
9494434 -0.154181912 0.470131754
9543534 -0.15245378 0.469932019
9592634 -0.150433331 0.469540655
9641734 -0.148676559 0.469301342
9690834 -0.146727412 0.469011545
9739934 -0.144686833 0.468860059
9789034 -0.14302653 0.468559026
9838134 -0.141219705 0.468326687
9887234 -0.139321327 0.467927336
9936334 -0.137285396 0.467728704
9985434 -0.135542079 0.467438191
10034534 -0.133836597 0.467020213
10083534 -0.132051005 0.46673578
10132634 -0.130304381 0.466424047
10181734 -0.128340005 0.466167747
10230834 -0.126714065 0.465647011
10279934 -0.124979183 0.465535253
10329034 -0.123254738 0.465133279
10378134 -0.121509298 0.464741736
10427234 -0.119778767 0.464418709
10476334 -0.11802455 0.464193731
10525434 -0.116348408 0.463945955
10574534 -0.11462225 0.463506221
10623634 -0.112871401 0.463231712
10672734 -0.111193962 0.462963908
10721834 -0.109677277 0.462399721
10770934 -0.107963271 0.462112367
10820034 -0.106240652 0.461787402
10869134 -0.104728981 0.461357384
10918134 -0.103019557 0.460984528
10967234 -0.10136909 0.460691094
11016334 -0.099837534 0.460344165
11065434 -0.098167225 0.460234999
11114534 -0.096578881 0.459651023
11163634 -0.09500043 0.459331274
11212734 -0.093555957 0.459108561
11261834 -0.091938085 0.458632737
11310934 -0.090353779 0.458149462
11360034 -0.088729217 0.457872837
11409134 -0.087170027 0.457514792
11458234 -0.085533745 0.4570463
11507334 -0.08416295 0.456924468
11556434 -0.082741908 0.456500798
11605534 -0.081145919 0.455972164
11654634 -0.079685874 0.45569083
11703634 -0.078065983 0.455391317
11752734 -0.07654114 0.454856872
11801834 -0.075095348 0.454309433
11850934 -0.073470465 0.454066842
11900034 -0.072255156 0.453710228
11949134 -0.070757545 0.453181654
11998234 -0.069283038 0.452702403
12047334 -0.067782863 0.452401608
12096434 -0.06628514 0.45198059
12145534 -0.064948685 0.451673865
12194634 -0.063594035 0.451305478
12243734 -0.062160532 0.451067715
12292834 -0.060690615 0.450640261
12341934 -0.059272214 0.450144112
12391034 -0.057742338 0.449618369
12440134 -0.056477881 0.449236214
12489234 -0.055106732 0.448928177
12538234 -0.05373314 0.448591709
12587334 -0.052415315 0.44814679
12636434 -0.051023293 0.447710663
12685534 -0.049660354 0.44741556
12734634 -0.048341888 0.446869432
12783734 -0.047068551 0.446537673
12832834 -0.045551337 0.445996344
12881934 -0.044194139 0.445625394
12931034 -0.043077457 0.445295989
12980134 -0.041620884 0.444961607
13029234 -0.040389869 0.444401562
13078334 -0.039088726 0.44414708
13127434 -0.037726428 0.443835198
13176534 -0.036521535 0.443230986
13225634 -0.035185333 0.442956864
13274734 -0.034083236 0.442408502
13323834 -0.032699789 0.442061841
13323912 -0.032575514 0.442026555
13379512 -0.031269226 0.441726684
13435212 -0.030116023 0.441252082
13490812 -0.028470709 0.440662205
13546512 -0.02689317 0.440179049
13602112 -0.025625327 0.439856529
13657812 -0.024260008 0.439385682
13713512 -0.022857965 0.438878029
13769112 -0.02145846 0.438487052
13824812 -0.020207284 0.438046634
13880412 -0.018734198 0.437491863
13936112 -0.017518399 0.436958938
13991812 -0.016085164 0.436680197
14047412 -0.014732937 0.436210751
14103112 -0.013395648 0.435724526
14158712 -0.012179946 0.435205698
14214412 -0.010761142 0.434729218
14270112 -0.009545342 0.434329956
14325712 -0.008262591 0.433818101
14381412 -0.00686125 0.433318376
14437012 -0.005617172 0.432849049
14492712 -0.004315621 0.432316243
14548312 -0.003123813 0.432056844
14604012 -0.001866887 0.431433498
14659712 -0.000481368 0.43102613
14715312 0.000746644 0.430612921
14771012 0.00185228 0.430007696
14826612 0.003120952 0.429527252
14882312 0.004289565 0.429000943
14938012 0.0056161 0.428603887
14993612 0.006817465 0.428327202
15049312 0.008030773 0.427676141
15104912 0.009309857 0.427137076
15160612 0.010422014 0.426811397
15216312 0.01159292 0.426275193
15271912 0.01278052 0.425839692
15327612 0.013946625 0.42553538
15383212 0.015238293 0.424736887
15438912 0.016180725 0.424423277
15494612 0.017423588 0.424038738
15550212 0.018526211 0.423339605
15605912 0.01980541 0.423080891
15661512 0.020858727 0.422524124
15717212 0.022029409 0.422088503
15772812 0.023179 0.421708524
15828512 0.024366585 0.421124696
15884212 0.025319335 0.420574784
15939812 0.026446556 0.420114725
15995512 0.027466969 0.419615268
16051112 0.028593549 0.419272214
16106812 0.029746133 0.418846815
16162512 0.030805943 0.418298929
16218112 0.031760793 0.417749941
16273812 0.032930832 0.417397469
16329412 0.033965185 0.417007505
16385112 0.034951161 0.416372358
16440812 0.036015514 0.415969043
16496412 0.03701907 0.415524035
16552112 0.038136869 0.414995491
16607712 0.039221271 0.414598733
16663412 0.040073182 0.414072126
16719012 0.041220441 0.413549512
16774712 0.042365621 0.413126528
16830412 0.043151833 0.412778705
16886012 0.044263463 0.412267178
16941712 0.04516882 0.41171813
16997312 0.046249564 0.411380171
17053012 0.04714844 0.410756975
17108712 0.048220787 0.41030842
17164312 0.049310985 0.409901052
17220012 0.050252746 0.409411251
17275612 0.051092199 0.408884793
17331312 0.052169803 0.408346265
17387012 0.053007002 0.407986789
17442612 0.053936362 0.407576501
17498312 0.055010333 0.407008707
17553912 0.055935312 0.406422108
17609612 0.056758314 0.406132936
17665312 0.05779837 0.40566039
17720912 0.058746162 0.405209779
17776612 0.059578094 0.404694139
17832212 0.060410715 0.404334723
17887912 0.061365526 0.403775185
17943512 0.062330011 0.403347283
17999212 0.063077613 0.402926415
18054912 0.064172081 0.402509361
18110512 0.065041884 0.401866167
18166212 0.065905191 0.401591837
18221812 0.066769123 0.401207864
18277512 0.067618019 0.400654464
18333212 0.068593479 0.400182545
18388812 0.069692373 0.399619162
18444512 0.070285499 0.399307787
18500112 0.071138031 0.398666173
18555812 0.071985863 0.398357897
18611512 0.073031581 0.397852569
18667112 0.07378792 0.397508561
18722812 0.074589252 0.397102028
18778412 0.075477242 0.396548777
18834112 0.076238803 0.396057903
18889812 0.077048413 0.395701408
18889820 0.076931238 0.39564076
18954020 0.077911786 0.395254701
19018320 0.078961424 0.39451605
19082520 0.079977869 0.394139647
19146820 0.080825336 0.393701165
19211020 0.08181528 0.393125921
19275320 0.08271557 0.392553836
19339520 0.083554498 0.392023414
19403820 0.084642395 0.391538769
19468020 0.085472032 0.391127407
19532320 0.086359493 0.390697032
19596520 0.087169095 0.390048444
19660820 0.088188253 0.389583796
19725020 0.089192561 0.389022171
19789320 0.089769378 0.388462424
19853520 0.090771995 0.388002127
19917820 0.092001497 0.387385398
19982120 0.092650786 0.387007296
20046320 0.093517407 0.386522352
20110620 0.094378091 0.386072903
20174820 0.095232494 0.38550803
20239120 0.096143811 0.385087698
20303320 0.097114406 0.384596467
20367620 0.097757771 0.384001046
20431820 0.09860517 0.383575826
20496120 0.099569618 0.383228182
20560320 0.100286439 0.382503777
20624620 0.101302355 0.382023215
20688820 0.102040328 0.381671011
20753120 0.102813683 0.381004869
20817320 0.103668898 0.380562484
20881620 0.10449586 0.380301594
20945820 0.105338804 0.379646122
21010120 0.106103844 0.379140764
21074420 0.106827691 0.378689765
21138620 0.107664704 0.378259569
21202920 0.108506016 0.377829074
21267120 0.109169661 0.37717092
21331420 0.110016606 0.376735478
21395620 0.110773801 0.376396983
21459920 0.11160662 0.375756919
21524120 0.112279027 0.375324249
21588420 0.113034561 0.374925225
21652620 0.113816 0.374510794
21716920 0.114561282 0.373943448
21781120 0.115593813 0.373503297
21845420 0.116183631 0.373142778
21909620 0.116915054 0.372454643
21973920 0.117676749 0.372199118
22038120 0.11843907 0.371498346
22102420 0.119219981 0.37119618
22166720 0.119868509 0.370691686
22230920 0.120568878 0.370211511
22295220 0.121448643 0.369823485
22359420 0.122022002 0.369449287
22423720 0.122884936 0.368903636
22487920 0.123397395 0.368525832
22552220 0.124230921 0.367994546
22616420 0.124963335 0.367649704
22680720 0.125754565 0.36715728
22744920 0.126253277 0.366627126
22809220 0.127059876 0.366333603
22873420 0.127769887 0.365974724
22937720 0.128486514 0.36532247
23001920 0.129119753 0.364991545
23066220 0.129770398 0.364546805
23130420 0.130416259 0.364206939
23194720 0.131212905 0.363756388
23259020 0.13189049 0.363185524
23323220 0.132613509 0.362858265
23387520 0.133260592 0.36226353
23451720 0.134012669 0.361913144
23516020 0.13445191 0.361439108
23580220 0.135213822 0.361111164
23644520 0.135839223 0.360794275
23708720 0.13651748 0.360061496
23773020 0.137014672 0.359849572
23837220 0.137711435 0.359369754
23901520 0.138563752 0.358903795
23965720 0.139166653 0.358583927
24030020 0.139675378 0.35810694
24094220 0.140180319 0.357728362
24158520 0.141066834 0.357282906
24222720 0.141659975 0.35692662
24287020 0.142295747 0.356372952
24351320 0.14295341 0.3562285
24415520 0.143428459 0.35555309
24479820 0.144033461 0.355276167
24544020 0.144709855 0.354755669
24608320 0.145415022 0.354476809
24672520 0.145905062 0.35403797
24736820 0.146541193 0.3535434
24801020 0.147224873 0.353055804
24865320 0.147762 0.35292524
24929520 0.148356974 0.352394729
24993820 0.148880943 0.351955264
25058020 0.149622216 0.351700305
25122320 0.150160416 0.35127151
25186520 0.150556027 0.350802838
25250820 0.151178911 0.350292026
25315120 0.15189597 0.349988847
25315188 0.151786312 0.349929749
25391088 0.152606949 0.349478453
25467088 0.15310651 0.348941713
25543088 0.153809502 0.348560184
25619088 0.154566138 0.347918033
25695088 0.155117586 0.347637861
25771088 0.15584211 0.34718731
25847088 0.156603053 0.346553385
25923088 0.157098531 0.346271008
25999088 0.157826676 0.345809191
26075088 0.1582724 0.345307201
26151088 0.159056082 0.344840139
26227088 0.159731984 0.344372063
26303088 0.160331442 0.344011723
26379088 0.160960614 0.343429207
26455088 0.161677151 0.343044221
26531088 0.162405684 0.342537015
26607088 0.16289936 0.341997295
26683088 0.163542613 0.34177801
26759088 0.164182305 0.341107338
26835088 0.164739489 0.340728759
26910988 0.165339559 0.34032911
26986988 0.165940836 0.339802354
27062988 0.166579216 0.339285641
27138988 0.167064592 0.338929712
27214988 0.167806342 0.338422119
27290988 0.168285444 0.338220208
27366988 0.1689208 0.337832719
27442988 0.16956745 0.336913704
27518988 0.170113563 0.336711227
27594988 0.170767217 0.336298704
27670988 0.17117989 0.33590272
27746988 0.171952083 0.335483461
27822988 0.172479629 0.334986805
27898988 0.173028796 0.334559708
27974988 0.173656463 0.334057867
28050988 0.174116641 0.333792537
28126988 0.174952462 0.333453834
28202988 0.175228446 0.332978904
28278988 0.175707116 0.332413494
28354988 0.176470354 0.332128137
28430888 0.176934048 0.331689506
28506888 0.177573248 0.331272751
28582888 0.178069114 0.330875426
28658888 0.178481042 0.330497294
28734888 0.179273396 0.330090224
28810888 0.179820418 0.329630285
28886888 0.180314511 0.329171389
28962888 0.180811479 0.328808546
29038888 0.181367546 0.32839626
29114888 0.181826353 0.328005611
29190888 0.182476714 0.327616453
29266888 0.182988077 0.327172577
29342888 0.183503389 0.326780229
29418888 0.184005975 0.326539993
29494888 0.184538975 0.326093435
29570888 0.184990048 0.325685769
29646888 0.185617178 0.325203776
29722888 0.186029717 0.324913144
29798888 0.186486676 0.324408411
29874888 0.187170445 0.324069529
29950788 0.187626063 0.323715239
30026788 0.188164487 0.323384284
30102788 0.188681975 0.322775959
30178788 0.189052417 0.32252103
30254788 0.189572662 0.322098314
30330788 0.190237611 0.32161352
30406788 0.190664514 0.321289569
30482788 0.191175952 0.320961594
30558788 0.191857576 0.320511311
30634788 0.192092582 0.32016465
30710788 0.192650392 0.319917738
30786788 0.193199336 0.319408744
30862788 0.193489521 0.319080859
30938788 0.193984195 0.318811535
31014788 0.194464549 0.318321466
31090788 0.195091739 0.3180736
31166788 0.195540949 0.317608863
31242788 0.196175411 0.317308485
31318788 0.196531295 0.316934466
31394788 0.196880251 0.316468536
31470688 0.197385773 0.316257059
31546688 0.197802811 0.315768927
31622688 0.198264583 0.315414875
31698688 0.198801293 0.314951151
31774688 0.199193865 0.314591914
31850688 0.199846491 0.314297169
31926688 0.200296103 0.314013749
32002688 0.200538173 0.313658505
32078688 0.201113402 0.313392549
32154688 0.201630979 0.312853008
32230688 0.202029481 0.312526047
32306688 0.202481642 0.312185287
32382688 0.202735915 0.311855047
32458688 0.203314095 0.311366379
32534688 0.203807473 0.311207175
32610688 0.204313367 0.310689359
32686688 0.204694226 0.310356348
32762688 0.205125704 0.309995025
32838688 0.205593779 0.30977419
32914688 0.205974236 0.309285998
32914784 0.206103876 0.309420764
33007784 0.206428781 0.308918625
