# HZ S RI R 50
1000000 -0.853836774 0.279417753
1039300 -0.846432745 0.286084026
1078600 -0.839167594 0.292696028
1118000 -0.831988513 0.29854694
1157300 -0.824725329 0.304409533
1196700 -0.817672193 0.309952676
1236000 -0.810742974 0.315197646
1275400 -0.803414225 0.320243567
1314700 -0.796650409 0.325339108
1354100 -0.789701104 0.330101996
1393400 -0.782795369 0.334507465
1432800 -0.776105403 0.338946938
1472100 -0.769370257 0.342955559
1511500 -0.76276648 0.346795052
1550800 -0.756294012 0.350891321
1590200 -0.74965018 0.354383707
1629500 -0.74342674 0.358001232
1668900 -0.73703134 0.361586779
1708200 -0.730980157 0.364602118
1747600 -0.724787652 0.367922067
1786900 -0.71878463 0.370853006
1826300 -0.712590575 0.373825997
1865600 -0.706829071 0.37658438
1905000 -0.70100063 0.379365116
1944300 -0.695201933 0.382084906
1983700 -0.689431667 0.384510606
2023000 -0.683900237 0.38692528
2062400 -0.678353726 0.389231771
2101700 -0.67283833 0.391512602
2141100 -0.667502999 0.393630564
2180400 -0.662287354 0.395840585
2219800 -0.656806468 0.397900015
2259100 -0.65173012 0.400039941
2298500 -0.646292746 0.401994705
2337800 -0.641312062 0.403810739
2377200 -0.636210799 0.405832827
2416500 -0.631349742 0.407406121
2455900 -0.626424551 0.40915808
2495200 -0.62163192 0.410717636
2534600 -0.61669296 0.412421256
2573900 -0.61191231 0.413947343
2613300 -0.607310116 0.415437072
2652600 -0.602716505 0.416947752
2692000 -0.598217904 0.418482691
2731300 -0.593732655 0.419698894
2770700 -0.589197456 0.421042084
2810000 -0.584819078 0.422325432
2849400 -0.580505847 0.423655897
2888700 -0.576320052 0.424950361
2928100 -0.571826636 0.426239311
2967400 -0.567720293 0.427327722
3006700 -0.56341803 0.428526997
3046100 -0.559138715 0.429628551
3085400 -0.55514276 0.43094632
3124800 -0.551206469 0.431751102
3164100 -0.547180771 0.432899206
3203500 -0.54323256 0.434070229
3242800 -0.539230942 0.434856891
3282200 -0.535332918 0.435933232
3321500 -0.531482934 0.436654746
3360900 -0.52763319 0.43778333
3400200 -0.523794949 0.438732594
3439600 -0.520124256 0.439460873
3478900 -0.51647973 0.440357059
3518300 -0.512784719 0.441321849
3557600 -0.508956253 0.44209057
3597000 -0.505452334 0.442688643
3636300 -0.501676797 0.443509429
3675700 -0.498193114 0.444283932
3715000 -0.494832247 0.445135593
3754400 -0.491344153 0.445847809
3793700 -0.487847268 0.446545243
3833100 -0.484368205 0.447194904
3872400 -0.481027245 0.447818219
3911800 -0.477496176 0.448691815
3951100 -0.474016785 0.449189424
3990500 -0.470829099 0.449953943
4029800 -0.467680335 0.450532823
4069200 -0.464259356 0.451186805
4108500 -0.460819423 0.451546102
4147900 -0.457720726 0.452166646
4187200 -0.454472273 0.452731698
4226600 -0.45125395 0.453219115
4265900 -0.448112964 0.453719824
4305300 -0.444935351 0.454262107
4344600 -0.442029744 0.454799234
4384000 -0.438814103 0.455174416
4423300 -0.435801684 0.455637037
4462700 -0.432659178 0.45620802
4502000 -0.429760217 0.456559538
4541400 -0.426673471 0.457008302
4580700 -0.423597276 0.457444697
4620100 -0.4207201 0.457859307
4659400 -0.417674481 0.4582116
4698800 -0.414835125 0.458499312
4738100 -0.411996662 0.459054946
4777500 -0.409181952 0.459298074
4816800 -0.406145274 0.459711998
4856200 -0.403279721 0.459973007
4895500 -0.400645256 0.460314273
4934900 -0.397659868 0.460728079
4934996 -0.397892475 0.460921943
4978396 -0.394727349 0.461064457
5021896 -0.391617029 0.461483627
5065396 -0.388566702 0.461575746
5108896 -0.385742723 0.462057799
5152396 -0.382537424 0.462273716
5195896 -0.379505634 0.462532311
5239396 -0.376638412 0.462828874
5282896 -0.373566061 0.463223129
5326396 -0.370648056 0.463313549
5369896 -0.367758393 0.46368131
5413396 -0.364982336 0.463794767
5456896 -0.362262099 0.464146554
5500396 -0.359274297 0.464188486
5543896 -0.356460362 0.464454621
5587396 -0.353610843 0.464567035
5630896 -0.35090065 0.464976459
5674396 -0.348000973 0.46501699
5717896 -0.34530735 0.465205729
5761396 -0.342543333 0.465442121
5804896 -0.340048193 0.465505212
5848396 -0.337105065 0.465635895
5891896 -0.334561914 0.465812206
5935396 -0.332110375 0.465826392
5978896 -0.329292505 0.46608749
6022396 -0.326800912 0.466030925
6065896 -0.324290573 0.466082721
6109396 -0.321908026 0.466164201
6152896 -0.319446295 0.466268479
6196396 -0.316849052 0.46624732
6239896 -0.314746946 0.466421335
6283396 -0.312480241 0.466494858
6326896 -0.310285747 0.466398745
6370396 -0.308321058 0.46645084
6413896 -0.306216239 0.466375201
6457396 -0.304232567 0.466465383
6500896 -0.302245259 0.466640561
6544396 -0.299804329 0.466928422
6587896 -0.296846687 0.467034965
6631396 -0.293995887 0.467436343
6674896 -0.290860116 0.467413872
6718396 -0.287706255 0.467423439
6761896 -0.284489214 0.467499077
6805396 -0.28184843 0.467452913
6848896 -0.278786033 0.467639058
6892396 -0.275968819 0.467800259
6935896 -0.273324161 0.467839628
6979396 -0.270858407 0.467873305
7022896 -0.2682859 0.468085289
7066396 -0.26592037 0.468105554
7109896 -0.263875603 0.467983722
7153396 -0.261923938 0.467834085
7196896 -0.259683996 0.467554241
7240396 -0.257603377 0.467503517
7283896 -0.255533874 0.467305332
7327396 -0.253476887 0.467299044
7370896 -0.251386225 0.467116147
7414396 -0.249186247 0.466783583
7457896 -0.247067123 0.466725498
7501396 -0.24491696 0.466370224
7544896 -0.242791533 0.466408491
7588396 -0.240690618 0.466205358
7631896 -0.238698676 0.466190189
7675396 -0.236499309 0.465814262
7718896 -0.234590485 0.465695738
7762396 -0.232211261 0.465545296
7805896 -0.23036921 0.46540451
7849396 -0.228210613 0.465350776
7892896 -0.226063385 0.465180993
7936396 -0.223888635 0.464926302
7979896 -0.221963688 0.46472004
8023396 -0.219869166 0.464712023
8066896 -0.218004822 0.464599519
8110396 -0.21594657 0.464249283
8153896 -0.213988289 0.464242011
8197396 -0.211875632 0.463956892
8240896 -0.209957271 0.463770568
8284396 -0.207979679 0.463508874
8327896 -0.206043392 0.463301062
8371396 -0.204100519 0.463159084
8414896 -0.202153712 0.462980896
8458396 -0.200184449 0.462718874
8501896 -0.198265373 0.462474942
8545396 -0.196485057 0.462331056
8588896 -0.194489195 0.462044805
8632396 -0.192562505 0.46177724
8675896 -0.190743312 0.461488425
8719396 -0.188713043 0.461414456
8762896 -0.186994805 0.461266994
8806396 -0.185093283 0.460832983
8849896 -0.183377146 0.460658639
8893396 -0.181569039 0.460480868
8936896 -0.17970848 0.460219979
8980396 -0.177922144 0.459938943
9023896 -0.176231235 0.459797799
9067396 -0.174245908 0.459509134
9110896 -0.172725126 0.459168106
9154396 -0.17077355 0.458855956
9197896 -0.168992191 0.458576768
9241396 -0.167329549 0.458360731
9284896 -0.165602043 0.458066105
9284932 -0.165646165 0.458119571
9333532 -0.163623616 0.457963824
9382132 -0.161680027 0.457600593
9430732 -0.159777984 0.457140117
9479432 -0.157860487 0.456742912
9528032 -0.156051114 0.456492155
9576632 -0.154199898 0.456282019
9625232 -0.15244472 0.455960392
9673932 -0.150501981 0.455715417
9722532 -0.148495703 0.455178558
9771132 -0.146613597 0.454863846
9819832 -0.144948288 0.45463097
9868432 -0.143146097 0.454229205
9917032 -0.141224116 0.453962206
9965632 -0.139436498 0.453626424
10014332 -0.137724325 0.453148573
10062932 -0.136031508 0.452678322
10111532 -0.134316474 0.452485382
10160232 -0.132682695 0.452021718
10208832 -0.130883663 0.451735615
10257432 -0.129014641 0.451302051
10306032 -0.127459496 0.450922489
10354732 -0.125839009 0.450476586
10403332 -0.123949632 0.450154125
10451932 -0.122416839 0.44972375
10500632 -0.120810411 0.449471205
10549232 -0.119065754 0.449162632
10597832 -0.117499358 0.448699653
10646432 -0.115713767 0.448137968
10695132 -0.113998174 0.447784751
10743732 -0.112558603 0.447493165
10792332 -0.110890954 0.447031915
10840932 -0.109334126 0.446752279
10889632 -0.107756979 0.446203976
10938232 -0.106127798 0.446023225
10986832 -0.104766324 0.445362329
11035532 -0.10313344 0.445016384
11084132 -0.101696923 0.44464305
11132732 -0.100066788 0.444268494
11181332 -0.098533041 0.443839102
11230032 -0.097037181 0.443406701
11278632 -0.095428042 0.44295156
11327232 -0.094043105 0.442638307
11375932 -0.092592388 0.442100793
11424532 -0.091095797 0.441616684
11473132 -0.089542441 0.441318064
11521732 -0.08793167 0.440879642
11570432 -0.086588606 0.44046393
11619032 -0.085256449 0.439956933
11667632 -0.083768129 0.439543932
11716332 -0.082273796 0.439166575
11764932 -0.080911159 0.438711702
11813532 -0.079462982 0.438141494
11862132 -0.07809139 0.437902748
11910832 -0.07660596 0.437451243
11959432 -0.075331568 0.436922013
12008032 -0.07376489 0.436567932
12056632 -0.072510726 0.436123102
12105332 -0.071206353 0.435649335
12153932 -0.069824099 0.435216784
12202532 -0.068342737 0.434850096
12251232 -0.066987238 0.434408128
12299832 -0.065604291 0.434025108
12348432 -0.064490944 0.433495163
12397032 -0.063109882 0.433071017
12445732 -0.061748497 0.432617813
12494332 -0.060259848 0.43209061
12542932 -0.059292525 0.43182975
12591632 -0.057927116 0.431392699
12640232 -0.056466858 0.43099451
12688832 -0.05539862 0.430519729
12737432 -0.05410372 0.430060684
12786132 -0.052687115 0.429496258
12834732 -0.051428318 0.429099112
12883332 -0.050274509 0.428699165
12932032 -0.048942986 0.428181797
12980632 -0.047670476 0.42781192
13029232 -0.046569071 0.427430301
13077832 -0.045260746 0.427024841
13126532 -0.04404512 0.426549643
13175132 -0.042924348 0.426123946
13223732 -0.041696842 0.425644814
13272332 -0.040400717 0.425232142
13321032 -0.039271868 0.424852997
13369632 -0.038026235 0.42446807
13418232 -0.036825768 0.423948436
13466932 -0.035863243 0.423456877
13515532 -0.034563895 0.423001587
13564132 -0.033503133 0.422689914
13612732 -0.032301925 0.42215994
13661432 -0.031158242 0.421774059
13710032 -0.02985133 0.421295046
13758632 -0.02863454 0.420954436
13807332 -0.027711195 0.420470178
13855932 -0.026434428 0.419980496
13904532 -0.025557599 0.419723957
13953132 -0.024290753 0.419180005
14001832 -0.023172777 0.418781906
14050432 -0.022048924 0.418471068
14099032 -0.02090639 0.417990058
14147732 -0.01985556 0.417370885
14147747 -0.01995051 0.417509645
14202847 -0.018627835 0.4170565
14257947 -0.017452174 0.416642814
14313047 -0.016172144 0.415957093
14368247 -0.0150786 0.415704965
14423347 -0.013758246 0.415104776
14478447 -0.012442987 0.414539843
14533647 -0.011381053 0.414023011
14588747 -0.010183282 0.413581341
14643847 -0.009109007 0.413312584
14699047 -0.007827725 0.412557601
14754147 -0.006742516 0.412177622
14809247 -0.005549281 0.411852002
14864347 -0.004283738 0.411215394
14919547 -0.003183326 0.410754382
14974647 -0.002136177 0.41027823
15029747 -0.001194303 0.409856259
15084947 0.000110467 0.409307628
15140047 0.001365861 0.408829629
15195147 0.002361973 0.408305287
15250347 0.003364199 0.40771839
15305447 0.004556384 0.407275885
15360547 0.005679927 0.406838059
15415647 0.00675939 0.406425625
15470847 0.007846808 0.405986011
15525947 0.008688255 0.405475527
15581047 0.009897528 0.404935449
15636247 0.010911733 0.404443472
15691347 0.012044388 0.404050409
15746447 0.012921906 0.403451204
15801647 0.014025826 0.402944415
15856747 0.015230922 0.402647793
15911847 0.016136635 0.402044206
15966947 0.017080446 0.401593983
16022147 0.018133878 0.401182085
16077247 0.019289271 0.40058422
16132347 0.020161963 0.400306642
16187547 0.02115003 0.399607062
16242647 0.022172547 0.399103134
16297747 0.02328889 0.398718237
16352947 0.024223979 0.398266077
16408047 0.025180429 0.397689431
16463147 0.026044972 0.397249639
16518247 0.027143217 0.396762162
16573447 0.028128996 0.396394908
16628547 0.028960611 0.395795762
16683647 0.029835984 0.395377665
16738847 0.030880002 0.394960373
16793947 0.031834449 0.39445129
16849047 0.032840479 0.393803805
16904247 0.033767454 0.393531411
16959347 0.034812435 0.392991065
17014447 0.035543259 0.392539024
17069547 0.036388747 0.392240464
17124747 0.037292666 0.39170739
17179847 0.03822644 0.391194224
17234947 0.039106372 0.390637129
17290147 0.039984811 0.390253931
17345247 0.040821745 0.389691233
17400347 0.041942216 0.389429241
17455547 0.042719978 0.388940751
17510647 0.043631244 0.388352453
17565747 0.044333908 0.387897878
17620847 0.045520085 0.387506902
17676047 0.046121943 0.38705793
17731147 0.047038711 0.386484891
17786247 0.047831591 0.386108785
17841447 0.048655197 0.385654807
17896547 0.049723424 0.385209053
17951647 0.05023048 0.384931057
18006847 0.051259823 0.384103298
18061947 0.052069496 0.383731424
18117047 0.052943214 0.383324533
18172147 0.053659148 0.382902801
18227347 0.054503921 0.382388442
18282447 0.055403321 0.382038861
18337547 0.056190967 0.381585597
18392747 0.057089995 0.381015598
18447847 0.057562977 0.380558073
18502947 0.058570139 0.380251854
18558147 0.059266481 0.379811763
18613247 0.060163348 0.379483371
18668347 0.060956317 0.378880262
18723447 0.061801273 0.378317087
18778647 0.062543474 0.378085315
18833747 0.06321159 0.377458155
18888847 0.064024262 0.377147018
18944047 0.064880244 0.376708388
18999147 0.065646819 0.376380622
19054247 0.066230498 0.375806212
19109447 0.067103154 0.375480294
19164547 0.067913047 0.374861449
19219647 0.068535432 0.374558061
19274747 0.069317057 0.374189317
19329947 0.070108637 0.373758703
19385047 0.070915423 0.373256742
19440147 0.071596421 0.372601807
19495347 0.072219088 0.372490346
19550447 0.072948224 0.371925771
19605547 0.073715686 0.371496498
19660747 0.074489295 0.37113741
19660752 0.074529677 0.371145069
19724352 0.075427524 0.370610117
19787952 0.076103031 0.370265185
19851652 0.077013306 0.36975333
19915252 0.077719613 0.369128137
19978952 0.078585393 0.36884126
20042552 0.079521238 0.368352085
20106152 0.080277614 0.367702424
20169852 0.080841355 0.367277055
20233452 0.081640563 0.36688891
20297152 0.082645043 0.366234898
20360752 0.083317451 0.36585167
20424452 0.084228903 0.365310758
20488052 0.084985703 0.365050673
20551652 0.085698485 0.364582747
20615352 0.086422853 0.363896697
20678952 0.087279029 0.363414555
20742652 0.088135279 0.362979114
20806252 0.088766828 0.362463623
20869852 0.089562684 0.362149327
20933552 0.09031175 0.361516296
20997152 0.091057114 0.361226111
21060852 0.091708831 0.360647916
21124452 0.092553324 0.360199004
21188152 0.093230217 0.359724581
21251752 0.093903325 0.359143495
21315352 0.094449743 0.358795881
21379052 0.095408052 0.358482778
21442652 0.096052333 0.357827425
21506352 0.096998199 0.357454091
21569952 0.097421914 0.35692507
21633652 0.098257526 0.356614708
21697252 0.098929874 0.356093257
21760852 0.099605105 0.355531454
21824552 0.100359939 0.355204135
21888152 0.100987814 0.354839205
21951852 0.101696759 0.35437408
22015452 0.102570161 0.353928446
22079052 0.103126317 0.353340536
22142752 0.103956632 0.353055208
22206352 0.104682601 0.352509975
22270052 0.105186238 0.352227658
22333652 0.105973929 0.351768255
22397352 0.106586828 0.351372629
22460952 0.107151672 0.35084334
22524552 0.107804484 0.350457876
22588252 0.108505524 0.349960565
22651852 0.109107777 0.349664717
22715552 0.10989724 0.349019736
22779152 0.110467202 0.348679751
22842852 0.111023209 0.348328053
22906452 0.111849591 0.347838938
22970052 0.112347416 0.347464561
23033752 0.113133631 0.346930235
23097352 0.113622948 0.346643745
23161052 0.114332199 0.34637469
23224652 0.114765629 0.345928579
23288252 0.115661211 0.345225274
23351952 0.116157703 0.344931989
23415552 0.116771362 0.344595402
23479252 0.117267303 0.344253152
23542852 0.117991238 0.343844741
23606552 0.118712656 0.343390405
23670152 0.119235344 0.342802792
23733752 0.119857832 0.342422157
23797452 0.120413243 0.34211421
23861052 0.121147654 0.341885745
23924752 0.121655479 0.341469496
23988352 0.122106015 0.341012865
24051952 0.12284632 0.340650767
24115652 0.123430922 0.340199917
24179252 0.123859792 0.339773982
24242952 0.124802492 0.339539676
24306552 0.125070512 0.339039832
24370252 0.125833734 0.338683992
24433852 0.12640886 0.338203072
24497452 0.126934021 0.337792158
24561152 0.127565652 0.337574332
24624752 0.128065288 0.337067097
24688452 0.128718107 0.336820453
24752052 0.129142045 0.336401015
24815752 0.129755884 0.335822612
24879352 0.130388468 0.335540652
24942952 0.130884796 0.335069209
25006652 0.131440177 0.334589928
25070252 0.132055133 0.33440715
25133952 0.132613107 0.333752542
25197552 0.133087828 0.333601057
25261152 0.133594691 0.33323282
25324852 0.134149849 0.33296585
25388452 0.134680911 0.33246985
25452152 0.13526827 0.332164227
25515752 0.13581252 0.331651896
25579452 0.1363319 0.331278771
25643052 0.13691686 0.33089891
25706652 0.137538924 0.330595016
25770352 0.137752771 0.330083072
25833952 0.13839583 0.32995668
25897652 0.139002323 0.329295247
25961252 0.139401137 0.32906875
26024952 0.139905467 0.32888323
26025048 0.139652907 0.328686028
26100248 0.140601426 0.328290373
26175548 0.141136527 0.327880889
26250848 0.141710653 0.327438712
26326048 0.14226906 0.327053934
26401348 0.142979636 0.326818823
26476648 0.143426612 0.326148092
26551948 0.144006997 0.325789362
26627148 0.144732475 0.325248181
26702448 0.145191267 0.324877023
26777748 0.145784839 0.324466615
26853048 0.146365284 0.324110984
26928248 0.146806776 0.323575526
27003548 0.147557213 0.323130667
27078848 0.148175969 0.322842091
27154048 0.148743689 0.322303324
27229348 0.149261012 0.322035402
27304648 0.149774283 0.321552306
27379948 0.150360062 0.321074038
27455148 0.150960355 0.320686995
27530448 0.151508376 0.32036373
27605748 0.151902809 0.31998232
27681048 0.152624696 0.319434374
27756248 0.15310198 0.319045037
27831548 0.153675824 0.318620264
27906848 0.154183894 0.318297266
27982048 0.154713436 0.317932039
28057348 0.155236124 0.317572325
28132648 0.155675679 0.317012131
28207948 0.15636304 0.316644698
28283148 0.156763315 0.316341936
28358448 0.157392412 0.315835714
28433748 0.157897457 0.31552264
28509048 0.15832737 0.315135955
28584248 0.158943459 0.314736962
28659548 0.159515067 0.314286947
28734848 0.160072833 0.313882142
28810148 0.160504266 0.313538014
28885348 0.161024153 0.313013672
28960648 0.161626279 0.312590688
29035948 0.161931753 0.312401592
29111148 0.162545993 0.311948537
29186448 0.162923559 0.311655402
29261748 0.163389399 0.311252683
29337048 0.164093479 0.310996025
29412248 0.164637669 0.310635387
29487548 0.164988428 0.310163915
29562848 0.165668696 0.309810489
29638148 0.165981069 0.309386849
29713348 0.166418492 0.30899626
29788648 0.167045131 0.308600872
29863948 0.167597368 0.308226764
29939148 0.167886197 0.307781696
30014448 0.168393075 0.30759713
30089748 0.168899968 0.307205408
30165048 0.169401735 0.306884706
30240248 0.169848531 0.306607097
30315548 0.170257538 0.306174635
30390848 0.170806378 0.30563423
30466148 0.171422168 0.305391818
30541348 0.171712517 0.304986238
30616648 0.172200784 0.304672509
30691948 0.172708839 0.304385453
30767148 0.173063084 0.303961396
30842448 0.173640996 0.303464412
30917748 0.174094989 0.303203523
30993048 0.174618229 0.302866041
31068248 0.175018981 0.302465796
31143548 0.175513073 0.301877439
31218848 0.175917401 0.301766335
31294148 0.176155805 0.301561027
31369348 0.17671217 0.301074594
31444648 0.177289739 0.300716161
31519948 0.177711337 0.300362288
31595248 0.178106248 0.299970805
31670448 0.178582251 0.299575984
31745748 0.179064199 0.299305945
31821048 0.179372966 0.298844933
31896248 0.179925709 0.298426985
31971548 0.180376335 0.29832223
32046848 0.180771306 0.298009455
32122148 0.181048735 0.297478586
32197348 0.181622132 0.297120749
32272648 0.181894108 0.296919077
32347948 0.182538762 0.296513557
32423248 0.182922139 0.296130031
32498448 0.183152794 0.295938223
32573748 0.183678492 0.295445084
32649048 0.184159725 0.295179218
32724248 0.18461056 0.294825047
32799548 0.184875786 0.294490903
32874848 0.185420423 0.294286876
32950148 0.185688495 0.293857276
33025348 0.186234995 0.293393433
33100648 0.186714246 0.293261319
33175948 0.186961069 0.293001592
33251248 0.187450796 0.292575657
33326448 0.187660872 0.292156487
33401748 0.188178747 0.291914224
33477048 0.188462063 0.291400462
33552348 0.188991367 0.291076838
