# HZ S RI R 50
1000000 -0.7906605 0.30653125
1039300 -0.782325506 0.31207779
1078600 -0.773868799 0.317401736
1118000 -0.765678644 0.322357714
1157300 -0.75781548 0.32726112
1196700 -0.749972045 0.331867277
1236000 -0.742047905 0.336123496
1275400 -0.73417443 0.34034121
1314700 -0.726685822 0.344174116
1354100 -0.719458162 0.34799847
1393400 -0.712106108 0.351469933
1432800 -0.704810261 0.354704767
1472100 -0.697746217 0.358103692
1511500 -0.690799593 0.361137837
1550800 -0.684017956 0.364078044
1590200 -0.677320897 0.366853088
1629500 -0.670643389 0.369696259
1668900 -0.664369642 0.372239619
1708200 -0.657881319 0.374824792
1747600 -0.651621162 0.377176374
1786900 -0.645668983 0.379505157
1826300 -0.639714598 0.381630212
1865600 -0.633635342 0.383986145
1905000 -0.627552747 0.385880827
1944300 -0.622050285 0.387886524
1983700 -0.616207897 0.389641851
2023000 -0.610901057 0.391381204
2062400 -0.605304241 0.393211245
2101700 -0.599866926 0.395015269
2141100 -0.594654679 0.396572202
2180400 -0.589611649 0.398100316
2219800 -0.584215462 0.399880915
2259100 -0.579176664 0.401482939
2298500 -0.573884427 0.402983576
2337800 -0.56903392 0.40452966
2377200 -0.564323782 0.405854135
2416500 -0.559571206 0.407136529
2455900 -0.554689705 0.408205568
2495200 -0.550159215 0.40947628
2534600 -0.545503079 0.410776734
2573900 -0.540814757 0.411983191
2613300 -0.536483466 0.413215935
2652600 -0.531922578 0.414174139
2692000 -0.527523517 0.41534847
2731300 -0.523290395 0.416458308
2770700 -0.518832445 0.417422503
2810000 -0.514673769 0.418373256
2849400 -0.510515451 0.419456601
2888700 -0.506370007 0.420512109
2928100 -0.502365708 0.421348571
2967400 -0.498339891 0.422332614
3006700 -0.494102627 0.423345714
3046100 -0.49006167 0.424152672
3085400 -0.486260801 0.425214648
3124800 -0.482561081 0.425834029
3164100 -0.478631079 0.426731675
3203500 -0.474673628 0.427722662
3242800 -0.471029758 0.428413838
3282200 -0.467389583 0.429209679
3321500 -0.463855564 0.430088579
3360900 -0.460179746 0.430905193
3400200 -0.456577599 0.431307733
3439600 -0.452713578 0.432231575
3478900 -0.449226081 0.432899624
3518300 -0.445844471 0.433483719
3557600 -0.442387908 0.43421325
3597000 -0.438723206 0.434974998
3636300 -0.435378283 0.435630828
3675700 -0.431918859 0.43623197
3715000 -0.42868492 0.436784178
3754400 -0.425363183 0.437389284
3793700 -0.421974956 0.438032031
3833100 -0.418624699 0.438662976
3872400 -0.41541168 0.439127892
3911800 -0.412148326 0.439911901
3951100 -0.409008055 0.440347015
3990500 -0.405725151 0.440825253
4029800 -0.402580112 0.441435873
4069200 -0.399379551 0.441823482
4108500 -0.39649257 0.442463546
4147900 -0.393294602 0.442725211
4187200 -0.389968127 0.44323787
4226600 -0.386937946 0.44377911
4265900 -0.383885592 0.444219559
4305300 -0.380889803 0.444534927
4344600 -0.377912342 0.445023119
4384000 -0.374917656 0.445555984
4423300 -0.371813267 0.445921123
4462700 -0.369221031 0.446109503
4502000 -0.366066098 0.446458399
4541400 -0.363187164 0.44678542
4580700 -0.360186487 0.447248905
4620100 -0.357487946 0.447732299
4659400 -0.354716062 0.448014348
4698800 -0.351893305 0.448248147
4738100 -0.349009007 0.448578983
4777500 -0.346287816 0.448822289
4816800 -0.343519181 0.449143946
4856200 -0.34066227 0.449421465
4895500 -0.337959229 0.449833065
4934900 -0.33520931 0.450155615
4934996 -0.335527569 0.450010985
4978396 -0.332407265 0.450306653
5021896 -0.329441577 0.450529843
5065396 -0.326402187 0.451005667
5108896 -0.323561072 0.451161473
5152396 -0.320736706 0.45137754
5195896 -0.317779034 0.451804101
5239396 -0.315064251 0.45175147
5282896 -0.312131404 0.452163308
5326396 -0.309211075 0.452414661
5369896 -0.306514352 0.452329725
5413396 -0.303624421 0.452738046
5456896 -0.300926864 0.452835589
5500396 -0.298240065 0.4530918
5543896 -0.295291781 0.453212708
5587396 -0.292576104 0.453654706
5630896 -0.289798021 0.453607082
5674396 -0.287229478 0.453401446
5717896 -0.284558564 0.453842103
5761396 -0.281723558 0.453789949
5804896 -0.279293894 0.453903645
5848396 -0.276660144 0.454051822
5891896 -0.274184703 0.454140692
5935396 -0.271490722 0.454250723
5978896 -0.269007593 0.454218327
6022396 -0.266616761 0.454342544
6065896 -0.264072299 0.454390913
6109396 -0.261556833 0.454536288
6152896 -0.259061932 0.4544954
6196396 -0.256958097 0.454474419
6239896 -0.254662692 0.454637885
6283396 -0.252308011 0.454409807
6326896 -0.25030744 0.454632103
6370396 -0.248293519 0.454538583
6413896 -0.246253386 0.454692423
6457396 -0.244275882 0.454748183
6500896 -0.242333874 0.454602092
6544396 -0.239999458 0.454954236
6587896 -0.237328216 0.454990595
6631396 -0.234472841 0.455212563
6674896 -0.231377944 0.455192267
6718396 -0.228469625 0.454999595
6761896 -0.225356236 0.455249756
6805396 -0.222497731 0.455090135
6848896 -0.219845101 0.455020695
6892396 -0.21718569 0.454999148
6935896 -0.214396715 0.455172121
6979396 -0.211738109 0.455238461
7022896 -0.20929636 0.455278038
7066396 -0.207094699 0.45505163
7109896 -0.204879596 0.455150485
7153396 -0.202833756 0.454867064
7196896 -0.200620993 0.454753071
7240396 -0.198645621 0.454434782
7283896 -0.196647197 0.454315841
7327396 -0.194547384 0.454111725
7370896 -0.19258438 0.454027712
7414396 -0.190311431 0.453735262
7457896 -0.188345417 0.453602731
7501396 -0.186348661 0.453463375
7544896 -0.184311538 0.452984094
7588396 -0.182160109 0.452863305
7631896 -0.180225208 0.452662825
7675396 -0.178135514 0.452625542
7718896 -0.175877884 0.45240131
7762396 -0.174129277 0.452287524
7805896 -0.172033026 0.451973587
7849396 -0.169931367 0.451738685
7892896 -0.167888447 0.451463729
7936396 -0.165882036 0.451505064
7979896 -0.1637104 0.451150476
8023396 -0.161852821 0.450948566
8066896 -0.159935742 0.450750648
8110396 -0.157906115 0.450522661
8153896 -0.156083613 0.450410664
8197396 -0.153980553 0.45024994
8240896 -0.152215659 0.449887543
8284396 -0.150150552 0.449695795
8327896 -0.148300036 0.449482053
8371396 -0.146425381 0.449297189
8414896 -0.144551053 0.44891569
8458396 -0.142569914 0.448757201
8501896 -0.140760585 0.448518455
8545396 -0.138885915 0.448209881
8588896 -0.136847838 0.447951018
8632396 -0.135087817 0.447738289
8675896 -0.133171349 0.447490155
8719396 -0.131258174 0.447111755
8762896 -0.129666715 0.446830511
8806396 -0.127779528 0.44669196
8849896 -0.126158416 0.446273833
8893396 -0.124103955 0.445861995
8936896 -0.1224863 0.445655912
8980396 -0.120642624 0.445509642
9023896 -0.11891786 0.445154845
9067396 -0.117121756 0.444771111
9110896 -0.115341633 0.44437772
9154396 -0.113718226 0.444065541
9197896 -0.11191079 0.443853318
9241396 -0.110257729 0.443592667
9284896 -0.108622021 0.443168997
9284932 -0.10879933 0.443377822
9333532 -0.106785126 0.44294995
9382132 -0.104920826 0.442792057
9430732 -0.102878235 0.442258596
9479432 -0.101170226 0.441879421
9528032 -0.099465884 0.441602706
9576632 -0.097574114 0.441042363
9625232 -0.09573777 0.440798431
9673932 -0.093933418 0.44043383
9722532 -0.092187032 0.43980962
9771132 -0.090210087 0.439600944
9819832 -0.088531509 0.439351409
9868432 -0.086747206 0.438675731
9917032 -0.084790304 0.438391268
9965632 -0.083194501 0.438060104
10014332 -0.081482462 0.437598496
10062932 -0.079778373 0.437163203
10111532 -0.078036114 0.436842471
10160232 -0.076301492 0.43644154
10208832 -0.074708953 0.435993999
10257432 -0.07313098 0.435626029
10306032 -0.071358039 0.435081034
10354732 -0.069676302 0.434585452
10403332 -0.067985311 0.434333831
10451932 -0.066410467 0.433819323
10500632 -0.064947001 0.43339467
10549232 -0.063271492 0.43296048
10597832 -0.061626698 0.432511121
10646432 -0.060155026 0.432006776
10695132 -0.05858064 0.431562006
10743732 -0.057027131 0.431193262
10792332 -0.05539754 0.430691927
10840932 -0.053871579 0.430309057
10889632 -0.052344653 0.429873943
10938232 -0.050753407 0.429411023
10986832 -0.049116279 0.428911983
11035532 -0.047924604 0.428383976
11084132 -0.04615147 0.428067624
11132732 -0.044717848 0.427375763
11181332 -0.043274961 0.427145451
11230032 -0.041840277 0.426638156
11278632 -0.04035791 0.426132291
11327232 -0.038833748 0.425578653
11375932 -0.037407994 0.425308644
11424532 -0.035928357 0.424719482
11473132 -0.034429308 0.42437908
11521732 -0.032879039 0.423882812
11570432 -0.031635329 0.423602253
11619032 -0.030176175 0.422838151
11667632 -0.02877937 0.422442466
11716332 -0.027426607 0.421973437
11764932 -0.026018302 0.4216277
11813532 -0.02465903 0.421031683
11862132 -0.023328885 0.420599579
11910832 -0.021977664 0.420169562
11959432 -0.020509345 0.419518232
12008032 -0.019339663 0.419070124
12056632 -0.017891094 0.418711632
12105332 -0.01661157 0.418113142
12153932 -0.015355271 0.417643249
12202532 -0.014055522 0.417252957
12251232 -0.012533888 0.416841745
12299832 -0.011297876 0.416189759
12348432 -0.00991836 0.41583392
12397032 -0.008671634 0.415273576
12445732 -0.0074614 0.41487807
12494332 -0.006061182 0.41436395
12542932 -0.004861405 0.413865566
12591632 -0.003766399 0.413398623
12640232 -0.00236632 0.412965923
12688832 -0.001063066 0.412444204
12737432 6.6004e-05 0.411908209
12786132 0.001234522 0.41138944
12834732 0.002415722 0.410875439
12883332 0.003719843 0.410342633
12932032 0.004912911 0.409799665
12980632 0.006284091 0.409431159
13029232 0.007387287 0.408795505
13077832 0.008483619 0.408608049
13126532 0.009621011 0.407965809
13175132 0.010872025 0.407547026
13223732 0.012119084 0.407158643
13272332 0.013288761 0.406544238
13321032 0.014324239 0.406223446
13369632 0.015478597 0.405825823
13418232 0.01660598 0.405097454
13466932 0.017770001 0.404762059
13515532 0.01892157 0.404124319
13564132 0.020183885 0.403745979
13612732 0.021000318 0.403282463
13661432 0.022244665 0.402830183
13710032 0.023215763 0.402348846
13758632 0.024395072 0.401797175
13807332 0.02554994 0.401332169
13855932 0.026567529 0.400833994
13904532 0.027730662 0.400465488
13953132 0.028804069 0.399825423
14001832 0.029846694 0.399411737
14050432 0.030952136 0.398986041
14099032 0.031946692 0.39853239
14147732 0.033066187 0.39787957
14147747 0.032768357 0.398218691
14202847 0.034134093 0.397592961
14257947 0.035359881 0.397127151
14313047 0.036507289 0.39651528
14368247 0.037562485 0.396031081
14423347 0.038866437 0.395600378
14478447 0.039908509 0.394963234
14533647 0.041169986 0.394393742
14588747 0.042360939 0.393785148
14643847 0.043356757 0.393261432
14699047 0.044463939 0.392772734
14754147 0.045590255 0.392317771
14809247 0.046690631 0.391784995
14864347 0.047773584 0.391116619
14919547 0.048964105 0.390597194
14974647 0.050005745 0.390213519
15029747 0.05108074 0.389729738
15084947 0.052159909 0.389195263
15140047 0.053185332 0.388506859
15195147 0.054374024 0.387980967
15250347 0.055410567 0.387659102
15305447 0.056421656 0.386818587
15360547 0.057374559 0.386298716
15415647 0.058552362 0.385790616
15470847 0.059412091 0.385258078
15525947 0.060628354 0.384811311
15581047 0.061513829 0.3843351
15636247 0.062528893 0.383841305
15691347 0.063627071 0.383245795
15746447 0.064712256 0.382620751
15801647 0.065615877 0.382114559
15856747 0.06673327 0.381635844
15911847 0.067724168 0.381175398
15966947 0.068713821 0.380562156
16022147 0.069384366 0.379927814
16077247 0.07043346 0.379537343
16132347 0.071451142 0.379138469
16187547 0.072272822 0.378551185
16242647 0.073240995 0.377959072
16297747 0.074185527 0.377368122
16352947 0.075345203 0.376931011
16408047 0.076119691 0.376394003
16463147 0.077134102 0.375849008
16518247 0.077966794 0.375300675
16573447 0.078824341 0.37481451
16628547 0.079899296 0.374252438
16683647 0.080648526 0.37381348
16738847 0.081549614 0.373195677
16793947 0.082292161 0.372625887
16849047 0.083259448 0.372206211
16904247 0.084205999 0.371781349
16959347 0.0851131 0.371116787
17014447 0.08596678 0.370702385
17069547 0.086760841 0.370080769
17124747 0.087577082 0.369516968
17179847 0.088548302 0.368997782
17234947 0.089363932 0.368652492
17290147 0.090269625 0.368119746
17345247 0.091089785 0.367456018
17400347 0.091823287 0.367023408
17455547 0.092845521 0.3665376
17510647 0.093439824 0.366054058
17565747 0.094369277 0.365693658
17620847 0.095105491 0.36508724
17676047 0.095908984 0.364622533
17731147 0.096612311 0.364190846
17786247 0.097524255 0.363571107
17841447 0.09829957 0.363150268
17896547 0.099041856 0.362560987
17951647 0.09988857 0.362097144
18006847 0.100682929 0.361449539
18061947 0.101569801 0.361164003
18117047 0.102331899 0.360683709
18172147 0.103056989 0.360005408
18227347 0.104009315 0.359782099
18282447 0.104686394 0.359147638
18337547 0.105378575 0.358650118
18392747 0.106140792 0.358156323
18447847 0.106857113 0.357576668
18502947 0.107679739 0.357187628
18558147 0.108445987 0.356702685
18613247 0.109116658 0.356222629
18668347 0.109827034 0.355597823
18723447 0.110697351 0.355203449
18778647 0.111381091 0.354759156
18833747 0.112125024 0.354325234
18888847 0.11279606 0.353852659
18944047 0.113487057 0.353278189
18999147 0.114250175 0.352882772
19054247 0.114927828 0.352302223
19109447 0.115507669 0.351881086
19164547 0.11641363 0.351618111
19219647 0.117065064 0.350918561
19274747 0.117761999 0.350420475
19329947 0.118414118 0.350124597
19385047 0.119245059 0.349578619
19440147 0.119754597 0.348876953
19495347 0.120447948 0.348302304
19550447 0.121044017 0.348139256
19605547 0.121766664 0.347705155
19660747 0.12249305 0.347120672
19660752 0.122410029 0.347313344
19724352 0.123347252 0.346707195
19787952 0.124071858 0.3462044
19851652 0.124843567 0.34567663
19915252 0.125416651 0.345110595
19978952 0.126200675 0.344547122
20042552 0.126972302 0.344015359
20106152 0.127794742 0.343670368
20169852 0.128417581 0.343255221
20233452 0.12906678 0.342631518
20297152 0.130027741 0.342136174
20360752 0.130676135 0.341449826
20424452 0.13138853 0.340931713
20488052 0.132046848 0.340433329
20551652 0.132700279 0.339917123
20615352 0.133378714 0.339309483
20678952 0.134074449 0.338919967
20742652 0.13487558 0.338387876
20806252 0.135718807 0.337781012
20869852 0.136255353 0.337374389
20933552 0.137146368 0.336808383
20997152 0.137484773 0.336430668
21060852 0.138450324 0.335973978
21124452 0.139020442 0.335166394
21188152 0.139844894 0.334904968
21251752 0.140303462 0.334410041
21315352 0.141018912 0.333921134
21379052 0.141697064 0.333409249
21442652 0.142341539 0.332993388
21506352 0.142937362 0.332359939
21569952 0.143565878 0.331849634
21633652 0.144270151 0.331386208
21697252 0.144896447 0.330740898
21760852 0.145711079 0.330333083
21824552 0.146294072 0.329874902
21888152 0.146760448 0.329518556
21951852 0.147482559 0.32894656
22015452 0.148167774 0.328509658
22079052 0.148668959 0.327978223
22142752 0.149425327 0.327536493
22206352 0.149915471 0.327022165
22270052 0.150601312 0.326607048
22333652 0.151317089 0.326151162
22397352 0.151781678 0.325579017
22460952 0.152325481 0.325213372
22524552 0.153045013 0.324834138
22588252 0.153461933 0.324373275
22651852 0.154124751 0.323814839
22715552 0.154685199 0.323327392
22779152 0.155403167 0.322994172
22842852 0.155794024 0.322421729
22906452 0.156464204 0.322161078
22970052 0.157154545 0.321599215
23033752 0.157738879 0.321082621
23097352 0.158152863 0.32075414
23161052 0.158825859 0.320154249
23224652 0.159475862 0.319746047
23288252 0.159843876 0.319399654
23351952 0.160455778 0.318970501
23415552 0.161156967 0.31861788
23479252 0.161480292 0.318126797
23542852 0.161974221 0.317546278
23606552 0.162717804 0.317147165
23670152 0.163317114 0.316779375
23733752 0.163765206 0.316352486
23797452 0.164265841 0.315805763
23861052 0.164832532 0.315357774
23924752 0.165384978 0.314975649
23988352 0.16588889 0.314559668
24051952 0.166445434 0.314154565
24115652 0.167026385 0.313640892
24179252 0.167650148 0.313288599
24242952 0.167936831 0.312924087
24306552 0.168411716 0.312381833
24370252 0.169022217 0.311994612
24433852 0.169625177 0.31164059
24497452 0.170060679 0.311214953
24561152 0.17071402 0.310867637
24624752 0.171291053 0.310412764
24688452 0.171635597 0.30979982
24752052 0.172190487 0.309334069
24815752 0.172572314 0.309019178
24879352 0.173222392 0.308873474
24942952 0.173711061 0.308370947
25006652 0.174187079 0.307861238
25070252 0.174606367 0.307521164
25133952 0.17515622 0.306884765
25197552 0.175644487 0.306492865
25261152 0.176164075 0.306336611
25324852 0.176626473 0.305767387
25388452 0.176884189 0.305410742
25452152 0.177594393 0.3050659
25515752 0.178009614 0.304698377
25579452 0.17836754 0.30406171
25643052 0.178965419 0.303888559
25706652 0.179370805 0.303357154
25770352 0.179835751 0.302896946
25833952 0.180376663 0.302750825
25897652 0.180839374 0.302301049
25961252 0.1811845 0.301809549
26024952 0.181771382 0.301415294
26025048 0.181600451 0.301522165
26100248 0.182252019 0.301035612
26175548 0.182756885 0.300543069
26250848 0.183246225 0.300195276
26326048 0.183699563 0.299635916
26401348 0.1841387 0.299244582
26476648 0.184789821 0.298800617
26551948 0.185313969 0.298380047
26627148 0.185779154 0.297904193
26702448 0.18624401 0.297376275
26777748 0.186760857 0.296983122
26853048 0.18729338 0.29661709
26928248 0.187773391 0.295995205
27003548 0.188219159 0.295668214
27078848 0.188897088 0.29537034
27154048 0.189307898 0.294712752
27229348 0.189761832 0.294289678
27304648 0.190258696 0.293966412
27379948 0.190685555 0.293437182
27455148 0.191264271 0.292951673
27530448 0.191592261 0.292557537
27605748 0.192262783 0.292394429
27681048 0.192711859 0.291688978
27756248 0.193247959 0.29120326
27831548 0.19361706 0.290705442
27906848 0.194001495 0.290424644
27982048 0.194499239 0.289928287
28057348 0.195149153 0.289506018
28132648 0.195537671 0.289055019
28207948 0.195867151 0.288947552
28283148 0.196339413 0.288490355
28358448 0.196911394 0.287880718
28433748 0.197368368 0.28753063
28509048 0.197866111 0.287019193
28584248 0.198386222 0.28669691
28659548 0.198754534 0.286271095
28734848 0.199117287 0.285894364
28810148 0.199593484 0.285580992
28885348 0.199997991 0.285100519
28960648 0.20062451 0.284653514
29035948 0.200861051 0.284316867
29111148 0.201331555 0.283796042
29186448 0.201774433 0.283472239
29261748 0.202119186 0.28307113
29337048 0.202833041 0.282569825
29412248 0.203034892 0.282312452
29487548 0.20356138 0.281858742
29562848 0.203959316 0.281378835
29638148 0.204241439 0.281279712
29713348 0.20475018 0.280655324
29788648 0.205081731 0.280314058
29863948 0.205660879 0.280088305
29939148 0.206178158 0.279664576
30014448 0.206594228 0.279199779
30089748 0.206778049 0.278849124
30165048 0.207451537 0.278282195
30240248 0.207651332 0.277994871
30315548 0.208153411 0.277718037
30390848 0.208430618 0.27736327
30466148 0.208862885 0.276783496
30541348 0.209449023 0.276520937
30616648 0.209695979 0.276133179
30691948 0.21013382 0.275754511
30767148 0.210444614 0.275480985
30842448 0.210962623 0.275155246
30917748 0.211298286 0.274793148
30993048 0.211678981 0.274218738
31068248 0.212114557 0.273871779
31143548 0.212509289 0.273660063
31218848 0.212878778 0.273004889
31294148 0.213191017 0.272883623
31369348 0.213600665 0.272342473
31444648 0.21393831 0.272107243
31519948 0.21433337 0.271840572
31595248 0.214853897 0.271410048
31670448 0.215019777 0.271068811
31745748 0.215439572 0.27083528
31821048 0.215803742 0.27026683
31896248 0.216256201 0.269952923
31971548 0.216697439 0.269548833
32046848 0.217116788 0.26907128
32122148 0.217418268 0.268798559
32197348 0.217667058 0.268512248
32272648 0.217938438 0.268162131
32347948 0.218389734 0.267701834
32423248 0.218685314 0.267198413
32498448 0.21915403 0.267078578
32573748 0.219535186 0.266692757
32649048 0.219741076 0.266339749
32724248 0.220225647 0.265995025
32799548 0.220409274 0.265774995
32874848 0.220935836 0.265384346
32950148 0.221278265 0.265016764
33025348 0.221508994 0.264757871
33100648 0.221914708 0.26429522
33175948 0.22241494 0.263846755
33251248 0.222589775 0.263683736
33326448 0.222929999 0.263252079
33401748 0.223460868 0.262896835
33477048 0.223660945 0.262651354
33552348 0.223886966 0.26223272
33552414 0.224089831 0.262290745
33644514 0.224394097 0.261957645
