# HZ S RI R 50
50000 -0.999455153 -0.010531534
347200 -0.999450564 0.003225446
644500 -0.99881953 0.010751424
941800 -0.998104453 0.017909791
1239100 -0.997269332 0.023905448
1536300 -0.996569931 0.029214989
1833600 -0.995723426 0.034695483
2130900 -0.994932591 0.039972607
2428200 -0.994071424 0.045315679
2725400 -0.992799103 0.050425749
3022700 -0.991762459 0.055594533
3320000 -0.990689754 0.060479704
3617300 -0.989706456 0.065668076
3914500 -0.988437294 0.070539444
4211800 -0.987030982 0.075365789
4509100 -0.985911607 0.080018669
4806400 -0.984229087 0.084862843
5103600 -0.982803106 0.089606501
5400900 -0.981489062 0.094011001
5698200 -0.980235993 0.098580792
5995500 -0.978902816 0.102716788
6292700 -0.978057563 0.1048287
6590000 -0.979479789 0.10603252
6887300 -0.974403262 0.116060324
7184600 -0.973189592 0.121549583
7481800 -0.971716225 0.124971136
7779100 -0.969750106 0.128827795
8076400 -0.968187749 0.132897078
8373700 -0.966518461 0.137334167
8670900 -0.965131461 0.141591399
8968200 -0.963433146 0.145402669
9265500 -0.962038338 0.149478003
9562800 -0.960327982 0.153471827
9860000 -0.958676457 0.157266825
10157300 -0.956995785 0.161267712
10454600 -0.955606341 0.165106639
10751900 -0.9540084 0.169007033
11049100 -0.95230031 0.172682166
11346400 -0.950630486 0.176617473
11643700 -0.948837935 0.180597245
11941000 -0.947062015 0.184174969
12238200 -0.945545971 0.187959149
12535500 -0.943830192 0.191504076
12832800 -0.942142605 0.195196181
13130100 -0.940457165 0.198942616
13427300 -0.938757538 0.202356338
13724600 -0.937205433 0.205814734
14021900 -0.935384988 0.209452822
14319200 -0.93384993 0.21295537
14616400 -0.931935131 0.216507092
14913700 -0.930330038 0.220288917
15211000 -0.928412497 0.223535478
15508300 -0.926784276 0.226703196
15805500 -0.925222635 0.230157941
16102800 -0.923388123 0.233721882
16400100 -0.921683192 0.237136676
16697400 -0.919952154 0.240476906
16994600 -0.918150603 0.243767172
17291900 -0.916199266 0.247168153
17589200 -0.914508759 0.250644892
17886500 -0.912763833 0.253773063
18183700 -0.911151587 0.256866365
18481000 -0.909241795 0.260135889
18778300 -0.907266795 0.263161599
19075600 -0.905685484 0.266217201
19372800 -0.903899848 0.269596815
19670100 -0.902088105 0.272803723
19967400 -0.900029242 0.2758843
20264700 -0.898405432 0.279180049
20561900 -0.896499633 0.282112598
20859200 -0.894684016 0.285353839
21156500 -0.892729341 0.288376986
21453800 -0.891202867 0.291618436
21751000 -0.889235436 0.294478058
22048300 -0.887319326 0.29768449
22345600 -0.885370373 0.300517588
22642900 -0.883763313 0.303348928
22940100 -0.881723463 0.306325107
23237400 -0.879990279 0.30915457
23534700 -0.878210008 0.312139391
23832000 -0.876569092 0.314833283
24129200 -0.874384939 0.318040162
24426500 -0.872641205 0.320805162
24723800 -0.87080264 0.323999047
25021100 -0.868822813 0.326712191
25318300 -0.866964995 0.329542994
25615600 -0.865025639 0.33279109
25912900 -0.863244056 0.335410416
26210200 -0.86142528 0.3381325
26507400 -0.859355986 0.340744286
26804700 -0.857674479 0.343500792
27102000 -0.855513513 0.346329063
27399300 -0.853841662 0.349177658
27696500 -0.851930975 0.352005064
27993800 -0.849800944 0.354626655
28291100 -0.848093688 0.357273995
28588400 -0.846206307 0.359999746
28885600 -0.844205021 0.362496584
29182900 -0.842244029 0.365137785
29480200 -0.840409815 0.367654263
29777500 -0.838680386 0.370423913
30074776 -0.836788356 0.373068392
30371976 -0.834572136 0.375494688
30669276 -0.832449913 0.378074377
30966576 -0.83061093 0.380687236
31263876 -0.828865408 0.383455336
31561076 -0.826999485 0.385744571
31858376 -0.825158476 0.388336062
32155676 -0.823042571 0.390824824
32452976 -0.821019947 0.393495082
32750176 -0.819004654 0.395972967
33047476 -0.816974759 0.398204296
33344776 -0.81518352 0.400777935
33642076 -0.813154101 0.403218448
33939276 -0.81136322 0.405698388
34236576 -0.809304594 0.408092081
34533876 -0.807443618 0.410661965
34831176 -0.805263161 0.412941545
35128376 -0.803351104 0.415688425
35425676 -0.801140904 0.417828083
35722976 -0.799339234 0.420150697
36020276 -0.797321856 0.422699898
36317476 -0.795200943 0.424647122
36614776 -0.793373942 0.427444994
36912076 -0.791133999 0.429602265
37209376 -0.789476692 0.431750684
37506576 -0.787516593 0.434058398
37803876 -0.785408318 0.436354488
38101176 -0.783545911 0.438605815
38398476 -0.781621336 0.440908133
38695676 -0.779313981 0.443270146
38992976 -0.777584195 0.44575566
39290276 -0.775508582 0.447587788
39587576 -0.773576855 0.450133562
39884776 -0.771328806 0.451708018
40182076 -0.769718825 0.454390913
40479376 -0.76745069 0.456501185
40776676 -0.765121161 0.458702087
41073876 -0.763611972 0.46076703
41371176 -0.761627793 0.462715387
41668476 -0.75925523 0.46489793
41965776 -0.757513821 0.466844797
42262976 -0.75529474 0.469025313
42560276 -0.753372669 0.471267104
42857576 -0.75149846 0.473150134
43154876 -0.74949938 0.475793689
43452076 -0.746944308 0.477160722
43749376 -0.745394051 0.479916334
44046676 -0.743211388 0.481871515
44343976 -0.741079866 0.483541071
44641176 -0.739531695 0.485981374
44938476 -0.737656235 0.487513422
45235776 -0.735055506 0.489599615
45533076 -0.733469247 0.49166274
45830276 -0.731293499 0.493796497
46127576 -0.729439377 0.495768725
46424876 -0.727557897 0.497627198
46722176 -0.724943459 0.499358773
47019376 -0.723427176 0.501393735
47316676 -0.721075892 0.503371834
47613976 -0.71923846 0.505010664
47911276 -0.717381656 0.507110774
48208476 -0.715369939 0.509005784
48505776 -0.713113546 0.510883331
48803076 -0.711331009 0.512803077
49100376 -0.709386348 0.514586567
49397576 -0.707173585 0.516387045
49694876 -0.705345451 0.518366754
49992176 -0.702766239 0.519821405
50289476 -0.701051712 0.521972894
50586676 -0.698945581 0.523665428
50883976 -0.696972489 0.525471985
51181276 -0.694907963 0.52728039
51478576 -0.693114936 0.528962552
51775776 -0.690936207 0.530883252
52073076 -0.688784778 0.532423913
52370376 -0.686728537 0.534221649
52667676 -0.684640347 0.536226093
52964876 -0.682849705 0.537749469
53262176 -0.680764198 0.539354681
53559476 -0.678747296 0.541039884
53856776 -0.676669538 0.542909264
54153976 -0.674353361 0.544049263
54451276 -0.672757685 0.546162724
54748576 -0.670857369 0.547861576
55045876 -0.668776988 0.549605011
55343076 -0.666926741 0.551224291
55640376 -0.664731323 0.552693843
55937676 -0.662788629 0.554352402
56234976 -0.660554885 0.555580019
56532176 -0.658497393 0.557580292
56829476 -0.656364381 0.559269487
57126776 -0.654543876 0.560890674
57424076 -0.65260899 0.562694013
57721276 -0.650479257 0.564296841
58018576 -0.64841181 0.565634131
58315876 -0.647028207 0.567206084
58613176 -0.64427036 0.568378984
58910376 -0.642726242 0.570457637
59207676 -0.640839934 0.572098135
59504976 -0.639042735 0.573515355
59802276 -0.635801374 0.574816226
60099552 -0.634413659 0.576122879
60396752 -0.632645845 0.577346622
60694052 -0.630807936 0.578736126
60991352 -0.628364801 0.580525815
61288552 -0.626711666 0.582154273
61585852 -0.624601662 0.583714306
61883152 -0.621791124 0.585227727
62180452 -0.621067225 0.587018013
62477652 -0.619012892 0.587869524
62774952 -0.615977406 0.590009748
63072252 -0.614342331 0.591216146
63369552 -0.612702965 0.592701017
63666752 -0.610928595 0.593832552
63964052 -0.608838438 0.595516622
64261352 -0.606385111 0.595902621
64558652 -0.604574501 0.59784162
64855852 -0.602844357 0.599643528
65153152 -0.600803315 0.601045787
65450452 -0.59893912 0.601929247
65747752 -0.596547424 0.603367805
66044952 -0.595068275 0.604880094
66342252 -0.592679977 0.605818748
66639552 -0.590646922 0.607494235
66936852 -0.588631629 0.608499348
67234052 -0.586295604 0.610207498
67531352 -0.584452807 0.612156331
67828652 -0.583362519 0.612058579
68125852 -0.580270886 0.614256381
68423152 -0.578046679 0.614779949
68720452 -0.576430737 0.616052567
69017752 -0.574666023 0.619197368
69314952 -0.572979211 0.618702232
69612252 -0.570687592 0.620672404
69909552 -0.570007801 0.62172085
70206852 -0.566228866 0.622925519
70504052 -0.565166175 0.624276101
70801352 -0.563386023 0.624668359
71098652 -0.560481965 0.625778377
71395952 -0.558718085 0.627812802
71693152 -0.557053864 0.62783271
71990452 -0.554493486 0.630113005
72287752 -0.553425014 0.631695508
72585052 -0.550917029 0.632882893
72882252 -0.548725605 0.633421123
73179552 -0.547509491 0.634979307
73476852 -0.544894099 0.636446475
73774152 -0.541663408 0.637364923
74071352 -0.540505707 0.638557732
74368652 -0.538219392 0.638561189
74665952 -0.538275301 0.640278458
74963252 -0.535830259 0.642679572
75260452 -0.534473896 0.64286983
75557752 -0.529938757 0.643836915
75855052 -0.529810547 0.645634412
76152252 -0.527685582 0.645972788
76449552 -0.525967478 0.646800816
76746852 -0.523512661 0.649126112
77044152 -0.522742807 0.649681329
77341352 -0.519025981 0.652348399
77638652 -0.519245982 0.653240382
77935952 -0.516413927 0.652324259
78233252 -0.513582825 0.65458405
78530452 -0.510292291 0.655556499
78827752 -0.510286092 0.655667901
79125052 -0.507992327 0.656760215
79422352 -0.505254626 0.657420039
79719552 -0.504768133 0.659056544
80016852 -0.501277625 0.660874724
80314152 -0.500486612 0.663379013
80611452 -0.496992707 0.662836611
80908652 -0.49578008 0.663625419
81205952 -0.495583981 0.664653182
81503252 -0.492187619 0.666061699
81800552 -0.491563409 0.666159629
82097752 -0.488714843 0.667413949
82395052 -0.487865984 0.669461727
82692352 -0.48465234 0.669226944
82989552 -0.482561886 0.670485913
83286852 -0.481284111 0.670730412
83584152 -0.479688465 0.673546552
83881452 -0.477478355 0.672862648
84178652 -0.475246757 0.67480731
84475952 -0.475014686 0.675109267
84773252 -0.471690088 0.677774369
85070552 -0.470162272 0.678724288
85367752 -0.467435956 0.67694211
85665052 -0.466003417 0.6790241
85962352 -0.464180678 0.679208397
86259652 -0.463178694 0.680379331
86556852 -0.461027383 0.681920647
86854152 -0.460123956 0.683221459
87151452 -0.458453893 0.684237301
87448752 -0.454463869 0.684079825
87745952 -0.454957097 0.686872959
88043252 -0.452083855 0.685220181
88340552 -0.450796097 0.686312615
88637852 -0.447060495 0.687610507
88935052 -0.44520694 0.688254237
89232352 -0.44325897 0.689480423
89529652 -0.443293005 0.690994143
89826952 -0.439934879 0.691332042
90124328 -0.440374135 0.69260466
90421528 -0.436423242 0.692334175
90718828 -0.435797125 0.693624734
91016128 -0.433682084 0.695314049
91313328 -0.431707054 0.694184839
91610628 -0.430818945 0.696169137
91907928 -0.429505735 0.696951389
92205228 -0.425181746 0.696623444
92502428 -0.424983769 0.699660122
92799728 -0.423460394 0.698893964
93097028 -0.421469002 0.699165701
93394328 -0.42028144 0.701965689
93691528 -0.417656838 0.700333058
93988828 -0.415109694 0.703065574
94286128 -0.414758175 0.703759431
94583428 -0.413365095 0.704740226
94880628 -0.409333407 0.705232858
95177928 -0.408892393 0.706666529
95475228 -0.406450182 0.704684138
95772528 -0.403903841 0.707013785
96069728 -0.404084533 0.70709002
96367028 -0.400669932 0.706978201
96664328 -0.398635417 0.707666635
96961628 -0.398088216 0.710950553
97258828 -0.395903706 0.711637675
97556128 -0.39304164 0.710439801
97853428 -0.393390208 0.712847888
98150628 -0.390627056 0.711302995
98447928 -0.389526188 0.714259028
98745228 -0.385875016 0.712945699
99042528 -0.384889692 0.714484333
99339728 -0.38446775 0.714761495
99637028 -0.380366981 0.715198814
99934328 -0.379992187 0.716726541
100231628 -0.37725681 0.71680659
100528828 -0.375148504 0.718457102
100826128 -0.372561424 0.719477653
101123428 -0.370162546 0.720970749
101420728 -0.367060065 0.720897734
101717928 -0.364456623 0.722193658
102015228 -0.361887812 0.722661912
102312528 -0.35893917 0.724480032
102609828 -0.356415808 0.725343108
102907028 -0.354243338 0.725711643
103204328 -0.350807428 0.726959586
103501628 -0.348051577 0.727657318
103798928 -0.345074892 0.728510558
104096128 -0.343391627 0.729134798
104393428 -0.341112434 0.73047322
104690728 -0.3377842 0.731406271
104988028 -0.334916353 0.731564998
105285228 -0.332723498 0.7332291
105582528 -0.329712539 0.734021604
105879828 -0.327662885 0.733960986
106177028 -0.32398796 0.734745085
106474328 -0.321632891 0.735334753
106771628 -0.31867358 0.73631519
107068928 -0.31641981 0.73703283
107366128 -0.313711702 0.737622737
107663428 -0.311093807 0.738227784
107960728 -0.308091729 0.73952943
108258028 -0.306061029 0.740026295
108555228 -0.303457438 0.74089837
108852528 -0.300446271 0.741431713
109149828 -0.297780424 0.742579877
109447128 -0.295278847 0.743507742
109744328 -0.292490273 0.743120253
110041628 -0.290076464 0.744865655
110338928 -0.287496596 0.744751691
110636228 -0.284295409 0.744907438
110933428 -0.282021492 0.745479166
111230728 -0.279698848 0.747035026
111528028 -0.277125537 0.74741584
111825328 -0.273816138 0.748097181
112122528 -0.271400243 0.749073386
112419828 -0.268100291 0.748328208
112717128 -0.265411734 0.7491315
113014328 -0.263541787 0.750212073
113311628 -0.260674834 0.750998437
113608928 -0.257957428 0.750559687
113906228 -0.255307167 0.750785708
114203428 -0.252211749 0.751973092
114500728 -0.249949231 0.751452982
114798028 -0.247484877 0.751919925
115095328 -0.244736984 0.752300024
115392528 -0.242357239 0.753589868
115689828 -0.240483388 0.753595411
115987128 -0.237115815 0.753399133
116284428 -0.235379204 0.754851102
116581628 -0.232893928 0.754798352
116878928 -0.230097308 0.755571961
117176228 -0.227527916 0.755657851
117473528 -0.225336715 0.755393505
117770728 -0.222367644 0.756626665
118068028 -0.220711871 0.757105112
118365328 -0.218766123 0.757177948
118662628 -0.215762957 0.757374763
118959828 -0.212989792 0.758335471
119257128 -0.20994693 0.758202135
119554428 -0.208235651 0.758971095
119851728 -0.205541804 0.759102702
120149104 -0.203307732 0.759761452
120446304 -0.200669929 0.760308384
120743604 -0.198357626 0.760932147
121040904 -0.194790169 0.760882735
121338204 -0.19340682 0.762145996
121635404 -0.190331012 0.761825501
121932704 -0.187408432 0.762626647
122230004 -0.185115516 0.762714028
122527304 -0.182217925 0.763217747
122824504 -0.180738076 0.763117015
123121804 -0.177675768 0.764114856
123419104 -0.174824729 0.763342201
123716404 -0.172320306 0.764544367
124013604 -0.170132637 0.764513194
124310904 -0.167694494 0.764217793
124608204 -0.165084764 0.76467055
124905504 -0.162943124 0.76522243
125202704 -0.160432755 0.765151619
125500004 -0.157467395 0.766219437
125797304 -0.154674977 0.766223192
126094604 -0.152714997 0.765729308
126391804 -0.150566533 0.76645857
126689104 -0.147318124 0.766754388
126986404 -0.14567703 0.767137169
127283704 -0.143033146 0.766595661
127580904 -0.140272274 0.766773939
127878204 -0.138392984 0.767463982
128175504 -0.135199472 0.767652153
128472804 -0.132870003 0.766854166
128770004 -0.130734145 0.768125474
129067304 -0.128140583 0.768382906
129364604 -0.125155925 0.768828272
129661904 -0.12282899 0.767859041
129959104 -0.120628014 0.76889199
130256404 -0.118102386 0.769413828
130553704 -0.115104928 0.768747687
130851004 -0.113142132 0.768689692
131148204 -0.110372245 0.76913321
131445504 -0.108109235 0.769038021
131742804 -0.105940356 0.769212603
132040104 -0.10361009 0.769600987
132337304 -0.101113766 0.769640207
132634604 -0.097890675 0.770174384
132931904 -0.095189571 0.769597411
133229204 -0.09346161 0.770270287
133526404 -0.090524613 0.769155561
133823704 -0.088211022 0.77045083
134121004 -0.085741586 0.769452571
134418304 -0.08369641 0.769872605
134715504 -0.080785654 0.770282268
135012804 -0.078792251 0.769695162
135310104 -0.076306127 0.770380318
135607404 -0.073017627 0.769463896
135904604 -0.071442984 0.769919693
136201904 -0.068699844 0.769302725
136499204 -0.066352427 0.77004671
136796504 -0.063914112 0.769665062
137093704 -0.061880454 0.770003318
137391004 -0.058478821 0.769515752
137688304 -0.056720718 0.769449114
137985604 -0.0534738 0.769494652
138282804 -0.051812153 0.769557714
138580104 -0.049072958 0.769322752
138877404 -0.046260781 0.769346654
139174704 -0.043925415 0.768585503
139471904 -0.042366731 0.769317388
139769204 -0.039725903 0.768576741
140066504 -0.03732058 0.768173217
140363804 -0.03448012 0.768479824
140661004 -0.031940963 0.768266975
140958304 -0.030105138 0.768529772
141255604 -0.027264542 0.7677024
141552904 -0.024682007 0.767387688
141850104 -0.0223635 0.767611026
142147404 -0.020329343 0.767188608
142444704 -0.017645144 0.767688572
142742004 -0.015398859 0.766849577
143039204 -0.013442476 0.76751089
143336504 -0.010514673 0.767092525
143633804 -0.008315646 0.766982614
143931104 -0.006114814 0.766565203
144228304 -0.00380289 0.766313195
144525604 -0.001643329 0.765391588
144822904 0.00111698 0.76491326
145120204 0.003612958 0.76555711
145417404 0.005887898 0.765114963
145714704 0.007835853 0.764993071
146012004 0.010408205 0.763914108
146309304 0.01249096 0.763790488
146606504 0.014831668 0.764520049
146903804 0.017272334 0.764045834
147201104 0.019342189 0.763852
147498404 0.021806234 0.762928605
147795604 0.02470465 0.762696325
148092904 0.026818182 0.762827932
148390204 0.029355891 0.761998772
148687504 0.031155044 0.761544585
148984704 0.033541012 0.761304974
149282004 0.035505585 0.761106491
149579304 0.038295824 0.760360479
149876604 0.040526773 0.760828495
150173872 0.042802955 0.759916067
150471072 0.044970888 0.759723484
150768372 0.047281555 0.759408533
151065672 0.049786031 0.758984863
151362972 0.051882084 0.758484601
151660172 0.054167725 0.758335292
151957472 0.05638219 0.7575199
152254772 0.058641988 0.757545351
152552072 0.060823731 0.757288575
152849272 0.063161164 0.75654006
153146572 0.065540917 0.755782365
153443872 0.067469187 0.755750596
153741172 0.070386283 0.754884183
154038372 0.072315752 0.754969239
154335672 0.074510462 0.754514515
154632972 0.076304316 0.75443238
154930272 0.079133786 0.753674268
155227472 0.081064254 0.753169178
155524772 0.083016015 0.752829551
155822072 0.085735581 0.752080738
156119372 0.087836749 0.751478493
156416572 0.090112291 0.750437974
156713872 0.092505961 0.75035727
157011172 0.094453334 0.750224828
157308472 0.09646862 0.749965965
157605672 0.098919227 0.749149441
157902972 0.101157419 0.74867469
158200272 0.103373974 0.748092651
158497572 0.105555288 0.747403383
158794772 0.107515655 0.747345983
159092072 0.1100372 0.746555209
159389372 0.112021453 0.746032416
159686672 0.114156857 0.745416462
159983872 0.116492249 0.744782865
160281172 0.118607915 0.744408488
160578472 0.120636813 0.743541419
160875772 0.122406087 0.743079781
161172972 0.124988228 0.742760002
161470272 0.127194717 0.741881191
161767572 0.129261165 0.741740882
162064872 0.131530627 0.740703999
162362072 0.133994415 0.740041553
162659372 0.135449364 0.739179909
162956672 0.13771373 0.738854229
163253972 0.139996334 0.738279461
163551172 0.142408788 0.737218856
163848472 0.14406912 0.736801266
164145772 0.146424636 0.736603081
164443072 0.148706063 0.735819339
164740272 0.150662556 0.735213577
165037572 0.15270178 0.734496593
165334872 0.154934555 0.734000802
165632172 0.156899601 0.733275771
165929372 0.158838436 0.732733488
166226672 0.16078718 0.731708586
166523972 0.162969648 0.731399953
166821272 0.165017217 0.730692267
167118472 0.167079612 0.729908525
167415772 0.169203549 0.729170918
167713072 0.171227723 0.728378236
168010372 0.173306569 0.727673828
168307572 0.17540723 0.727162122
168604872 0.177671954 0.72634375
168902172 0.179705485 0.725545644
169199472 0.181507766 0.724853336
169496672 0.183732196 0.724427461
169793972 0.185726329 0.723757565
170091272 0.187794789 0.722516
170388572 0.189878806 0.721998453
170685772 0.191712409 0.721274614
170983072 0.193675115 0.720475554
171280372 0.196017622 0.719723939
171577672 0.197765052 0.719050228
171874872 0.19976145 0.718061804
172172172 0.202072322 0.717156589
172469472 0.203883141 0.716623783
172766772 0.205983206 0.715894401
173063972 0.207477852 0.715025246
173361272 0.209953591 0.714395046
173658572 0.211881369 0.713442027
173955872 0.213756874 0.712541878
174253072 0.21567744 0.712170779
174550372 0.217737272 0.71109718
