# HZ S RI R 50
1000000 -0.824873924 0.266651868
1118800 -0.805293262 0.287561565
1237600 -0.785497248 0.305890172
1356500 -0.765454888 0.322978705
1475300 -0.745373547 0.337730973
1594200 -0.725895524 0.351107627
1713000 -0.706784307 0.362849235
1831900 -0.688142538 0.373341977
1950700 -0.66957277 0.382832109
2069500 -0.652057766 0.390988439
2188400 -0.634767353 0.398341298
2307200 -0.618047833 0.405027657
2426100 -0.601713597 0.410885125
2544900 -0.586200714 0.415699839
2663800 -0.571275234 0.42039144
2782600 -0.556724071 0.424453735
2901500 -0.542695522 0.427844405
3020300 -0.529540121 0.431177824
3139100 -0.516495406 0.433923095
3258000 -0.50402075 0.436445951
3376800 -0.491736888 0.438634693
3495700 -0.480326414 0.440909564
3614500 -0.468892872 0.442564457
3733400 -0.457860946 0.444162249
3852200 -0.447318285 0.445792853
3971100 -0.436982065 0.446930706
4089900 -0.426980108 0.448316156
4208700 -0.417055308 0.449323773
4327600 -0.407653748 0.450332343
4446400 -0.398527085 0.450945496
4565300 -0.389414936 0.451775729
4684100 -0.380776047 0.452604562
4803000 -0.372414022 0.452978074
4921800 -0.363887101 0.453578263
5040600 -0.355731338 0.453957408
5159500 -0.348043084 0.454426556
5278300 -0.340151041 0.454892307
5397200 -0.332417041 0.455279797
5516000 -0.325152784 0.455379247
5634900 -0.317942649 0.455599844
5753700 -0.310816854 0.455801367
5872600 -0.303895473 0.455863624
5991400 -0.297005981 0.456021606
6110200 -0.290512233 0.456139206
6229100 -0.284050852 0.456133306
6347900 -0.278112828 0.455964028
6466800 -0.272857993 0.45579496
6585600 -0.26759395 0.45610091
6704500 -0.260172724 0.456432431
6823300 -0.252366423 0.456389993
6942200 -0.245090395 0.456665396
7061000 -0.238134488 0.45685485
7179800 -0.232402727 0.456616699
7298700 -0.22708024 0.456244051
7417500 -0.221708104 0.455830097
7536400 -0.216116085 0.455395787
7655200 -0.21084316 0.454869508
7774100 -0.205457523 0.454584538
7892900 -0.20026943 0.454326748
8011700 -0.194864124 0.453908681
8130600 -0.189550593 0.453477501
8249400 -0.184313073 0.453087091
8368300 -0.179316982 0.452660501
8487100 -0.174433514 0.452082216
8606000 -0.169239997 0.451782226
8724800 -0.164383307 0.451006919
8843700 -0.159518152 0.450531333
8962500 -0.154926493 0.450033456
9081300 -0.150157123 0.449486911
9200200 -0.145498186 0.448817998
9319000 -0.141055956 0.448265522
9437900 -0.136573314 0.447467058
9556700 -0.131905838 0.446997314
9675600 -0.1275485 0.446311086
9794400 -0.123195543 0.44563499
9913300 -0.118924044 0.445004016
10032100 -0.114698678 0.444038003
10150900 -0.110733069 0.443430781
10269800 -0.106649257 0.442571014
10388600 -0.102544054 0.441769719
10507500 -0.098657302 0.441041469
10626300 -0.094658397 0.440188467
10745200 -0.090886726 0.439324587
10864000 -0.086983084 0.438462764
10982800 -0.083181776 0.437639504
11101700 -0.079561382 0.436871379
11220500 -0.075861617 0.436036437
11339400 -0.072351753 0.435004323
11458200 -0.068840496 0.434135854
11577100 -0.065292477 0.433091968
11695900 -0.061721902 0.432264417
11814800 -0.058246485 0.431200236
11933600 -0.054931901 0.430430859
12052400 -0.05153663 0.429430097
12171300 -0.048479981 0.428554832
12290100 -0.045105151 0.427709519
12409000 -0.041973102 0.426459372
12527800 -0.038682613 0.425468087
12646700 -0.035620152 0.424482911
12765500 -0.032419018 0.423590987
12884400 -0.029359251 0.422636747
12884482 -0.029436707 0.422883272
13015782 -0.026029039 0.421654731
13147182 -0.022760335 0.420480161
13278582 -0.019535318 0.419441908
13409982 -0.016349697 0.418393492
13541282 -0.01321893 0.41722539
13672682 -0.009962278 0.41612941
13804082 -0.006910766 0.415131598
13935482 -0.004071869 0.414004445
14066782 -0.000992823 0.412884622
14198182 0.002043256 0.411873757
14329582 0.004939417 0.410686612
14460982 0.007908358 0.409624397
14592282 0.010591072 0.408699572
14723682 0.013431969 0.407616376
14855082 0.016129951 0.40642184
14986482 0.018771354 0.405465334
15117782 0.021507466 0.404115349
15249182 0.024236943 0.403184294
15380582 0.026978168 0.402022182
15511982 0.029375495 0.400933325
15643282 0.031929738 0.399761766
15774682 0.034645598 0.398806273
15906082 0.037066254 0.397695362
16037482 0.039331603 0.396529316
16168882 0.041868053 0.395534396
16300182 0.044146962 0.394374668
16431582 0.046442531 0.393405437
16562982 0.048881627 0.392197579
16694382 0.051097299 0.391222536
16825682 0.053345996 0.390120536
16957082 0.055483877 0.388920754
17088482 0.057807635 0.387857973
17219882 0.060013428 0.386789381
17351182 0.062071785 0.385648131
17482582 0.064396873 0.384605616
17613982 0.066306345 0.383493214
17745382 0.068387053 0.382545292
17876682 0.070487678 0.381391584
18008082 0.07238394 0.380433261
18139482 0.074373945 0.379289537
18270882 0.076485373 0.37835893
18402182 0.078484557 0.377263695
18533582 0.080158591 0.376404017
18664982 0.082295753 0.375255495
18796382 0.084061697 0.374154567
18927682 0.085864841 0.373132854
19059082 0.087703309 0.371943473
19190482 0.089530065 0.371217429
19321882 0.091445557 0.37007302
19453282 0.09310238 0.368971437
19584582 0.094936706 0.368023395
19715982 0.096706122 0.366984456
19847382 0.098364092 0.365887403
19978782 0.10017579 0.365079462
20110082 0.101668156 0.363987267
20241482 0.10329923 0.363033175
20372882 0.105164855 0.362166851
20504282 0.106747828 0.36102283
20635582 0.108236111 0.36016047
20766982 0.109840087 0.359224796
20898382 0.111503548 0.35818538
21029782 0.112969599 0.357163012
21161082 0.114496767 0.356358259
21292482 0.116048403 0.355298131
21423882 0.117567516 0.35447517
21555282 0.118950143 0.353424578
21686582 0.120599843 0.352529734
21817982 0.121981069 0.351615428
21949382 0.123460039 0.350588738
22080782 0.124735154 0.349832355
22212082 0.126433536 0.348879814
22343482 0.127495124 0.347935497
22474882 0.129097118 0.347054779
22606282 0.130432546 0.346332937
22737682 0.131678983 0.345458358
22868982 0.133014321 0.344575673
23000382 0.134330123 0.343671053
23131782 0.135628923 0.342739492
23263182 0.137256711 0.34187287
23394482 0.1383491 0.34105736
23525882 0.139842361 0.340066164
23657282 0.140916302 0.339305937
23788682 0.142209604 0.338561087
23919982 0.143461704 0.337718844
24051382 0.144691869 0.336916685
24182782 0.146063894 0.335900366
24314182 0.146960616 0.335278838
24445482 0.148282051 0.33420369
24576882 0.149563536 0.333590179
24708282 0.150497213 0.332638382
24839682 0.151748746 0.331984758
24970982 0.152823865 0.331203371
25102382 0.154029339 0.330361485
25233782 0.155072033 0.329497307
25365182 0.156387895 0.328694105
25496482 0.157356858 0.327972203
25627882 0.158353924 0.327167749
25759282 0.159526541 0.326267719
25890682 0.160643011 0.325648754
26022082 0.161672711 0.324730783
26022168 0.161590978 0.324868679
26168968 0.162880778 0.324084788
26315868 0.163930311 0.323125869
26462668 0.165027648 0.322271823
26609568 0.166238024 0.321402728
26756468 0.167560413 0.320657819
26903268 0.168605804 0.31978774
27050168 0.16964291 0.318969428
27197068 0.170767784 0.318219333
27343868 0.171699032 0.317315936
27490768 0.173153281 0.316626936
27637668 0.173705458 0.315778285
27784468 0.17499867 0.314945161
27931368 0.175999611 0.314059019
28078268 0.1771591 0.313360065
28225068 0.178060516 0.312467038
28371968 0.179100155 0.311701744
28518868 0.180277794 0.310931861
28665668 0.181168884 0.310304641
28812568 0.182198613 0.309386968
28959468 0.183044478 0.308768182
29106268 0.184235483 0.307817846
29253168 0.18502821 0.307024985
29400068 0.186048924 0.306481122
29546868 0.186887517 0.305692911
29693768 0.187798008 0.304913729
29840668 0.188946843 0.304165273
29987468 0.189891174 0.303511083
30134368 0.190831631 0.302784085
30281268 0.1917755 0.302079021
30428068 0.192669332 0.301347762
30574968 0.193449854 0.300618022
30721868 0.194475173 0.299884319
30868668 0.195251137 0.299329966
31015568 0.196221098 0.298475176
31162468 0.196872591 0.297757774
31309268 0.197892859 0.297088891
31456168 0.19870387 0.296382397
31603068 0.199647024 0.295734763
31749868 0.200494945 0.295047909
31896768 0.20136857 0.294302761
32043668 0.202233031 0.293696671
32190468 0.202938243 0.29309374
32337368 0.203780323 0.292381286
32484268 0.204566672 0.291672259
32631068 0.205396831 0.290994167
32777968 0.206292301 0.290380775
32924868 0.207017123 0.289708793
33071668 0.207867383 0.289166122
33218568 0.208516046 0.288381338
33365468 0.209291279 0.287807315
33512268 0.210219755 0.286899119
33659168 0.210929796 0.286626577
33805968 0.211716085 0.285964012
33952868 0.212401583 0.285239338
34099768 0.213134512 0.28444904
34246568 0.213805735 0.283820778
34393468 0.214700728 0.283212006
34540368 0.215241223 0.282631158
34687168 0.216146752 0.282147884
34834068 0.216710522 0.281490385
34980968 0.217367097 0.280820727
35127768 0.218189865 0.280326455
35274668 0.218966752 0.279757529
35421568 0.219445288 0.2790578
35568368 0.220329403 0.278427302
35715268 0.220971718 0.277720391
35862168 0.221598207 0.277085542
36008968 0.222268 0.276640176
36155868 0.222957774 0.276038318
36302768 0.223322689 0.275437206
36449568 0.224214941 0.274917036
36596468 0.224848389 0.274350702
36743368 0.225512132 0.273617148
36890168 0.226220518 0.273137003
37037068 0.226729273 0.272723555
37183968 0.227611958 0.272009819
37330768 0.228114217 0.271503835
37477668 0.228605851 0.27095434
37624568 0.229372814 0.270331054
37771368 0.230013802 0.269740134
37918268 0.23039779 0.269258469
38065168 0.231111094 0.268567532
38211968 0.231834515 0.268294215
38358868 0.232322856 0.267734199
38505768 0.233114138 0.267225325
38652568 0.233622342 0.266761004
38799468 0.234255999 0.266178846
38946368 0.234843626 0.265481323
39093168 0.235453262 0.265180528
39240068 0.236009195 0.264752864
39386968 0.236619874 0.264103323
39533768 0.237229019 0.263752967
39680668 0.237618148 0.26295644
39827568 0.238101169 0.26261115
39974368 0.238811895 0.262191444
40121268 0.239381626 0.261568605
40268168 0.240023806 0.261050969
40414968 0.240680068 0.260543972
40561868 0.240991964 0.259922087
40708768 0.241769015 0.259641021
40708852 0.241743788 0.259674042
40875352 0.242175638 0.259005457
41041852 0.242739409 0.258219152
41208352 0.243333935 0.257821768
41374852 0.244112804 0.257335931
41541352 0.244608432 0.256751
41707852 0.245092615 0.256256043
41874352 0.245826482 0.255540519
42040852 0.246716186 0.2549856
42207352 0.247128933 0.25466597
42373852 0.247575417 0.254048109
42540352 0.248127192 0.253400087
42706852 0.248648568 0.252729326
42873352 0.249373942 0.25245431
43039852 0.249751791 0.251822918
43206352 0.250502467 0.251339524
43372852 0.250928938 0.250744581
43539352 0.251501083 0.250210732
43705852 0.251884102 0.249728456
43872352 0.252650976 0.249183058
44038852 0.25305438 0.248813033
44205352 0.253567487 0.24824126
44371852 0.254077851 0.247756347
44538352 0.254551947 0.24714452
44704852 0.255160719 0.246756285
44871352 0.255696743 0.24635531
45037852 0.255920886 0.245752125
45204352 0.256579488 0.245249196
45370852 0.257009655 0.244634151
45537352 0.257547706 0.244320318
45703852 0.257955133 0.243784636
45870352 0.258580297 0.243295788
46036852 0.259114086 0.242839053
46203352 0.259571373 0.242201536
46369952 0.259996563 0.241736635
46536452 0.260527163 0.241141706
46702952 0.261150836 0.240845382
46869452 0.261513471 0.240310922
47035952 0.2620323 0.239920958
47202452 0.262336134 0.239349871
47368952 0.262809038 0.239049032
47535452 0.263272374 0.238414555
47701952 0.263819187 0.237998619
47868452 0.264144569 0.237557247
48034952 0.264716953 0.237019404
48201452 0.265052378 0.23660548
48367952 0.265598863 0.23617205
48534452 0.26609534 0.235702469
48700952 0.266324132 0.235240086
48867452 0.266947597 0.234912052
49033952 0.267406493 0.234227567
49200452 0.267864137 0.234039336
49366952 0.268137127 0.233498439
49533452 0.268618375 0.232978925
49699952 0.269184768 0.23252815
49866452 0.269614428 0.232225731
50032952 0.270047277 0.231576398
50199452 0.270390093 0.231337472
50365952 0.27079311 0.23075506
50532452 0.271336644 0.230440944
50698952 0.271761298 0.229942783
50865452 0.272249996 0.229578346
51031952 0.272577971 0.229027166
51198452 0.272994816 0.228661358
51364952 0.273538559 0.228309616
51531452 0.273922145 0.227678626
51697952 0.274281591 0.227363049
51864552 0.274637192 0.227177292
52031052 0.275088816 0.226558968
52197552 0.275431036 0.226204678
52364052 0.275675594 0.225861698
52530552 0.276087552 0.225379362
52697052 0.276581346 0.224933058
52863552 0.276807963 0.224411368
53030052 0.277221977 0.224261432
53196552 0.277489781 0.22363913
53363052 0.277864545 0.223398491
53529552 0.278418332 0.222819387
53696052 0.278788328 0.222439393
53862552 0.279153615 0.222112372
54029052 0.279280245 0.221651688
54195552 0.279711961 0.221378445
54362052 0.279986411 0.220934525
54528552 0.280424863 0.220592111
54695052 0.280722647 0.220167845
54861552 0.281102657 0.219805315
55028052 0.281457901 0.219392955
55194552 0.281625986 0.219108253
55361052 0.282157629 0.21863766
55527552 0.282449632 0.218195527
55694052 0.282746344 0.217801451
55860552 0.283064424 0.217574849
56027052 0.283495426 0.217076122
56193552 0.283857971 0.216729447
56360052 0.284139186 0.216299608
56526552 0.284489661 0.215932503
56693052 0.284763336 0.215906143
56859552 0.285102725 0.215413689
57026052 0.285489439 0.214994341
57192552 0.28590694 0.214704558
57359152 0.286271572 0.214246124
57359240 0.286261439 0.214277684
57551440 0.28655827 0.213947936
57743640 0.286882191 0.213428959
57935840 0.287303119 0.213089019
58128040 0.287792026 0.212722927
58320240 0.287768751 0.212043792
58512440 0.288396507 0.212082386
58704640 0.288688004 0.211435422
58896940 0.289129197 0.210955902
59089140 0.289333403 0.210624724
59281340 0.289886832 0.210254341
59473540 0.290064692 0.209738776
59665740 0.290649235 0.209272131
59857940 0.290853053 0.208913147
60050140 0.291017085 0.208877265
60242440 0.291541397 0.208313226
60434640 0.291663199 0.207773685
60626840 0.292027235 0.2073991
60819040 0.292493134 0.207037329
61011240 0.29270485 0.206764876
61203440 0.29313156 0.206331223
61395640 0.293225139 0.205816671
61587940 0.293900936 0.205528259
61780140 0.294148027 0.204921498
61972340 0.294521003 0.204822003
62164540 0.294760644 0.204552993
62356740 0.295116722 0.204078927
62548940 0.295303255 0.203586891
62741140 0.295747727 0.203391999
62933440 0.295959532 0.203031808
63125640 0.296239167 0.202837988
63317840 0.296664118 0.202425017
63510040 0.297207862 0.202039137
63702240 0.297233939 0.201656401
63894440 0.297637373 0.201233804
64086640 0.297922551 0.201003506
64278940 0.298210978 0.200422272
64471140 0.298555612 0.200210005
64663340 0.298747777 0.199957475
64855540 0.298819035 0.199483469
65047740 0.299226343 0.199363321
65239940 0.299464941 0.198927
65432140 0.299900054 0.198489889
65624440 0.299944669 0.198237776
65816640 0.300163805 0.197677239
66008840 0.300585776 0.197370857
66201040 0.300695985 0.197038918
66393240 0.300885289 0.196688279
66585440 0.3012425 0.196432501
66777640 0.301478326 0.195998355
66969940 0.301717996 0.195844918
67162140 0.302076041 0.195290237
67354340 0.302388221 0.195184841
67546540 0.302656978 0.194989442
67738740 0.302909791 0.194490417
67930940 0.303371667 0.194027274
68123140 0.303542047 0.193856433
68315340 0.303894996 0.193607762
68507640 0.304110676 0.193379566
68699840 0.304452538 0.192870646
68892040 0.30472958 0.192626059
69084240 0.304946124 0.192263916
69276440 0.305206477 0.191994905
69468640 0.305386096 0.19178608
69660840 0.305733293 0.191489323
69853140 0.306100189 0.191132619
70045340 0.306195229 0.190924212
70237540 0.306705087 0.190494894
70429740 0.306947022 0.190242648
70621940 0.307134062 0.189779654
70814140 0.307277262 0.189584583
71006340 0.307543218 0.189315393
71198640 0.307838171 0.189062163
71390840 0.30808857 0.188802048
71583040 0.308182686 0.188303455
71775240 0.308555155 0.188160985
71967440 0.308674991 0.187884494
72159640 0.309071362 0.187467038
72351840 0.309167861 0.187151238
72544140 0.309568017 0.186801925
72736340 0.309814929 0.186829298
72928540 0.310017883 0.186345502
73120740 0.310216277 0.186126142
73312940 0.310427635 0.185784593
73505140 0.310625195 0.185667127
73697340 0.310759067 0.185431525
73889640 0.311145782 0.185071572
74081840 0.31130436 0.184601798
74274040 0.311555773 0.184408366
74466240 0.311723172 0.184153631
74658440 0.311882972 0.183851704
74850640 0.312247604 0.18352127
75042840 0.312400221 0.183480888
75235140 0.312482267 0.183210864
75427340 0.312797486 0.182848364
75619540 0.31306228 0.182490646
75811740 0.313220679 0.182549118
76003940 0.313210159 0.182051196
76196140 0.313291698 0.182012259
76388340 0.313759326 0.18156436
76580640 0.313876271 0.18135862
76580704 0.313822627 0.181484177
76808004 0.314263135 0.181161597
77035304 0.314401328 0.180776789
77262704 0.314814895 0.180373415
77490004 0.314971208 0.180207058
77717404 0.31537804 0.179763317
77944704 0.31522274 0.179672002
78172004 0.315657675 0.179257497
78399404 0.31585133 0.178989201
78626704 0.316080749 0.178605154
78854104 0.316219866 0.178260385
79081404 0.31634733 0.178022742
79308704 0.31649968 0.177651762
79536104 0.31699106 0.177557647
79763404 0.317148864 0.177098944
79990804 0.317408859 0.177077591
80218104 0.317571669 0.17663075
80445404 0.317828297 0.176156356
80672804 0.318051397 0.176220506
80900104 0.318409442 0.175693169
81127504 0.318441838 0.1757005
81354804 0.318653672 0.175224497
81582204 0.31904155 0.17465344
81809504 0.319008201 0.174801111
82036804 0.319405347 0.174607142
82264204 0.319638103 0.174085706
82491504 0.319925576 0.173875063
82718904 0.320085287 0.173644721
82946204 0.320144921 0.173378527
83173504 0.320380091 0.173025384
83400904 0.320712596 0.172894641
83628204 0.320691734 0.172614336
83855604 0.320998162 0.172338977
84082904 0.321208447 0.172244355
84310204 0.321470141 0.171687647
84537604 0.321731686 0.17166984
84764904 0.321944952 0.171399921
84992304 0.321943044 0.171073898
85219604 0.322161108 0.170914724
85446904 0.322333514 0.170619338
85674304 0.322589397 0.170307263
85901604 0.322687268 0.17007108
86129004 0.323035836 0.169734731
86356304 0.323096454 0.169486388
86583704 0.323287576 0.169450461
86811004 0.323448866 0.168935224
87038304 0.323652386 0.168640479
87265704 0.323886483 0.168505832
87493004 0.323927938 0.168147489
87720404 0.324169069 0.168226003
87947704 0.324411779 0.167766004
88175004 0.324596226 0.16748017
88402404 0.324631094 0.167285993
88629704 0.324892103 0.167063847
88857104 0.325039327 0.166720643
89084404 0.325219273 0.166636556
89311704 0.325536429 0.166330128
89539104 0.325439333 0.166049242
89766404 0.325668662 0.165865823
89993804 0.325749218 0.1656152
90221104 0.325995653 0.16558966
90448504 0.326260536 0.165189102
90675804 0.326380401 0.164966568
90903104 0.326597303 0.164757609
91130504 0.326772928 0.164471432
91357804 0.32690522 0.164128124
91585204 0.327145278 0.16400294
91812504 0.327231585 0.163928717
92039804 0.327609032 0.163646116
92267204 0.327519536 0.163303568
92494504 0.32763493 0.163124829
92721904 0.327849984 0.162956938
92949204 0.328015416 0.162746831
93176504 0.328071475 0.162564709
93403904 0.328384727 0.162450835
93631204 0.328463017 0.162185609
93858604 0.328653484 0.161931172
94085904 0.32881847 0.161702737
94313204 0.328993558 0.161331221
94540604 0.329158544 0.161166235
94767904 0.329250901 0.161139518
94995304 0.329581409 0.160755798
95222604 0.329629898 0.160724103
95450004 0.329806298 0.160387724
95677304 0.329919666 0.160184741
95904604 0.330061674 0.159952759
96132004 0.330261737 0.159755051
96359304 0.330464124 0.159556671
96586704 0.330665975 0.159270733
96814004 0.330662161 0.15914978
97041304 0.330815374 0.159090727
97268704 0.331069767 0.158711448
97496004 0.331223785 0.158512741
97723404 0.331333875 0.15826188
97950704 0.331438034 0.158220797
98178004 0.331590384 0.157925575
98405404 0.331706911 0.157778739
98632704 0.331983625 0.157495975
98860104 0.332072764 0.157285988
99087404 0.332026839 0.157105743
99314804 0.332255035 0.15694268
99314864 0.332338631 0.156893283
99593064 0.332390964 0.156758755
