# HZ S RI R 50
100000 -0.998072326 0.007915986
397200 -0.992770731 0.056140944
694400 -0.986649394 0.099849052
991600 -0.97851324 0.142864763
1288900 -0.969224512 0.18408975
1586100 -0.957133591 0.225126385
1883300 -0.943120121 0.265596687
2180500 -0.927071809 0.305375576
2477800 -0.907643556 0.344979554
2775000 -0.884948372 0.383178323
3072200 -0.859046041 0.419460058
3369400 -0.829789042 0.453409492
3666700 -0.797933459 0.483341932
3963900 -0.764213263 0.509465813
4261100 -0.729884743 0.531146109
4558300 -0.694998562 0.54916501
4855600 -0.661076843 0.563114464
5152800 -0.627958476 0.573886334
5450000 -0.596327722 0.58229506
5747200 -0.565937101 0.588101983
6044500 -0.537970602 0.5920102
6341700 -0.512858092 0.593955755
6638900 -0.488319039 0.595914125
6936100 -0.458641499 0.597878575
7233400 -0.436256289 0.597779214
7530600 -0.415350735 0.595933854
7827800 -0.395125955 0.594174921
8125000 -0.375798165 0.592261493
8422300 -0.357391536 0.589702367
8719500 -0.340359091 0.587319374
9016700 -0.32413268 0.584478676
9313900 -0.308696419 0.581667006
9611200 -0.29381141 0.578894138
9908400 -0.2799111 0.575824797
10205600 -0.266802221 0.572446048
10502800 -0.254059165 0.569247186
10800100 -0.242381796 0.566207647
11097300 -0.231031149 0.563076376
11394500 -0.220239311 0.559884548
11691700 -0.209764063 0.556849181
11989000 -0.199907243 0.55370754
12286200 -0.190226912 0.550679206
12583400 -0.181135952 0.54759252
12880600 -0.172300264 0.544580399
13177900 -0.163784116 0.541902482
13475100 -0.156039997 0.539143085
13772300 -0.148153424 0.536397337
14069500 -0.140479385 0.533797621
14366800 -0.133152797 0.531209588
14664000 -0.126097485 0.528577148
14961200 -0.119107887 0.52609378
15258400 -0.112692698 0.523700058
15555700 -0.106110952 0.52128458
15852900 -0.100157342 0.519186556
16150100 -0.093909382 0.516781568
16447300 -0.088075749 0.514478325
16744600 -0.082354523 0.512355625
17041800 -0.076858706 0.510386288
17339000 -0.071405187 0.508279621
17636200 -0.066372662 0.506073355
17933500 -0.060913413 0.504334926
18230700 -0.056141357 0.50251317
18527900 -0.051262542 0.500691235
18825100 -0.046419121 0.498811721
19122400 -0.041991103 0.497090101
19419600 -0.037255864 0.495117157
19716800 -0.033162754 0.493440568
20014000 -0.028904009 0.491846859
20311300 -0.024616487 0.490063875
20608500 -0.020595781 0.48856607
20905700 -0.016676321 0.486942917
21202900 -0.012730125 0.485396564
21500200 -0.00910326 0.483753293
21797400 -0.005199693 0.482346326
22094600 -0.001723639 0.480842798
22391800 0.001735806 0.479579418
22689100 0.005363278 0.478081136
22986300 0.008866839 0.476827412
23283500 0.011918701 0.475490003
23580700 0.015198953 0.474212139
23878000 0.018498733 0.47289887
24175200 0.021746784 0.471733659
24472400 0.024732083 0.470548778
24769600 0.027675032 0.469190716
25066900 0.030601158 0.468059182
25364100 0.033367753 0.466784
25661300 0.036302469 0.465838819
25958500 0.038986586 0.464668333
26255800 0.041643396 0.463618636
26553000 0.04437907 0.462508529
26850200 0.047032371 0.461320579
27147400 0.049335926 0.460263013
27444700 0.051951073 0.45908454
27741900 0.054331369 0.458153307
28039100 0.056490272 0.457338482
28336300 0.058970183 0.456251144
28633600 0.061378277 0.455445855
28930800 0.063722915 0.454458445
29228000 0.065687745 0.453626334
29525200 0.06775213 0.452678382
29822500 0.069906398 0.451798737
30119724 0.072132609 0.451323568
30416924 0.074138879 0.450124561
30714124 0.076090291 0.449300378
31011324 0.077986046 0.448538333
31308624 0.079898208 0.447668313
31605824 0.081825688 0.447136998
31903024 0.083803243 0.44615966
32200224 0.08544556 0.445537716
32497524 0.087410233 0.444761157
32794724 0.088917627 0.44408527
33091924 0.090722829 0.44359216
33389124 0.092328824 0.442895531
33686424 0.093998581 0.442101478
33983624 0.095884382 0.441577047
34280824 0.097253084 0.44080922
34578024 0.098848991 0.440186262
34875324 0.100618317 0.439821362
35172524 0.101909525 0.438989341
35469724 0.103309653 0.438824325
35766924 0.104788087 0.437852203
36064224 0.106030203 0.437335312
36361424 0.107619129 0.436865657
36658624 0.109029285 0.436159968
36955824 0.11021699 0.435950249
37253124 0.11154183 0.435372859
37550324 0.112942636 0.434768944
37847524 0.114203378 0.434288203
38144724 0.115538574 0.433856487
38442024 0.116862125 0.433446794
38739224 0.118179962 0.432991027
39036424 0.11924339 0.432557284
39333624 0.120416909 0.431787729
39630924 0.121499881 0.431513041
39928124 0.122527286 0.431164592
40225324 0.123727627 0.430894523
40522524 0.124736391 0.430639028
40819824 0.126004308 0.429985284
41117024 0.126965597 0.429829478
41414224 0.128101527 0.429368674
41711424 0.129061087 0.429304867
42008724 0.129949837 0.428894728
42305924 0.130906879 0.428700417
42603124 0.131876498 0.428361147
42900324 0.132742345 0.428075134
43197624 0.133714109 0.427602857
43494824 0.134658008 0.427483618
43792024 0.135391831 0.427028298
44089224 0.136153459 0.426850974
44386524 0.137262433 0.426582813
44683724 0.137929782 0.426465272
44980924 0.138828128 0.426344752
45278124 0.139604747 0.425908982
45575424 0.140372157 0.425726681
45872624 0.141099721 0.425652384
46169824 0.141697958 0.425173401
46467024 0.142752408 0.424903094
46764324 0.143296882 0.424894005
47061524 0.143870592 0.42450881
47358724 0.144608914 0.424459546
47655924 0.145559221 0.424314618
47953224 0.146159753 0.423933625
48250424 0.146802276 0.423913776
48547624 0.147512301 0.423843383
48844824 0.148127004 0.423595428
49142124 0.148482978 0.423425078
49439324 0.149329707 0.423310905
49736524 0.149796694 0.423086106
50033724 0.150410085 0.422972768
50331024 0.15114969 0.422662496
50628224 0.151571825 0.422801852
50925424 0.152183145 0.422727108
51222624 0.152574717 0.422661781
51519924 0.153177276 0.422633647
51817124 0.153557941 0.422524124
52114324 0.154112666 0.422410577
52411524 0.154610887 0.422413915
52708824 0.155112981 0.422400891
53006024 0.155563861 0.422157138
53303224 0.155976086 0.422467112
53600424 0.156437397 0.422261476
53897724 0.156911194 0.422257184
54194924 0.157378673 0.422077
54492124 0.157754033 0.422220349
54789324 0.158127725 0.422215163
55086624 0.158323228 0.422026515
55383824 0.159009948 0.42219755
55681024 0.159252166 0.421940147
55978224 0.159585654 0.422226011
56275524 0.159917429 0.422218412
56572724 0.160197913 0.422166407
56869924 0.160680204 0.422032594
57167124 0.160960599 0.422082245
57464424 0.161398768 0.422253102
57761624 0.161719709 0.421998798
58058824 0.162007272 0.422227084
58356024 0.162221103 0.422418534
58653324 0.162449598 0.422595858
58950524 0.162639379 0.422186523
59247724 0.163052737 0.422599583
59544924 0.163318336 0.422497093
59842224 0.163427904 0.422711908
60139448 0.163896903 0.422613859
60436648 0.163750842 0.423003315
60733848 0.16419287 0.422844529
61031048 0.164544299 0.423063814
61328348 0.164655521 0.42301315
61625548 0.164841577 0.42298457
61922748 0.16521801 0.423322021
62219948 0.165382012 0.423316508
62517248 0.165315106 0.423528641
62814448 0.165780097 0.42361778
63111648 0.165812805 0.423636734
63408848 0.165985152 0.42386198
63706148 0.166066616 0.424067735
64003348 0.166269302 0.424242079
64300548 0.166671484 0.424013257
64597748 0.166719764 0.424035608
64895048 0.166426256 0.42440474
65192248 0.166734427 0.424295574
65489448 0.16703023 0.42432022
65786648 0.166950479 0.424705803
66083948 0.167072221 0.42455691
66381148 0.166960284 0.424669384
66678348 0.167162314 0.424759149
66975548 0.167240753 0.425040036
67272848 0.167446807 0.425151109
67570048 0.167414098 0.425279408
67867248 0.16751334 0.425424963
68164448 0.167529389 0.425738751
68461748 0.167822569 0.425889521
68758948 0.167492598 0.426099359
69056148 0.167509809 0.426275402
69353348 0.167803108 0.426343381
69650648 0.167833879 0.426796197
69947848 0.168158784 0.426680147
70245048 0.1678382 0.427160918
70542248 0.168069779 0.427127838
70839548 0.167508974 0.427583634
71136748 0.167319431 0.42760536
71433948 0.167786344 0.427871644
71731148 0.167815566 0.427959501
72028448 0.167714446 0.428137242
72325648 0.168069303 0.42845577
72622848 0.167763859 0.42870593
72920048 0.16761215 0.428952604
73217348 0.167683035 0.429057121
73514548 0.167460769 0.429454624
73811748 0.167607456 0.429862916
74108948 0.167355313 0.429803311
74406248 0.167250201 0.429963618
74703448 0.167186632 0.430390954
75000648 0.167256802 0.430305302
75297848 0.167144626 0.430744528
75595148 0.167273223 0.430957973
75892348 0.167031303 0.43157804
76189548 0.166969329 0.431658595
76486748 0.166680634 0.431944429
76784048 0.16656953 0.432091772
77081248 0.166239157 0.432239353
77378448 0.166380539 0.432335019
77675648 0.166035562 0.432842254
77972948 0.166010245 0.433021247
78270148 0.165689915 0.433209717
78567348 0.165508285 0.433574646
78864548 0.165533542 0.43379423
79161848 0.165388762 0.434219449
79459048 0.165550634 0.434512674
79756248 0.164929315 0.434727072
80053448 0.164768606 0.434922099
80350748 0.164462819 0.435358762
80647948 0.164187297 0.435534715
80945148 0.164561033 0.435674637
81242348 0.164123043 0.436117827
81539648 0.164118677 0.43628326
81836848 0.163863286 0.436557739
82134048 0.16370745 0.436755299
82431248 0.163149282 0.436899185
82728548 0.163089409 0.437254577
83025748 0.163031056 0.437393844
83322948 0.162618368 0.437814831
83620148 0.162331059 0.438324332
83917448 0.161983117 0.438551902
84214648 0.161937654 0.438669383
84511848 0.161871656 0.439029902
84809048 0.16175045 0.4394055
85106348 0.161070168 0.439497768
85403548 0.161165967 0.439804553
85700748 0.160576313 0.440210163
85997948 0.160675525 0.440200835
86295248 0.16004081 0.440675616
86592448 0.160057261 0.44096291
86889648 0.159587636 0.441254466
87186848 0.159233048 0.441634446
87484148 0.159214705 0.441537976
87781348 0.158655449 0.44214785
88078548 0.158312141 0.442441761
88375748 0.157987534 0.44272831
88673048 0.157962873 0.443003416
88970248 0.157641589 0.443238735
89267448 0.157078042 0.443671643
89564648 0.156863898 0.443936079
89861948 0.156567305 0.444342732
90159176 0.156434223 0.444391489
90456376 0.156140118 0.445087939
90753576 0.155773073 0.445055246
91050776 0.155631378 0.445427209
91347976 0.155157163 0.445665895
91645276 0.154717698 0.445985198
91942476 0.154423385 0.446612775
92239676 0.154241427 0.446506917
92536876 0.153879404 0.446673005
92834176 0.153690338 0.447087287
93131376 0.152967721 0.447305887
93428576 0.152848228 0.447553932
93725776 0.152531951 0.447921454
94023076 0.152482241 0.447939634
94320276 0.151889339 0.448506653
94617476 0.151285231 0.448928505
94914676 0.151002258 0.449386596
95211976 0.150955095 0.449307382
95509176 0.150389045 0.449538499
95806376 0.149878457 0.450284034
96103576 0.149418354 0.450430631
96400876 0.149188593 0.450592935
96698076 0.148606866 0.450976788
96995276 0.14832355 0.451430886
97292476 0.14771609 0.451773166
97589776 0.147650331 0.451854646
97886976 0.147214949 0.452126502
98184176 0.146663874 0.452579975
98481376 0.146417707 0.452786803
98778576 0.145901039 0.453253984
99075876 0.145909458 0.453332543
99373076 0.145527854 0.45381239
99670276 0.144546464 0.454145461
99967476 0.144421294 0.454065322
100264776 0.143964201 0.454512476
100561976 0.143517732 0.454958438
100859176 0.143170714 0.455308437
101156376 0.142769545 0.455654472
101453676 0.142419353 0.455723643
101750876 0.141923293 0.456189215
102048076 0.141546785 0.456396847
102345276 0.141016691 0.456857204
102642576 0.140628814 0.457056194
102939776 0.140092521 0.457171738
103236976 0.139677822 0.457777202
103534176 0.139272376 0.458056747
103831476 0.138683646 0.458251714
104128676 0.1382692 0.45865333
104425876 0.138085752 0.458862274
104723076 0.137530684 0.45931077
105020376 0.136739715 0.459483087
105317576 0.136684238 0.459824442
105614776 0.135976538 0.460041582
105911976 0.135573431 0.460250556
106209176 0.135080695 0.460823595
106506476 0.133311003 0.460660398
106803676 0.134054422 0.461290627
107100876 0.13349837 0.461548268
107398076 0.133063688 0.461808085
107695376 0.132591202 0.462182581
107992576 0.132230058 0.46248728
108289776 0.13163045 0.462998539
108586976 0.130995437 0.463033974
108884276 0.13043712 0.463343918
109181476 0.1299216 0.463585615
109478676 0.129637122 0.46398437
109775876 0.128960579 0.464340627
110073176 0.128365486 0.464253485
110370376 0.127852171 0.464633345
110667576 0.127424106 0.464990377
110964776 0.126856654 0.465383261
111262076 0.126177281 0.465529978
111559276 0.125564768 0.465811073
111856476 0.125135794 0.466063737
112153676 0.124565035 0.46623373
112450976 0.123992606 0.466730773
112748176 0.123447149 0.466942191
113045376 0.122722744 0.467056989
113342576 0.122318759 0.467432796
113639776 0.121738582 0.467512726
113937076 0.121191114 0.467914074
114234276 0.120400607 0.468008339
114531476 0.119561508 0.468338489
114828676 0.119011908 0.46848306
115125976 0.118299186 0.468892753
115423176 0.117689311 0.469035208
115720376 0.116991892 0.469223797
116017576 0.116108387 0.469485312
116314876 0.11543776 0.469775617
116612076 0.114728346 0.47008109
116909276 0.113820105 0.470590978
117206476 0.113454222 0.47088164
117503776 0.112461522 0.471149623
117800976 0.111554071 0.471660524
118098176 0.110924512 0.472094178
118395376 0.110250264 0.472406297
118692676 0.109394744 0.47304672
118989876 0.108944356 0.473480522
119287076 0.108095824 0.473836451
119584276 0.107464686 0.474648594
119881576 0.106865242 0.474908292
120178896 0.106467217 0.475341886
120476096 0.105774551 0.475634872
120773296 0.105163335 0.476195514
121070496 0.104543581 0.476519823
121367796 0.103934898 0.477002203
121664996 0.103490397 0.477365791
121962196 0.102849885 0.477838933
122259396 0.102367535 0.478289246
122556696 0.10195741 0.47848466
122853896 0.10141009 0.479086816
123151096 0.10070464 0.479384511
123448296 0.100102663 0.479883968
123745596 0.099700093 0.480279803
124042796 0.099213942 0.480621248
124339996 0.098663955 0.480794131
124637196 0.097642794 0.481173098
124934496 0.097253859 0.481524974
125231696 0.096699789 0.481822371
125528896 0.096070349 0.482229709
125826096 0.095453321 0.482554316
126123396 0.094745695 0.48275876
126420596 0.094052687 0.483144462
126717796 0.093463942 0.483506739
127014996 0.092959195 0.483616918
127312296 0.092251211 0.484184741
127609496 0.091660544 0.48441407
127906696 0.090836346 0.484752267
128203896 0.090218439 0.484849363
128501196 0.089455947 0.4852705
128798396 0.088746652 0.485695242
129095596 0.088191077 0.485938668
129392796 0.087863221 0.486118793
129690096 0.086961314 0.486533224
129987296 0.08636786 0.486840426
130284496 0.085598245 0.487045526
130581696 0.085027202 0.487351
130878996 0.084227725 0.487632393
131176196 0.083523839 0.487966895
131473396 0.083011984 0.487977504
131770596 0.082307755 0.488399267
132067896 0.081700384 0.488619148
132365096 0.080868273 0.488923013
132662296 0.080278217 0.489150583
132959496 0.079531356 0.489577829
133256796 0.078764989 0.489835321
133553996 0.078214302 0.490198582
133851196 0.077526837 0.490726053
134148396 0.076890736 0.490755617
134445696 0.076143428 0.491211116
134742896 0.075371354 0.491263449
135040096 0.074640706 0.491593748
135337296 0.074063539 0.492074251
135634596 0.073242619 0.492218375
135931796 0.072723641 0.49270147
136228996 0.071838274 0.492935717
136526196 0.071147456 0.493127822
136823496 0.070493981 0.493217647
137120696 0.069734126 0.494014441
137417896 0.069051444 0.494048386
137715096 0.068388774 0.494188487
138012396 0.067782208 0.494475334
138309596 0.06706278 0.494816422
138606796 0.066302016 0.495106667
138903996 0.06560184 0.495411664
139201296 0.064674004 0.495657145
139498496 0.064235553 0.49590969
139795696 0.063454374 0.496111571
140092896 0.062651976 0.496289402
140390196 0.062125742 0.496540784
140687396 0.061095759 0.49704045
140984596 0.060561597 0.49721992
141281796 0.059729531 0.497355759
141579096 0.059005826 0.49767512
141876296 0.05832833 0.497778981
142173496 0.057494431 0.498229563
142470696 0.056889131 0.4984833
142767996 0.056018039 0.498782008
143065196 0.05531004 0.499002337
143362396 0.054583802 0.49921593
143659596 0.053720325 0.499386489
143956896 0.05297774 0.499487191
144254096 0.052166551 0.499800682
144551296 0.05161868 0.500192999
144848496 0.050791919 0.500683128
145145796 0.050180613 0.500751733
145442996 0.049286201 0.501198172
145740196 0.048627123 0.501457929
146037396 0.047886297 0.50162518
146334696 0.047113373 0.501820802
146631896 0.046043291 0.502001166
146929096 0.045362874 0.502409696
147226296 0.044710427 0.502533733
147523596 0.043767407 0.502912819
147820796 0.04309237 0.503246903
148117996 0.042362391 0.503601074
148415196 0.041513681 0.503541469
148712496 0.040697365 0.503775715
149009696 0.040095746 0.504266679
149306896 0.039220735 0.504432082
149604096 0.038513749 0.50459367
149901396 0.037508696 0.504825234
150198624 0.036946058 0.50501585
150495824 0.035954847 0.505178868
150793024 0.035244137 0.505613148
151090224 0.03446646 0.505800366
151387424 0.033703595 0.506035029
151684724 0.033043518 0.506077527
151981924 0.032192379 0.506329059
152279124 0.031332969 0.506688952
152576324 0.03040938 0.506826519
152873624 0.030013144 0.506965875
153170824 0.028997793 0.507277786
153468024 0.028165549 0.507347762
153765224 0.02740316 0.507687211
154062524 0.026591658 0.50770688
154359724 0.025730893 0.508018672
154656924 0.024968743 0.508222401
154954124 0.024169832 0.508734047
155251424 0.02322641 0.508853077
155548624 0.02264142 0.509089112
155845824 0.021894991 0.509182274
156143024 0.020917385 0.509327113
156440324 0.020108923 0.509540319
156737524 0.019108429 0.509899914
157034724 0.018438667 0.510010838
157331924 0.017629653 0.51008439
157629224 0.016585767 0.510453283
157926424 0.015799343 0.510610103
158223624 0.015003487 0.510856389
158520824 0.013820841 0.510945081
158818024 0.013062506 0.511220932
159115324 0.012185201 0.511456251
159412524 0.011231362 0.511616587
159709724 0.010508492 0.51203531
160006924 0.00958234 0.512001752
160304224 0.008944585 0.512243866
160601424 0.008182898 0.512422502
160898624 0.007050916 0.512736856
161195824 0.006532356 0.512878119
161493124 0.005563646 0.513171076
161790324 0.004671946 0.513319373
162087524 0.003808736 0.513636827
162384724 0.003137469 0.513724982
162682024 0.002053841 0.513892948
162979224 0.00126703 0.514230847
163276424 0.000341877 0.514148294
163573624 -0.000249892 0.514609336
163870924 -0.001418814 0.514487028
164168124 -0.002030566 0.514760851
164465324 -0.002891302 0.515094757
164762524 -0.003846913 0.515047132
165059824 -0.004573747 0.515263438
165357024 -0.005508482 0.515420556
165654224 -0.006264463 0.515577435
165951424 -0.007175788 0.515774369
166248624 -0.007875502 0.515836238
166545924 -0.008851096 0.515957415
166843124 -0.009656369 0.51608473
167140324 -0.010618627 0.516603052
167437524 -0.011494874 0.516374289
167734824 -0.012410059 0.5167104
168032024 -0.013367742 0.516718149
168329224 -0.014293655 0.517112672
168626424 -0.015010342 0.517024397
168923724 -0.016055658 0.517440795
169220924 -0.016950294 0.517403125
169518124 -0.017607659 0.517641186
169815324 -0.018478721 0.517839431
170112624 -0.019702911 0.517996013
170409824 -0.020263701 0.517889916
170707024 -0.021149709 0.518202126
171004224 -0.021953284 0.518410325
171301524 -0.022952541 0.518621265
171598724 -0.023639976 0.51859647
171895924 -0.024836048 0.51862502
172193124 -0.025603085 0.518981695
172490424 -0.026633694 0.51888144
172787624 -0.027442857 0.519202113
173084824 -0.028303205 0.519425511
173382024 -0.029306247 0.519427716
173679224 -0.029960811 0.519479036
173976524 -0.031013339 0.519544005
174273724 -0.032205149 0.519538342
174570924 -0.032932475 0.519852936
174868124 -0.033810317 0.519975364
175165424 -0.034731462 0.520296037
175462624 -0.035606816 0.520446181
175759824 -0.03647837 0.520380139
176057024 -0.037313967 0.520385265
176354324 -0.038234591 0.520701467
176651524 -0.039274975 0.52058959
176948724 -0.039911285 0.520641624
177245924 -0.040948212 0.52097541
177543224 -0.041797503 0.521090388
177840424 -0.042636141 0.52111411
