# HZ S RI R 50
100000 -0.996655225 0.005994322
397200 -0.991823077 0.047176316
694400 -0.98647952 0.084609299
991600 -0.979584991 0.12070816
1288900 -0.971663415 0.15522693
1586100 -0.962574064 0.189429968
1883300 -0.951891779 0.222873896
2180500 -0.940205216 0.255743443
2477800 -0.9257676 0.288518846
2775000 -0.909843087 0.320503473
3072200 -0.891640305 0.351536154
3369400 -0.871798813 0.38152647
3666700 -0.849876165 0.409593462
3963900 -0.82604134 0.435704618
4261100 -0.800682902 0.459536969
4558300 -0.774291276 0.480721861
4855600 -0.747149825 0.499327868
5152800 -0.720005214 0.515650391
5450000 -0.69243139 0.529414832
5747200 -0.665675461 0.540839314
6044500 -0.639356493 0.550486505
6341700 -0.615607738 0.557175934
6638900 -0.59204781 0.564064621
6936100 -0.562457382 0.571367919
7233400 -0.539590835 0.575119733
7530600 -0.517661154 0.577276825
7827800 -0.496269404 0.578909039
8125000 -0.47547695 0.580155432
8422300 -0.455529421 0.580320775
8719500 -0.436362504 0.580379605
9016700 -0.418078184 0.579379081
9313900 -0.400697708 0.577940523
9611200 -0.383918315 0.576524794
9908400 -0.368151396 0.574457526
10205600 -0.352901697 0.571846067
10502800 -0.338486582 0.569176495
10800100 -0.324720203 0.565890312
11097300 -0.311890631 0.562815845
11394500 -0.299447089 0.55932337
11691700 -0.287740916 0.556070625
11989000 -0.276310682 0.55231142
12286200 -0.265753 0.548735797
12583400 -0.255518227 0.545095145
12880600 -0.245783939 0.541560709
13177900 -0.236515596 0.538010835
13475100 -0.227898359 0.534449517
13772300 -0.219474509 0.530969202
14069500 -0.211278349 0.527501225
14366800 -0.203654646 0.5240736
14664000 -0.196317523 0.5208745
14961200 -0.189366325 0.517590761
15258400 -0.182529658 0.514463245
15555700 -0.176003769 0.511369168
15852900 -0.169816642 0.508587241
16150100 -0.163694769 0.505856513
16447300 -0.157879367 0.502842783
16744600 -0.152175426 0.500184237
17041800 -0.146769419 0.497721433
17339000 -0.141413301 0.495116174
17636200 -0.136316865 0.492836534
17933500 -0.131284326 0.490550935
18230700 -0.126725777 0.48823443
18527900 -0.121964573 0.485837936
18825100 -0.117286607 0.483748197
19122400 -0.112965777 0.481646627
19419600 -0.108720749 0.479778736
19716800 -0.104581989 0.477582246
20014000 -0.100456088 0.475738078
20311300 -0.096308723 0.473846256
20608500 -0.092564716 0.471782177
20905700 -0.088898658 0.470089703
21202900 -0.085138298 0.468254148
21500200 -0.081596046 0.466611236
21797400 -0.07803598 0.465106248
22094600 -0.074602156 0.463277995
22391800 -0.071027398 0.461771428
22689100 -0.067736558 0.460279196
22986300 -0.064655497 0.458973467
23283500 -0.06119807 0.457455843
23580700 -0.057968471 0.456118971
23878000 -0.055062446 0.454682022
24175200 -0.052019659 0.453333109
24472400 -0.049163106 0.452004104
24769600 -0.046096596 0.450725108
25066900 -0.043542131 0.449391245
25364100 -0.040555104 0.448249191
25661300 -0.037797313 0.446915596
25958500 -0.035010818 0.445819377
26255800 -0.032454986 0.444431781
26553000 -0.030018161 0.443318605
26850200 -0.027432072 0.442284494
27147400 -0.024884764 0.441069155
27444700 -0.022390626 0.439992398
27741900 -0.020133778 0.438841938
28039100 -0.01765662 0.437773108
28336300 -0.015513956 0.436665654
28633600 -0.013237826 0.435637235
28930800 -0.010961994 0.434575885
29228000 -0.00887572 0.433651566
29525200 -0.006681896 0.432777583
29822500 -0.004540964 0.431723684
30119724 -0.002322807 0.430957973
30416924 -0.000515326 0.429893493
30714124 0.001472905 0.429200232
31011324 0.003360547 0.427948892
31308624 0.005363956 0.427218109
31605824 0.00719963 0.426322549
31903024 0.009076394 0.425497353
32200224 0.010912097 0.424650102
32497524 0.012830883 0.423873931
32794724 0.014370933 0.422948539
33091924 0.016288317 0.421968877
33389124 0.017806939 0.421326816
33686424 0.019684232 0.420624375
33983624 0.021368004 0.419761598
34280824 0.02300629 0.419056117
34578024 0.024444788 0.418388456
34875324 0.026273041 0.417658716
35172524 0.027415439 0.417028695
35469724 0.029187016 0.416295886
35766924 0.030482091 0.415506839
36064224 0.031782656 0.414861768
36361424 0.033340811 0.414173096
36658624 0.034608595 0.413399964
36955824 0.036001108 0.412904888
37253124 0.037481136 0.412235409
37550324 0.038701407 0.411862909
37847524 0.040245905 0.410919547
38144724 0.04156772 0.410603523
38442024 0.042577996 0.409877747
38739224 0.043896965 0.409422159
39036424 0.045085415 0.408666223
39333624 0.046470172 0.408154934
39630924 0.047646261 0.407350987
39928124 0.048764944 0.406646728
40225324 0.049802191 0.406348019
40522524 0.050886631 0.405833274
40819824 0.052236147 0.405340105
41117024 0.053103312 0.405027866
41414224 0.054200232 0.404572397
41711424 0.055127575 0.404013812
42008724 0.05635932 0.403266012
42305924 0.057150028 0.403079926
42603124 0.058183342 0.402662485
42900324 0.058960393 0.402273327
43197624 0.060087852 0.401818364
43494824 0.060985453 0.401461958
43792024 0.061842158 0.40093702
44089224 0.062809176 0.400395274
44386524 0.063780456 0.400175005
44683724 0.064457282 0.399747967
44980924 0.064963221 0.399363934
45278124 0.066230691 0.39905852
45575424 0.066721446 0.39878863
45872624 0.067456208 0.398145347
46169824 0.068635538 0.397785156
46467024 0.069427825 0.397479504
46764324 0.069950103 0.397031784
47061524 0.070958949 0.396689742
47358724 0.071520388 0.39619103
47655924 0.072271548 0.396042615
47953224 0.07290782 0.395610958
48250424 0.073651656 0.39533773
48547624 0.074269592 0.395170748
48844824 0.07512854 0.394799381
49142124 0.07541345 0.394167393
49439324 0.076233074 0.394157171
49736524 0.076706089 0.393771499
50033724 0.077424593 0.39345631
50331024 0.077835731 0.393295556
50628224 0.0786243 0.392892241
50925424 0.079163402 0.39266625
51222624 0.079817116 0.392470508
51519924 0.0802982 0.39215818
51817124 0.080682069 0.39197576
52114324 0.08127249 0.391789317
52411524 0.081946045 0.391512125
52708824 0.082284048 0.391335189
53006024 0.082766443 0.391039311
53303224 0.083346694 0.39088273
53600424 0.083740338 0.390640735
53897724 0.084453277 0.390681535
54194924 0.084601819 0.390202164
54492124 0.085218295 0.390221595
54789324 0.085216656 0.389914512
55086624 0.085867404 0.389847844
55383824 0.086340099 0.38957858
55681024 0.086580403 0.389395594
55978224 0.087078876 0.389274239
56275524 0.087365351 0.389180332
56572724 0.087613709 0.388762652
56869924 0.088146671 0.388706594
57167124 0.088597454 0.38873285
57464424 0.088931649 0.388517349
57761624 0.08959414 0.388332307
58058824 0.089687339 0.388237774
58356024 0.08978673 0.388234257
58653324 0.090059719 0.388022243
58950524 0.090275965 0.387715518
59247724 0.090682849 0.387729048
59544924 0.090927317 0.387668997
59842224 0.091136246 0.387458384
60139448 0.09147831 0.38741362
60436648 0.091668494 0.387596309
60733848 0.091766566 0.387174129
61031048 0.092199817 0.387174487
61328348 0.09246847 0.387092947
61625548 0.092522934 0.386919707
61922748 0.092897638 0.386889815
62219948 0.093008205 0.386849164
62517248 0.093305841 0.386739343
62814448 0.093411684 0.386833906
63111648 0.09365946 0.386626631
63408848 0.093611449 0.38650453
63706148 0.093772187 0.386532187
64003348 0.093930393 0.38655579
64300548 0.094268262 0.386550009
64597748 0.094443738 0.38640365
64895048 0.094560936 0.386374205
65192248 0.094569757 0.386175245
65489448 0.094825595 0.385972321
65786648 0.094887912 0.386161744
66083948 0.094920128 0.385842144
66381148 0.094959199 0.386157453
66678348 0.094872161 0.385736316
66975548 0.095392122 0.385900646
67272848 0.095190271 0.385824918
67570048 0.095416262 0.385693132
67867248 0.095252111 0.385928511
68164448 0.0953774 0.38583064
68461748 0.095595344 0.385924756
68758948 0.095590248 0.385902971
69056148 0.095714464 0.385870873
69353348 0.095717027 0.386017978
69650648 0.095802232 0.386014819
69947848 0.095570623 0.385806858
70245048 0.095940604 0.385933458
70542248 0.095640957 0.385908246
70839548 0.095826029 0.386117994
71136748 0.09556353 0.386452168
71433948 0.095749855 0.386138916
71731148 0.095680132 0.386333912
72028448 0.095810711 0.386530995
72325648 0.095339119 0.386324465
72622848 0.095612555 0.3864578
72920048 0.095580726 0.386483728
73217348 0.095698267 0.38633728
73514548 0.095573946 0.386471807
73811748 0.095767483 0.386336445
74108948 0.095181196 0.386759281
74406248 0.095577672 0.386833429
74703448 0.095318451 0.386870265
75000648 0.09508723 0.387139558
75297848 0.095164343 0.387121438
75595148 0.09504044 0.387407064
75892348 0.094423487 0.387041568
76189548 0.094699636 0.387413561
76486748 0.094688594 0.387295007
76784048 0.094665125 0.387364476
77081248 0.094560414 0.387365192
77378448 0.094701737 0.387491106
77675648 0.094067543 0.387588202
77972948 0.094209477 0.387768328
78270148 0.094085574 0.38763681
78567348 0.093860179 0.387647449
78864548 0.093764856 0.387976348
79161848 0.093452379 0.388132274
79459048 0.093564018 0.388330578
79756248 0.093224361 0.388461768
80053448 0.092753618 0.388584852
80350748 0.092476114 0.389153003
80647948 0.09267193 0.388885974
80945148 0.092723056 0.388815909
81242348 0.092389374 0.389231204
81539648 0.091948553 0.389012157
81836848 0.091910496 0.389185756
82134048 0.091345041 0.389355063
82431248 0.091067835 0.389548897
82728548 0.090877354 0.389724195
83025748 0.090463057 0.389838874
83322948 0.090564936 0.389803171
83620148 0.09053421 0.390104562
83917448 0.090259879 0.390175491
84214648 0.089962318 0.390171766
84511848 0.089611932 0.390391826
84809048 0.089372485 0.390446275
85106348 0.089020639 0.390824675
85403548 0.089076459 0.390626251
85700748 0.088841438 0.390779733
85997948 0.087938055 0.391218274
86295248 0.088215976 0.39120227
86592448 0.087819948 0.391267418
86889648 0.087752386 0.391592204
87186848 0.08706291 0.391220927
87484148 0.087205737 0.39194107
87781348 0.086483791 0.391562014
88078548 0.08642973 0.392225682
88375748 0.08624266 0.392083942
88673048 0.085663437 0.392310559
88970248 0.085645258 0.392369389
89267448 0.085354998 0.392527163
89564648 0.085362717 0.392588347
89861948 0.084714561 0.392692714
90159176 0.084657609 0.393161535
90456376 0.084064334 0.393581688
90753576 0.083987504 0.39357829
91050776 0.083501055 0.393915086
91347976 0.083463191 0.393718838
91645276 0.082742229 0.39383918
91942476 0.082158744 0.394316643
92239676 0.08174853 0.39447084
92536876 0.081801742 0.394509971
92834176 0.081473648 0.394432544
93131376 0.081204771 0.394471228
93428576 0.080962643 0.394830405
93725776 0.080359905 0.395060777
94023076 0.080059215 0.395478069
94320276 0.080001235 0.39531815
94617476 0.07879956 0.395899713
94914676 0.078868806 0.395896434
95211976 0.078901961 0.395778
95509176 0.078479886 0.395983636
95806376 0.077484488 0.396323382
96103576 0.077314034 0.39667347
96400876 0.077005282 0.396574795
96698076 0.076902404 0.396771669
96995276 0.076002299 0.396909475
97292476 0.075876399 0.396996527
97589776 0.075255334 0.397217214
97886976 0.075111359 0.397399842
98184176 0.075008377 0.397453427
98481376 0.074449867 0.397726386
98778576 0.074114501 0.397945225
99075876 0.073556259 0.398341029
99373076 0.073024362 0.398442715
99670276 0.072771087 0.398284584
99967476 0.072092428 0.398854494
100264776 0.072198867 0.398826181
100561976 0.071672648 0.398884743
100859176 0.071163818 0.399208098
101156376 0.070668011 0.399158358
101453676 0.070403024 0.399604737
101750876 0.069883197 0.399787575
102048076 0.069552853 0.399939656
102345276 0.068969428 0.400276005
102642576 0.06866835 0.400387585
102939776 0.068259343 0.400497227
103236976 0.067776516 0.400689721
103534176 0.067511826 0.400880426
103831476 0.066892609 0.400975763
104128676 0.066517621 0.401069402
104425876 0.066022112 0.401126205
104723076 0.065615221 0.401379585
105020376 0.065109014 0.401646196
105317576 0.06460525 0.401713252
105614776 0.064159378 0.401958703
105911976 0.063683882 0.402231872
106209176 0.06343165 0.402272105
106506476 0.062793791 0.402441769
106803676 0.062120631 0.402745485
107100876 0.061631485 0.402845978
107398076 0.061278879 0.40279752
107695376 0.060679867 0.403041303
107992576 0.060222834 0.403128087
108289776 0.059605449 0.403207868
108586976 0.058942049 0.403558611
108884276 0.05839084 0.403593629
109181476 0.057907223 0.403725683
109478676 0.0572519 0.403978139
109775876 0.056811958 0.403948932
110073176 0.055875241 0.404350638
110370376 0.055485904 0.404374152
110667576 0.055016845 0.404610931
110964776 0.054049164 0.40486449
111262076 0.053498104 0.405113697
111559276 0.052559882 0.405308067
111856476 0.052092194 0.405422449
112153676 0.051512464 0.405927449
112450976 0.050937354 0.405944824
112748176 0.050371214 0.406423747
113045376 0.049768015 0.406743407
113342576 0.049088761 0.407133847
113639776 0.048430517 0.407206416
113937076 0.047813519 0.407537817
114234276 0.047435268 0.407830357
114531476 0.04670538 0.408292829
114828676 0.046298727 0.408445835
115125976 0.045691683 0.408899039
115423176 0.045116111 0.409155786
115720376 0.044593751 0.409394383
116017576 0.044007733 0.409586071
116314876 0.043549031 0.409805417
116612076 0.04291667 0.410350441
116909276 0.042483374 0.41054368
117206476 0.041868805 0.410845667
117503776 0.041204914 0.411023497
117800976 0.040853068 0.411264061
118098176 0.040208831 0.411512643
118395376 0.039592996 0.411767661
118692676 0.039130657 0.411955475
118989876 0.038358628 0.412386685
119287076 0.037989661 0.412127405
119584276 0.037332937 0.412644624
119881576 0.036821573 0.412851214
120178896 0.036446824 0.413167178
120476096 0.035825461 0.413321971
120773296 0.035346359 0.41351372
121070496 0.03465107 0.413734763
121367796 0.034133389 0.41435045
121664996 0.033528685 0.414334952
121962196 0.033012583 0.41462475
122259396 0.032535836 0.41506946
122556696 0.031942561 0.415061354
122853896 0.031344935 0.415218293
123151096 0.030849635 0.415383696
123448296 0.030282214 0.415664285
123745596 0.029658153 0.415968537
124042796 0.02896279 0.416015148
124339996 0.028554931 0.416477382
124637196 0.027775511 0.416584849
124934496 0.027157127 0.41691026
125231696 0.026550918 0.417052358
125528896 0.026226446 0.417269825
125826096 0.025533452 0.417574048
126123396 0.02471067 0.41778171
126420596 0.024277687 0.417942285
126717796 0.023630604 0.418065905
127014996 0.022958204 0.418521761
127312296 0.022189438 0.418711483
127609496 0.021506264 0.41877979
127906696 0.021277636 0.418918639
128203896 0.020513251 0.419042706
128501196 0.019719377 0.419372528
128798396 0.019166573 0.419660627
129095596 0.018485546 0.420014679
129392796 0.017977818 0.420066624
129690096 0.017205402 0.420295596
129987296 0.016711562 0.420574605
130284496 0.015995979 0.420553028
130581696 0.015458226 0.420800209
130878996 0.014703586 0.420992672
131176196 0.013972148 0.421033531
131473396 0.013508334 0.421208471
131770596 0.012777835 0.421604514
132067896 0.012141227 0.421672791
132365096 0.011544659 0.421759933
132662296 0.010938897 0.422140866
132959496 0.010123223 0.42241019
133256796 0.009489759 0.42254886
133553996 0.009130254 0.422747611
133851196 0.008517101 0.423024028
134148396 0.007641017 0.423245042
134445696 0.007135704 0.42347294
134742896 0.00634779 0.423655033
135040096 0.005569532 0.423966765
135337296 0.004699051 0.423967003
135634596 0.004298135 0.424271613
135931796 0.003692463 0.424395501
136228996 0.002903833 0.424751102
136526196 0.002074941 0.42474246
136823496 0.001520335 0.424913763
137120696 0.000802263 0.425311863
137417896 0.000134512 0.425215035
137715096 -0.000569462 0.425724416
138012396 -0.001116737 0.425894141
138309596 -0.001743569 0.425903826
138606796 -0.002355515 0.426203191
138903996 -0.003164023 0.426389992
139201296 -0.003785058 0.426393508
139498496 -0.004349336 0.426833689
139795696 -0.005187243 0.42669326
140092896 -0.005734205 0.427016943
140390196 -0.006580919 0.427246093
140687396 -0.007104307 0.427421212
140984596 -0.007927626 0.427684277
141281796 -0.008334532 0.427826404
141579096 -0.009237706 0.42794764
141876296 -0.009733647 0.428249657
142173496 -0.010682404 0.428361177
142470696 -0.011194214 0.428460955
142767996 -0.012119233 0.428865849
143065196 -0.012713193 0.428859472
143362396 -0.013334617 0.428934901
143659596 -0.014191195 0.428982496
143956896 -0.014847144 0.429213762
144254096 -0.015483528 0.429645776
144551296 -0.01619111 0.429705172
144848496 -0.016945183 0.429704785
145145796 -0.017870992 0.430296421
145442996 -0.018503203 0.430330842
145740196 -0.019336476 0.430440902
146037396 -0.019865244 0.430641829
146334696 -0.020718857 0.430895388
146631896 -0.021328672 0.430938363
146929096 -0.022135525 0.431252837
147226296 -0.022883117 0.431385755
147523596 -0.023470968 0.431465953
147820796 -0.024294242 0.431842565
148117996 -0.024912327 0.431904613
148415196 -0.025973036 0.43203634
148712496 -0.026474207 0.432220607
149009696 -0.027088791 0.432558596
149306896 -0.027816012 0.432519078
149604096 -0.028704777 0.432707786
149901396 -0.029294565 0.432765841
150198624 -0.030108213 0.432922661
150495824 -0.030833333 0.433096826
150793024 -0.031570449 0.433187633
151090224 -0.032432943 0.43331021
151387424 -0.032884791 0.43367356
151684724 -0.033702045 0.433874517
151981924 -0.034565374 0.4339616
152279124 -0.034987717 0.433948516
152576324 -0.035931065 0.434053033
152873624 -0.036769136 0.434192866
153170824 -0.037236541 0.434442639
153468024 -0.038149744 0.434484392
153765224 -0.038999855 0.434846878
154062524 -0.039652258 0.434963762
154359724 -0.040337458 0.434917986
154656924 -0.041080951 0.435292959
154954124 -0.041882023 0.435368895
155251424 -0.042808115 0.435701608
155548624 -0.043334245 0.435704171
155845824 -0.044202387 0.435699075
156143024 -0.044926911 0.435887426
156440324 -0.045802995 0.436124742
156737524 -0.046421393 0.436108559
157034724 -0.047318667 0.43650031
157331924 -0.048021569 0.436344921
157629224 -0.048941463 0.436572521
157926424 -0.049550697 0.436667919
158223624 -0.050479963 0.436951726
158520824 -0.051368415 0.436931729
158818024 -0.052031919 0.437107086
159115324 -0.053028509 0.437216132
159412524 -0.053750813 0.437448531
159709724 -0.054743707 0.437494307
160006924 -0.055282488 0.43759042
160304224 -0.055901542 0.437802433
160601424 -0.056810095 0.437912464
160898624 -0.057661578 0.438050329
161195824 -0.058523163 0.438309222
161493124 -0.058930009 0.438424825
161790324 -0.059925228 0.43866074
162087524 -0.060855269 0.438719123
162384724 -0.061461642 0.438637107
162682024 -0.062318116 0.438722342
162979224 -0.063029527 0.439154267
163276424 -0.063948065 0.438884943
163573624 -0.064531907 0.439421266
163870924 -0.065407425 0.439244776
164168124 -0.066098228 0.439341962
164465324 -0.066912367 0.439434528
164762524 -0.067711099 0.43971911
165059824 -0.068494901 0.439691305
165357024 -0.069254264 0.439756125
165654224 -0.070197433 0.439979612
165951424 -0.070684775 0.440010339
166248624 -0.071707427 0.440051794
166545924 -0.072562366 0.440143316
166843124 -0.073261111 0.440311968
167140324 -0.074142947 0.440254449
167437524 -0.075058221 0.440274536
167734824 -0.075668707 0.440453886
168032024 -0.076613724 0.440511405
168329224 -0.077539578 0.440874755
168626424 -0.078260794 0.440604001
168923724 -0.078948318 0.44086492
169220924 -0.079810902 0.440971314
169518124 -0.080493628 0.440992772
169815324 -0.081287175 0.441184967
170112624 -0.08216238 0.441231906
170409824 -0.083121076 0.441246062
170707024 -0.083700224 0.441401243
171004224 -0.084479957 0.441475152
171301524 -0.085194081 0.441632688
171598724 -0.086353152 0.441488564
171895924 -0.086966872 0.441501379
172193124 -0.08780761 0.441825181
172490424 -0.088684067 0.441820919
172787624 -0.08959794 0.441781789
173084824 -0.090199112 0.44193542
173382024 -0.091153383 0.44189006
173679224 -0.091956228 0.441997766
173976524 -0.092836737 0.441995412
174273724 -0.093513056 0.442077338
174570924 -0.094428643 0.442253649
174868124 -0.095155671 0.442171066
175165424 -0.096140012 0.442414462
175462624 -0.096784755 0.442519485
175759824 -0.097719803 0.44238165
176057024 -0.098412841 0.442456275
176354324 -0.099330767 0.442443341
176651524 -0.100231498 0.44279474
