# HZ S RI R 50
50000 -0.987380087 -0.004118811
89700 -0.986161828 0.004736064
129400 -0.985796034 0.011712667
169100 -0.985147535 0.017982902
208900 -0.984339594 0.024253295
248600 -0.983735561 0.029753113
288300 -0.982979595 0.035439103
328000 -0.982142567 0.041033148
367800 -0.981356918 0.046264339
407500 -0.980493664 0.051637455
447200 -0.979687213 0.057092458
486900 -0.978903532 0.062631286
526700 -0.978130638 0.067767098
566400 -0.977032363 0.072890989
606100 -0.976129531 0.078056849
645900 -0.974973142 0.083402112
685600 -0.973886132 0.088565997
725300 -0.972941994 0.093448609
765000 -0.971662819 0.098566643
804800 -0.970655441 0.103870153
844500 -0.969406306 0.109081126
884200 -0.968307495 0.114097304
923900 -0.966944575 0.119125485
963700 -0.965646386 0.12421365
1003400 -0.964169085 0.129351094
1043100 -0.962851941 0.134314864
1082900 -0.961358845 0.138810306
1122600 -0.960106253 0.143669396
1162300 -0.95862168 0.148458987
1202000 -0.957006752 0.153466492
1241800 -0.955209851 0.158274263
1281500 -0.953621327 0.162898659
1321200 -0.952070176 0.167741179
1360900 -0.950414121 0.172244518
1400700 -0.948456823 0.177145168
1440400 -0.946646213 0.18169339
1480100 -0.944693028 0.186453372
1519800 -0.942900061 0.19099687
1559600 -0.940926492 0.195711687
1599300 -0.938674867 0.200330466
1639000 -0.936626374 0.204650431
1678800 -0.93454504 0.2092752
1718500 -0.932385504 0.213725328
1758200 -0.930177509 0.218373388
1797900 -0.927774906 0.222748607
1837700 -0.925560116 0.227198258
1877400 -0.923046708 0.231423079
1917100 -0.920730769 0.235643789
1956800 -0.918376684 0.239771425
1996600 -0.915765404 0.244318634
2036300 -0.913171708 0.248454377
2076000 -0.910734593 0.252324908
2115800 -0.908140361 0.256418675
2155500 -0.905646145 0.260485738
2195200 -0.902901053 0.264449417
2234900 -0.900020182 0.26843214
2274700 -0.897205889 0.2725766
2314400 -0.894183576 0.276286035
2354100 -0.891454994 0.28022316
2393800 -0.888484954 0.283977329
2433600 -0.885648488 0.287538975
2473300 -0.882686793 0.291340023
2513000 -0.879698216 0.294800996
2552800 -0.876764833 0.298285037
2592500 -0.873690783 0.301906257
2632200 -0.87059623 0.305160492
2671900 -0.867665827 0.30844447
2711700 -0.864418745 0.311912655
2751400 -0.861325144 0.315125316
2791100 -0.858403205 0.318237304
2830800 -0.855345308 0.321371436
2870600 -0.852086544 0.324680864
2910300 -0.848953962 0.327609151
2950000 -0.846018671 0.330652415
2989700 -0.8425287 0.333738565
3029500 -0.839430034 0.336442381
3069200 -0.836214959 0.33940339
3108900 -0.833025395 0.342119932
3148700 -0.829889357 0.344996958
3188400 -0.826564788 0.347665131
3228100 -0.823308229 0.35016039
3267800 -0.820046067 0.352837979
3307600 -0.81686747 0.355498462
3347300 -0.813841223 0.357966899
3387000 -0.810784339 0.36051616
3426700 -0.807498633 0.362846881
3466500 -0.80418086 0.365204751
3506200 -0.800750494 0.367504864
3545900 -0.797737717 0.369642913
3585700 -0.794586777 0.371979862
3625400 -0.791189789 0.374364197
3665100 -0.788135349 0.376577019
3704800 -0.785078883 0.378334879
3744600 -0.781805515 0.380648791
3784300 -0.778711438 0.382472932
3824000 -0.775659382 0.384401142
3863700 -0.772363543 0.386551439
3903500 -0.769237339 0.388445019
3943200 -0.766139864 0.390248596
3982900 -0.762986302 0.392211467
4022700 -0.759946882 0.393987089
4022756 -0.760233461 0.393874287
4066656 -0.756482124 0.395785421
4110556 -0.753195762 0.397761672
4154456 -0.749672114 0.39963141
4198356 -0.746198892 0.401335895
4242256 -0.742997348 0.403177827
4286156 -0.739559888 0.404956787
4330156 -0.736176192 0.406384885
4374056 -0.732774436 0.408096194
4417956 -0.729339718 0.409630805
4461856 -0.726127862 0.41122663
4505756 -0.722932338 0.412976771
4549656 -0.71967262 0.414201974
4593656 -0.716418027 0.415601104
4637556 -0.71328336 0.417141765
4681456 -0.710073709 0.418564975
4725356 -0.706794023 0.419940441
4769256 -0.703541159 0.42115429
4813156 -0.70038557 0.422491729
4857156 -0.697161495 0.423831313
4901056 -0.694156408 0.424892425
4944956 -0.69108498 0.426093965
4988856 -0.687957048 0.427321642
5032756 -0.684809267 0.428468585
5076656 -0.681897819 0.429605543
5120656 -0.678688585 0.430642962
5164556 -0.675882995 0.431609153
5208456 -0.672994256 0.432911038
5252356 -0.669714808 0.433915227
5296256 -0.667123675 0.434721499
5340156 -0.664049565 0.435765236
5384056 -0.661035358 0.436722457
5428056 -0.658277571 0.437685638
5471956 -0.655417025 0.438684135
5515856 -0.652562439 0.439347296
5559756 -0.649698078 0.440270602
5603656 -0.647038519 0.441237509
5647556 -0.644319236 0.442031264
5691556 -0.641405582 0.442624956
5735456 -0.638716936 0.443597316
5779356 -0.635989069 0.444379955
5823256 -0.633105456 0.445153325
5867156 -0.63045901 0.445744991
5911056 -0.627945303 0.446640789
5955056 -0.625490188 0.447150409
5998956 -0.622749984 0.447719544
6042856 -0.62011069 0.448566854
6086756 -0.61764729 0.449029237
6130656 -0.615095674 0.449516862
6174556 -0.612808108 0.450088739
6218556 -0.610481262 0.450653463
6262456 -0.608029544 0.451148808
6306356 -0.605841577 0.451408565
6350256 -0.603844642 0.451810181
6394156 -0.601998209 0.451869159
6438056 -0.600270867 0.452411711
6481956 -0.598527133 0.452693104
6525956 -0.596249222 0.453093618
6569856 -0.593756258 0.454149663
6613756 -0.591019749 0.455109149
6657656 -0.588058829 0.456122964
6701556 -0.58473581 0.457038521
6745456 -0.581621348 0.45794481
6789456 -0.578336715 0.458768546
6833356 -0.575287938 0.45959568
6877256 -0.572283208 0.460381656
6921156 -0.569625139 0.461143195
6965056 -0.567108392 0.461987376
7008956 -0.564584732 0.462658345
7052956 -0.562171041 0.463203996
7096856 -0.560138642 0.46367371
7140756 -0.55807805 0.463949263
7184656 -0.555868625 0.464232176
7228556 -0.553906738 0.464583367
7272456 -0.551739215 0.46472305
7316456 -0.549777388 0.464892029
7360356 -0.547683656 0.465198487
7404256 -0.545652449 0.465489566
7448156 -0.543495416 0.465732067
7492056 -0.541501343 0.466075956
7535956 -0.539334416 0.466586828
7579856 -0.537173211 0.466700345
7623856 -0.535171926 0.466900438
7667756 -0.533005893 0.467341631
7711656 -0.53110826 0.467566668
7755556 -0.528916299 0.467955589
7799456 -0.526940643 0.468007177
7843356 -0.524927854 0.468343168
7887356 -0.522732198 0.468706727
7931256 -0.520752131 0.469062209
7975156 -0.518828153 0.469428211
8019056 -0.516678333 0.469542682
8062956 -0.514793455 0.469727456
8106856 -0.51285386 0.470085054
8150856 -0.510775268 0.470406264
8194756 -0.50875926 0.470637947
8238656 -0.506846129 0.470808178
8282556 -0.504889369 0.47102642
8326456 -0.502937734 0.471484243
8370356 -0.501112401 0.471764802
8414356 -0.499226629 0.471860766
8414434 -0.499151229 0.472026556
8463434 -0.49718669 0.472393304
8512534 -0.494983285 0.472376078
8561634 -0.492967426 0.472811579
8610734 -0.490798383 0.473188877
8659834 -0.488802284 0.473376899
8708934 -0.486700326 0.473548859
8758034 -0.484684228 0.473771333
8807134 -0.482697159 0.474211156
8856234 -0.480493187 0.47421357
8905334 -0.478725671 0.474437922
8954434 -0.476785302 0.474814057
9003534 -0.474760562 0.474992483
9052634 -0.472639948 0.475216954
9101734 -0.470635324 0.475454837
9150834 -0.468679398 0.475870668
9199934 -0.466923147 0.475894391
9248934 -0.464838683 0.476262092
9298034 -0.46288985 0.4763543
9347134 -0.461010634 0.476545959
9396234 -0.459132701 0.476719439
9445334 -0.457184344 0.476956248
9494434 -0.455207288 0.477021902
9543534 -0.453430861 0.477374017
9592634 -0.451712399 0.477372825
9641734 -0.44966036 0.477636784
9690834 -0.447798252 0.477984517
9739934 -0.446131557 0.477984786
9789034 -0.444167673 0.478294968
9838134 -0.44244188 0.478300452
9887234 -0.440555512 0.478526234
9936334 -0.438910543 0.478570312
9985434 -0.437092185 0.479077726
10034534 -0.435260534 0.479003876
10083534 -0.433666974 0.479269295
10132634 -0.431865304 0.479276627
10181734 -0.430235445 0.47946003
10230834 -0.428327798 0.479571431
10279934 -0.426447689 0.479639977
10329034 -0.424927651 0.479736626
10378134 -0.423144668 0.479767203
10427234 -0.421555072 0.479923367
10476334 -0.419607311 0.480014622
10525434 -0.418222844 0.480165421
10574534 -0.416534096 0.480263322
10623634 -0.41474843 0.480395257
10672734 -0.413176536 0.480481982
10721834 -0.411478132 0.480849981
10770934 -0.409765839 0.480745136
10820034 -0.408139765 0.480922281
10869134 -0.406626373 0.480817943
10918134 -0.404955804 0.481047719
10967234 -0.403211683 0.481137096
11016334 -0.401739001 0.481033831
11065434 -0.400160968 0.481255769
11114534 -0.398405522 0.481294363
11163634 -0.397012799 0.481354057
11212734 -0.395467489 0.481540381
11261834 -0.393899887 0.481507092
11310934 -0.392232209 0.481775343
11360034 -0.390729755 0.481565892
11409134 -0.389081805 0.481835931
11458234 -0.38759306 0.482002168
11507334 -0.385904461 0.481963962
11556434 -0.384656697 0.481873631
11605534 -0.382954478 0.482038795
11654634 -0.381471574 0.481992453
11703634 -0.380109727 0.482143104
11752734 -0.378456026 0.48222509
11801834 -0.37709555 0.482177793
11850934 -0.375594198 0.482323348
11900034 -0.374076455 0.482378184
11949134 -0.372595161 0.482499063
11998234 -0.370908915 0.482561439
12047334 -0.369660973 0.482516586
12096434 -0.368131011 0.482654899
12145534 -0.366886407 0.482621878
12194634 -0.365448594 0.482785314
12243734 -0.363734066 0.482554495
12292834 -0.362413257 0.482753396
12341934 -0.360985666 0.48289597
12391034 -0.359474509 0.482946395
12440134 -0.35810849 0.482878237
12489234 -0.356770157 0.483032703
12538234 -0.355255156 0.48312664
12587334 -0.353822499 0.483187675
12636434 -0.352484226 0.483123898
12685534 -0.35105136 0.483063071
12734634 -0.349617213 0.483347833
12783734 -0.348443329 0.48313561
12832834 -0.346989691 0.483250319
12881934 -0.345475137 0.483276903
12931034 -0.344119608 0.483229577
12980134 -0.342839896 0.483388394
13029234 -0.341285765 0.483310222
13078334 -0.339979618 0.483341306
13127434 -0.338774621 0.483479678
13176534 -0.337476611 0.483457416
13225634 -0.336138457 0.483460336
13274734 -0.334659099 0.48364821
13323834 -0.333455741 0.483415365
13323912 -0.333429455 0.483581304
13379512 -0.331969201 0.483602553
13435212 -0.330233573 0.483586698
13490812 -0.32892239 0.483697831
13546512 -0.327489763 0.483552843
13602112 -0.325887829 0.483650386
13657812 -0.324311912 0.483715116
13713512 -0.322898477 0.483922898
13769112 -0.321619182 0.483915746
13824812 -0.320115745 0.483685702
13880412 -0.318385243 0.483753502
13936112 -0.317194581 0.483780324
13991812 -0.315775096 0.483886837
14047412 -0.314265906 0.483858168
14103112 -0.312954366 0.483916252
14158712 -0.311425477 0.483763307
14214412 -0.310126006 0.484018236
14270112 -0.308657109 0.483867585
14325712 -0.307194799 0.483931332
14381412 -0.305880963 0.484023422
14437012 -0.304350972 0.483979761
14492712 -0.303036808 0.483915477
14548312 -0.301551997 0.483798503
14604012 -0.300283163 0.484067976
14659712 -0.298976033 0.484057694
14715312 -0.297573506 0.483876109
14771012 -0.296117544 0.483935981
14826612 -0.294960558 0.484121322
14882312 -0.293489843 0.484021216
14938012 -0.292181968 0.483939021
14993612 -0.290959477 0.483970582
15049312 -0.289499372 0.483952492
15104912 -0.288045912 0.4837794
15160612 -0.287024259 0.483995258
15216312 -0.285498708 0.484163224
15271912 -0.284137487 0.483895301
15327612 -0.283036112 0.483831405
15383212 -0.281494915 0.483858376
15438912 -0.280336797 0.483842819
15494612 -0.278941899 0.483846992
15550212 -0.27780357 0.483980357
15605912 -0.276354521 0.483869999
15661512 -0.27504304 0.483789473
15717212 -0.273708313 0.483770281
15772812 -0.272554159 0.483729422
15828512 -0.271179914 0.483622997
15884212 -0.270020335 0.483796983
15939812 -0.268659502 0.483684271
15995512 -0.267327457 0.483518242
16051112 -0.266170829 0.483747661
16106812 -0.26482892 0.483628571
16162512 -0.263601392 0.483400017
16218112 -0.262335687 0.483495324
16273812 -0.26129961 0.483400464
16329412 -0.259935587 0.483256459
16385112 -0.2585738 0.483231067
16440812 -0.257557302 0.483287483
16496412 -0.256157964 0.483168035
16552112 -0.25507614 0.483109444
16607712 -0.253843814 0.483122706
16663412 -0.252637922 0.483071118
16719012 -0.251316279 0.482949435
16774712 -0.250023603 0.482959002
16830412 -0.248902872 0.482846796
16886012 -0.247867748 0.48285678
16941712 -0.24653165 0.482791066
16997312 -0.245320692 0.482749462
17053012 -0.24430333 0.482587903
17108712 -0.243001982 0.482455372
17164312 -0.242075085 0.482539087
17220012 -0.240653187 0.48252505
17275612 -0.239484906 0.482332676
17331312 -0.238374888 0.482434988
17387012 -0.237309843 0.482401788
17442612 -0.235930413 0.482260584
17498312 -0.235087603 0.482417076
17553912 -0.233875185 0.482077628
17609612 -0.232379719 0.481881916
17665312 -0.231455028 0.481978833
17720912 -0.230307698 0.48175162
17776612 -0.229201063 0.481852561
17832212 -0.227990254 0.481770247
17887912 -0.22702226 0.481773763
17943512 -0.225739777 0.481644362
17999212 -0.224730744 0.481638729
18054912 -0.223532676 0.481515854
18110512 -0.22253023 0.48125571
18166212 -0.221170485 0.481375515
18221812 -0.2202885 0.481197446
18277512 -0.219178348 0.48105058
18333212 -0.218115732 0.481061339
18388812 -0.216907069 0.480959206
18444512 -0.215715676 0.480820238
18500112 -0.214773103 0.480913639
18555812 -0.213599145 0.480726897
18611512 -0.212499678 0.480596482
18667112 -0.211510106 0.480616182
18722812 -0.210488453 0.480557143
18778412 -0.209407761 0.48041135
18834112 -0.20839338 0.48031193
18889812 -0.20723772 0.480197548
18889820 -0.207067608 0.480125248
18954020 -0.205917149 0.480039387
19018320 -0.204579904 0.479892224
19082520 -0.203575819 0.479957789
19146820 -0.202308282 0.479781806
19211020 -0.201068565 0.479541152
19275320 -0.19984588 0.479484707
19339520 -0.198747664 0.479404509
19403820 -0.197344228 0.479192525
19468020 -0.196136176 0.479190081
19532320 -0.194906398 0.479168742
19596520 -0.193818151 0.478932529
19660820 -0.192640379 0.478756189
19725020 -0.191517248 0.478812992
19789320 -0.19033651 0.478718549
19853520 -0.189229696 0.478514939
19917820 -0.187926724 0.478280484
19982120 -0.186722815 0.478230565
20046320 -0.185893252 0.478072404
20110620 -0.184455901 0.477970093
20174820 -0.183248981 0.477915942
20239120 -0.181972846 0.477696925
20303320 -0.181092739 0.477624624
20367620 -0.179818958 0.477557361
20431820 -0.178815767 0.477337718
20496120 -0.17755492 0.47717905
20560320 -0.176430523 0.477069258
20624620 -0.175358772 0.476987987
20688820 -0.174229219 0.476879745
20753120 -0.17300643 0.476718336
20817320 -0.17203316 0.476489126
20881620 -0.17079018 0.476531296
20945820 -0.169736236 0.476346701
21010120 -0.16861093 0.476020246
21074420 -0.167575061 0.476008623
21138620 -0.166530504 0.475828111
21202920 -0.165230199 0.475714385
21267120 -0.164137288 0.475590139
21331420 -0.163016408 0.475300133
21395620 -0.162105217 0.475310176
21459920 -0.161026686 0.475268572
21524120 -0.160057589 0.475026994
21588420 -0.158785313 0.474927246
21652620 -0.157747402 0.474801123
21716920 -0.156911253 0.474682867
21781120 -0.155596718 0.474391013
21845420 -0.154569789 0.47432962
21909620 -0.153392493 0.474358171
21973920 -0.152553156 0.474033415
22038120 -0.151365995 0.473757266
22102420 -0.15026696 0.473855435
22166720 -0.149318426 0.473617494
22230920 -0.148256465 0.473444372
22295220 -0.147320717 0.473217964
22359420 -0.146223589 0.473242014
22423720 -0.145171239 0.473147541
22487920 -0.144121259 0.472845673
22552220 -0.143157199 0.472757935
22616420 -0.14209342 0.472768366
22680720 -0.140994459 0.472343295
22744920 -0.140057474 0.472394615
22809220 -0.139057517 0.47224462
22873420 -0.137960299 0.47193852
22937720 -0.13700354 0.471791476
23001920 -0.13593398 0.471582949
23066220 -0.134978845 0.471737802
23130420 -0.134034588 0.471514075
23194720 -0.133079454 0.471199631
23259020 -0.132066771 0.471236944
23323220 -0.131067141 0.470922052
23387520 -0.130089044 0.470876097
23451720 -0.129048958 0.470642596
23516020 -0.128069669 0.470499634
23580220 -0.127268537 0.470354467
23644520 -0.126118525 0.4703013
23708720 -0.125292673 0.470141917
23773020 -0.124257788 0.469988375
23837220 -0.123199895 0.469876646
23901520 -0.122419402 0.469595104
23965720 -0.121240831 0.469483017
24030020 -0.120558425 0.469461381
24094220 -0.119433097 0.469082951
24158520 -0.118504621 0.468999862
24222720 -0.117384873 0.468833714
24287020 -0.116651058 0.46878454
24351320 -0.115639798 0.468500047
24415520 -0.114611223 0.468229532
24479820 -0.113664463 0.468226343
24544020 -0.112845011 0.467913269
24608320 -0.111905179 0.467802643
24672520 -0.110953316 0.467661023
24736820 -0.110031932 0.467595905
24801020 -0.109172023 0.467459619
24865320 -0.108328379 0.467212378
24929520 -0.107358954 0.466983914
24993820 -0.106403306 0.466891616
25058020 -0.10542719 0.466687709
25122320 -0.104550749 0.466589927
25186520 -0.103720955 0.46645537
25250820 -0.102814413 0.465972036
25315120 -0.101911947 0.465882211
25315188 -0.101796403 0.465922415
25391088 -0.100879296 0.465806722
25467088 -0.099844314 0.46550247
25543088 -0.098873056 0.465395301
25619088 -0.097736693 0.465041279
25695088 -0.096624217 0.464935332
25771088 -0.095657035 0.464668422
25847088 -0.09453132 0.464405
25923088 -0.093424044 0.464387178
25999088 -0.092532955 0.464102089
26075088 -0.091489434 0.463980048
26151088 -0.090535737 0.463615655
26227088 -0.089461423 0.463442444
26303088 -0.088447369 0.463258028
26379088 -0.087406091 0.463095635
26455088 -0.086414121 0.462843716
26531088 -0.085600912 0.462429136
26607088 -0.084392637 0.462345182
26683088 -0.08341585 0.462160736
26759088 -0.082435347 0.461999446
26835088 -0.081386342 0.461850285
26910988 -0.080429926 0.461570531
26986988 -0.07945314 0.461147457
27062988 -0.078680522 0.46111387
27138988 -0.077522121 0.460924535
27214988 -0.07651557 0.460584729
27290988 -0.075381278 0.460351735
27366988 -0.074714094 0.460232228
27442988 -0.073688656 0.459975779
27518988 -0.072653174 0.459683358
27594988 -0.071668051 0.459507077
27670988 -0.070787884 0.459409564
27746988 -0.069872714 0.459167063
27822988 -0.068876147 0.458859175
27898988 -0.06800694 0.458711832
27974988 -0.067056387 0.458312571
28050988 -0.066022552 0.45826599
28126988 -0.065124765 0.458118438
28202988 -0.064110495 0.457645714
28278988 -0.063275046 0.457548022
28354988 -0.062338016 0.45746231
28430888 -0.061323389 0.45694831
28506888 -0.060600332 0.45692268
28582888 -0.059725187 0.456725567
28658888 -0.058758661 0.456560671
28734888 -0.057916495 0.456186026
28810888 -0.056817885 0.455908149
28886888 -0.055900484 0.455720156
28962888 -0.055115893 0.455471932
29038888 -0.054060734 0.455242186
29114888 -0.05324053 0.455158621
29190888 -0.052372742 0.454982459
29266888 -0.051490139 0.454717487
29342888 -0.050570242 0.454431295
29418888 -0.049588382 0.454189211
29494888 -0.048904467 0.454036563
29570888 -0.048017617 0.453863948
29646888 -0.047143705 0.453707456
29722888 -0.04620793 0.453392893
29798888 -0.045198172 0.453141778
29874888 -0.044532209 0.452912241
29950788 -0.043674953 0.452651858
30026788 -0.04276596 0.452390342
30102788 -0.041908562 0.45221576
30178788 -0.041025776 0.451964467
30254788 -0.040169421 0.45184496
30330788 -0.039232999 0.451660454
30406788 -0.038416374 0.451307892
30482788 -0.037777666 0.4512479
30558788 -0.03682439 0.450736194
30634788 -0.035809028 0.450769513
30710788 -0.035007584 0.450462728
30786788 -0.034265533 0.450209766
30862788 -0.033386964 0.449807584
30938788 -0.032613679 0.449897527
31014788 -0.031785897 0.44966039
31090788 -0.030861429 0.449145197
31166788 -0.030189618 0.44920957
31242788 -0.029421929 0.448820024
31318788 -0.028324708 0.448704808
31394788 -0.027733782 0.448134005
31470688 -0.026887228 0.448176592
31546688 -0.026044432 0.448103547
31622688 -0.025211945 0.447629481
31698688 -0.024338139 0.447504788
31774688 -0.023675192 0.447197258
31850688 -0.02273089 0.446996897
31926688 -0.022104844 0.446775078
32002688 -0.021332919 0.44654414
32078688 -0.020548859 0.446353226
32154688 -0.019665505 0.446039319
32230688 -0.018822027 0.445894122
32306688 -0.018021535 0.445546269
32382688 -0.017472617 0.445348739
