# HZ S RI R 50
50000 -0.999128878 -0.010407675
198500 -0.999026894 0.000678261
347100 -0.998962998 0.007097261
495600 -0.998733222 0.012716811
644200 -0.998524546 0.018221674
792800 -0.998424291 0.023659266
941300 -0.998098671 0.028740487
1089900 -0.997589051 0.033774055
1238500 -0.99738115 0.038594622
1387000 -0.997305572 0.043000251
1535600 -0.996824026 0.047660995
1684200 -0.996499478 0.052162811
1832700 -0.996263504 0.056775368
1981300 -0.995878636 0.06144132
2129800 -0.995569407 0.065688624
2278400 -0.995122551 0.070674784
2427000 -0.994921445 0.075125478
2575500 -0.994242489 0.07972747
2724100 -0.99381113 0.084174208
2872700 -0.993298649 0.088980369
3021200 -0.992870807 0.093572475
3169800 -0.992179095 0.098017007
3318400 -0.991861283 0.102504126
3466900 -0.991272091 0.107271522
3615500 -0.990690529 0.111964657
3764100 -0.990295171 0.116415008
3912600 -0.989597201 0.120824553
4061200 -0.988958775 0.125709593
4209700 -0.988087058 0.130434229
4358300 -0.987608909 0.134988933
4506900 -0.98661518 0.139831766
4655400 -0.985943555 0.144480317
4804000 -0.985197722 0.148994341
4952600 -0.984223663 0.15378575
5101100 -0.983518123 0.158499479
5249700 -0.98254615 0.163263365
5398300 -0.981224894 0.167821377
5546800 -0.980216145 0.172857373
5695400 -0.979326248 0.17725338
5843900 -0.978147387 0.182106763
5992500 -0.977228164 0.186483517
6141100 -0.976265788 0.190446212
6289600 -0.976130366 0.193488851
6438200 -0.976395845 0.195749983
6586800 -0.976444184 0.200390815
6735300 -0.973045289 0.2080632
6883900 -0.969549417 0.215198725
7032500 -0.967925786 0.221631824
7181000 -0.966901898 0.225826397
7329600 -0.965454936 0.229766726
7478200 -0.96397686 0.233982756
7626700 -0.962043404 0.238689839
7775300 -0.960227191 0.24332492
7923800 -0.958606898 0.248133376
8072400 -0.956472456 0.252693951
8221000 -0.954803049 0.257397592
8369500 -0.952847182 0.261897623
8518100 -0.950933754 0.266373634
8666700 -0.949049651 0.271311789
8815200 -0.946904838 0.27595365
8963800 -0.94484812 0.280166268
9112400 -0.942752718 0.28474164
9260900 -0.940567314 0.289198219
9409500 -0.938668727 0.293540418
9558000 -0.936503648 0.297957599
9706600 -0.934276342 0.302481353
9855200 -0.93182373 0.306634485
10003700 -0.929572224 0.310978502
10152300 -0.927218079 0.315873622
10300900 -0.924850642 0.320062279
10449400 -0.9224056 0.324084281
10598000 -0.919855952 0.328526705
10746600 -0.917456567 0.332695156
10895100 -0.914764523 0.336848229
11043700 -0.912246108 0.341256082
11192300 -0.909590065 0.34534946
11340800 -0.906884133 0.349511474
11489400 -0.904177367 0.353622943
11637900 -0.90138781 0.357609242
11786500 -0.898648202 0.361777901
11935100 -0.895901083 0.365751922
12083600 -0.893050134 0.369603633
12232200 -0.890215456 0.373698085
12380800 -0.887172043 0.377709448
12529300 -0.884351909 0.381541073
12677900 -0.88125813 0.385319024
12826500 -0.878108143 0.389015018
12975000 -0.875202775 0.392757862
13123600 -0.872063815 0.396390199
13272100 -0.869171679 0.400366634
13420700 -0.865969002 0.403967112
13569300 -0.86270672 0.407904654
13717800 -0.859731674 0.41125819
13866400 -0.856555998 0.414860129
14015000 -0.853464841 0.418297827
14163500 -0.850037217 0.421974867
14312100 -0.846630096 0.425580501
14460700 -0.843507051 0.428915709
14609200 -0.840040743 0.432401061
14757800 -0.836469769 0.435925215
14906400 -0.833010673 0.439127236
15054964 -0.829731345 0.442566186
15203464 -0.826214909 0.446040064
15352064 -0.82280147 0.449149072
15500564 -0.819201052 0.452381342
15649164 -0.815728843 0.455426245
15797764 -0.811929464 0.458573281
15946264 -0.808378756 0.461726933
16094864 -0.804934859 0.464688569
16243464 -0.801039636 0.467700064
16391964 -0.797243475 0.470743656
16540564 -0.793503463 0.473620772
16689164 -0.78989613 0.476547092
16837664 -0.785823225 0.479455024
16986264 -0.782112419 0.482188761
17134764 -0.778095424 0.484754115
17283364 -0.774222791 0.487620711
17431964 -0.770210921 0.490187376
17580464 -0.766444146 0.492900878
17729064 -0.762359559 0.495233267
17877664 -0.758553028 0.497651815
18026164 -0.75443077 0.500142633
18174764 -0.750683009 0.502314388
18323364 -0.746605038 0.504684031
18471864 -0.742444753 0.506937086
18620464 -0.738396704 0.50906521
18769064 -0.734300732 0.510976374
18917564 -0.730168223 0.513038694
19066164 -0.726005733 0.515127658
19214664 -0.721777141 0.517058372
19363264 -0.717906832 0.51875174
19511864 -0.713481009 0.520826816
19660364 -0.709480285 0.522463202
19808964 -0.705184042 0.523917675
19957564 -0.70117551 0.525396108
20106064 -0.696825385 0.526965558
20254664 -0.69293797 0.528640389
20403264 -0.688599109 0.529866874
20551764 -0.684713125 0.531262159
20700364 -0.680585801 0.532468795
20848864 -0.676344096 0.533582866
20997464 -0.67202419 0.534777939
21146064 -0.668145835 0.535785257
21294564 -0.664030551 0.537009477
21443164 -0.660055577 0.537834227
21591764 -0.655946612 0.538643598
21740264 -0.651853919 0.539396464
21888864 -0.648031294 0.540050864
22037464 -0.643945395 0.540638387
22185964 -0.640039861 0.54128921
22334564 -0.636255383 0.541784822
22483164 -0.63264805 0.542049825
22631664 -0.628667116 0.542551934
22780264 -0.625001192 0.543048858
22928764 -0.621241629 0.543328166
23077364 -0.617732405 0.543617546
23225964 -0.614286541 0.543669164
23374464 -0.610469937 0.543976128
23523064 -0.607013463 0.543941378
23671664 -0.603428244 0.544012665
23820164 -0.600402951 0.544279575
23968764 -0.596642911 0.544276773
24117364 -0.593268096 0.544303953
24265864 -0.589898288 0.544326543
24414464 -0.586732625 0.544183194
24562964 -0.583495795 0.543949782
24711564 -0.580417811 0.543982982
24860164 -0.577292799 0.543943047
25008664 -0.574142217 0.543611109
25157264 -0.571209609 0.543639123
25305864 -0.56822443 0.543500542
25454364 -0.565116047 0.543175876
25602964 -0.562411665 0.542928159
25751564 -0.559481203 0.542776167
25900064 -0.556632161 0.542400479
26048664 -0.553910493 0.542188525
26197264 -0.551270663 0.541638374
26345764 -0.548565924 0.541458606
26494364 -0.545907795 0.541118443
26642864 -0.543258011 0.540739297
26791464 -0.540813624 0.540346503
26940064 -0.538252055 0.540106952
27088564 -0.535883605 0.539817214
27237164 -0.533405959 0.539666116
27385764 -0.531260788 0.539162099
27534264 -0.528731644 0.538726747
27682864 -0.526400148 0.538709044
27831464 -0.52414757 0.538344025
27979964 -0.52191329 0.538162946
28128564 -0.519506216 0.537991583
28277064 -0.517593026 0.537445425
28425664 -0.515344917 0.53714329
28574264 -0.513086199 0.53666985
28722764 -0.510866641 0.536560356
28871364 -0.508684575 0.536129951
29019964 -0.506863892 0.535892248
29168464 -0.504895091 0.535389006
29317064 -0.502672076 0.535161077
29465664 -0.500824034 0.534938991
29614164 -0.498971551 0.534742653
29762764 -0.496876239 0.53461945
29911364 -0.494939476 0.533985555
30059928 -0.493221193 0.533658862
30208428 -0.491464704 0.533486247
30357028 -0.489371538 0.533290028
30505528 -0.487376242 0.533038318
30654128 -0.485850274 0.53284347
30802728 -0.483936101 0.532523155
30951228 -0.482111155 0.532519459
31099828 -0.480515062 0.532357335
31248428 -0.478879779 0.532086431
31396928 -0.476907521 0.531541943
31545528 -0.475526183 0.531682372
31694128 -0.473784685 0.531593084
31842628 -0.472367137 0.531194388
31991228 -0.470411628 0.53090161
32139728 -0.468639582 0.530744194
32288328 -0.46694076 0.530533671
32436928 -0.465173751 0.530580699
32585428 -0.463599979 0.530183553
32734028 -0.462099999 0.530191957
32882628 -0.460247069 0.529814362
33031128 -0.458688408 0.529684364
33179728 -0.457496374 0.529725909
33328328 -0.455914527 0.529559493
33476828 -0.454591572 0.529238641
33625428 -0.453097134 0.529041528
33774028 -0.451265215 0.528976917
33922528 -0.449883759 0.528831005
34071128 -0.448492139 0.52870357
34219628 -0.446731507 0.528663456
34368228 -0.445225179 0.52863121
34516828 -0.443911254 0.528339982
34665328 -0.442441701 0.528198599
34813928 -0.441026419 0.528095901
34962528 -0.439586281 0.528018772
35111028 -0.438086897 0.5278427
35259628 -0.436610877 0.527686119
35408228 -0.435207396 0.527633845
35556728 -0.433938473 0.527936041
35705328 -0.432400405 0.527258276
35853828 -0.431137204 0.52734518
36002428 -0.429690152 0.527277708
36151028 -0.428481638 0.527260005
36299528 -0.426915526 0.527018725
36448128 -0.425748467 0.527194619
36596728 -0.42429772 0.527036666
36745228 -0.423001199 0.527018427
36893828 -0.421868473 0.526877045
37042428 -0.420172184 0.52691406
37190928 -0.419176816 0.526771426
37339528 -0.417987883 0.526747465
37488128 -0.416539549 0.526698648
37636628 -0.415374666 0.526639103
37785228 -0.414005279 0.526574373
37933728 -0.412582904 0.526655554
38082328 -0.411284387 0.526343524
38230928 -0.410025596 0.52604556
38379428 -0.409003913 0.526438355
38528028 -0.407906293 0.526718139
38676628 -0.40647456 0.5266366
38825128 -0.40541017 0.526129245
38973728 -0.404144525 0.526278913
39122328 -0.402765572 0.52620697
39270828 -0.401725977 0.526301622
39419428 -0.400758832 0.526258468
39567928 -0.39955762 0.526106417
39716528 -0.39837709 0.52628225
39865128 -0.397319674 0.526407539
40013628 -0.395977318 0.526163458
40162228 -0.394953072 0.525996744
40310828 -0.393456727 0.52619642
40459328 -0.392308115 0.526111364
40607928 -0.391219675 0.526022017
40756528 -0.389929413 0.526141941
40905028 -0.389206647 0.526453912
41053628 -0.387948423 0.526227533
41202228 -0.386837035 0.525945603
41350728 -0.386035174 0.526535928
41499328 -0.385056972 0.52614814
41647828 -0.383706092 0.52645421
41796428 -0.38258928 0.526441752
41945028 -0.381331294 0.525887131
42093528 -0.380573153 0.526666104
42242128 -0.379418939 0.526383996
42390728 -0.378340363 0.52648276
42539228 -0.377323389 0.526369988
42687828 -0.375936418 0.526418387
42836428 -0.374855101 0.526370108
42984928 -0.374171614 0.526723742
43133528 -0.372782796 0.526468753
43282028 -0.37150526 0.526540458
43430628 -0.370552033 0.526628971
43579228 -0.369465142 0.526888906
43727728 -0.369103342 0.527198612
43876328 -0.367797672 0.526974558
44024928 -0.366411238 0.52701354
44173428 -0.365842729 0.527544021
44322028 -0.364591151 0.527079999
44470628 -0.363517045 0.527064442
44619128 -0.362563788 0.527507841
44767728 -0.361645251 0.527600586
44916328 -0.360988467 0.527608573
45064892 -0.360031425 0.527865469
45213392 -0.35876131 0.527588665
45361992 -0.357846736 0.527806997
45510492 -0.356409221 0.527601957
45659092 -0.355749994 0.527701556
45807692 -0.354717612 0.527849614
45956192 -0.354113429 0.527822375
46104792 -0.352659553 0.528285682
46253392 -0.351915717 0.528225541
46401892 -0.35063675 0.528286874
46550492 -0.349920988 0.528491437
46699092 -0.348719805 0.528683722
46847592 -0.348073393 0.528855443
46996192 -0.34693697 0.529135346
47144692 -0.346277296 0.529146075
47293292 -0.345174849 0.529402732
47441892 -0.344148933 0.529308915
47590392 -0.34308955 0.529376983
47738992 -0.342285573 0.52965331
47887592 -0.341480046 0.529611229
48036092 -0.340369522 0.529502332
48184692 -0.339479088 0.530066847
48333292 -0.338692724 0.530002951
48481792 -0.337190479 0.530149817
48630392 -0.336796909 0.530362784
48778992 -0.335847318 0.530478119
48927492 -0.334961712 0.530690133
49076092 -0.333803504 0.530760645
49224592 -0.332937419 0.530920982
49373192 -0.33212915 0.531064689
49521792 -0.331098139 0.531310081
49670292 -0.330164223 0.531278967
49818892 -0.329228729 0.531403779
49967492 -0.328389555 0.531532108
50115992 -0.327465415 0.531724274
50264592 -0.326518654 0.531923472
50413192 -0.325528502 0.532068789
50561692 -0.324623286 0.532103776
50710292 -0.323722183 0.532291531
50858792 -0.322962403 0.532567143
51007392 -0.321902304 0.532562971
51155992 -0.321054637 0.532722234
51304492 -0.320156276 0.53280121
51453092 -0.319278448 0.533046483
51601692 -0.318572193 0.533191621
51750192 -0.317402362 0.533197522
51898792 -0.316599637 0.533517658
52047392 -0.31561318 0.533538341
52195892 -0.314900785 0.53363353
52344492 -0.31406185 0.533704578
52493092 -0.313152402 0.534042716
52641592 -0.312126636 0.534153461
52790192 -0.311331927 0.53429234
52938692 -0.310582309 0.53447467
53087292 -0.309541314 0.534550666
53235892 -0.308589637 0.534851968
53384392 -0.307775199 0.53513664
53532992 -0.307019203 0.535180628
53681592 -0.306203782 0.535369038
53830092 -0.305307596 0.535440623
53978692 -0.304466068 0.53561598
54127292 -0.303988367 0.535744786
54275792 -0.302764445 0.535908401
54424392 -0.302006721 0.536217272
54572892 -0.301178276 0.536523401
54721492 -0.300305396 0.536548137
54870092 -0.299485623 0.536906838
55018592 -0.29853329 0.536758303
55167192 -0.297727942 0.537323653
55315792 -0.296984314 0.537230551
55464292 -0.296471208 0.537249624
55612892 -0.294935077 0.53791207
55761492 -0.294337064 0.537940204
55909992 -0.293518871 0.53810513
56058592 -0.292783677 0.537731528
56207192 -0.291971206 0.538688719
56355692 -0.290873318 0.538423359
56504292 -0.289951443 0.538593888
56652792 -0.289112478 0.538936197
56801392 -0.288334339 0.538958787
56949992 -0.287571668 0.539332509
57098492 -0.286632359 0.539352059
57247092 -0.285834729 0.539585053
57395692 -0.28502959 0.539779424
57544192 -0.284044414 0.540020942
57692792 -0.283145278 0.540297031
57841392 -0.282393276 0.54040265
57989892 -0.281795561 0.540663242
58138492 -0.281098872 0.54090172
58286992 -0.280026257 0.541185677
58435592 -0.279517054 0.541111052
58584192 -0.278277456 0.541227698
58732692 -0.277227878 0.541077673
58881292 -0.276682555 0.541762948
59029892 -0.275831133 0.541506111
59178392 -0.274931639 0.542021691
59326992 -0.273968666 0.541926026
59475592 -0.27343285 0.542361021
59624092 -0.272354304 0.542521595
59772692 -0.272107273 0.542687118
59921292 -0.270770192 0.542888104
60069856 -0.270672291 0.543143272
60218356 -0.269496709 0.543206095
60366956 -0.268770366 0.543558716
60515456 -0.267986178 0.543523371
60664056 -0.267102748 0.543955683
60812656 -0.266154646 0.544243395
60961156 -0.265575081 0.5443542
61109756 -0.264552056 0.54439336
61258356 -0.263643532 0.544686794
61406856 -0.263052433 0.544884979
61555456 -0.262224137 0.545262396
61704056 -0.261234581 0.54556024
61852556 -0.260532319 0.545614182
62001156 -0.259584188 0.545489013
62149656 -0.259117186 0.545844674
62298256 -0.258338183 0.546451926
62446856 -0.257321029 0.546207249
62595356 -0.256504297 0.546435534
62743956 -0.255366027 0.546349465
62892556 -0.25461024 0.546884357
63041056 -0.25434482 0.546587705
63189656 -0.252967298 0.547185838
63338256 -0.252744495 0.547503411
63486756 -0.251522481 0.547285497
63635356 -0.250850737 0.547885358
63783956 -0.250066697 0.548327207
63932456 -0.249074846 0.547871768
64081056 -0.248709648 0.548484742
64229556 -0.247641608 0.54840821
64378156 -0.247349932 0.54884231
64526756 -0.246370539 0.548649191
64675256 -0.24533832 0.548891603
64823856 -0.244886547 0.549118161
64972456 -0.243461877 0.549382209
65120956 -0.243267893 0.549751639
65269556 -0.241900518 0.550085246
65418156 -0.241413578 0.55079478
65566656 -0.240625247 0.550277173
65715256 -0.240004062 0.550592303
65863756 -0.239335358 0.550728261
66012356 -0.238318473 0.551253318
66160956 -0.237510144 0.55125302
66309456 -0.236932605 0.551448106
66458056 -0.235848978 0.551174819
66606656 -0.235361531 0.551927149
66755156 -0.235146418 0.551921248
66903756 -0.233192145 0.552161514
67052356 -0.232423186 0.552041471
67200856 -0.232979714 0.553474307
67349456 -0.231738075 0.553021967
67498056 -0.230161637 0.553080081
67646556 -0.229657053 0.553358256
67795156 -0.229367688 0.553225398
67943656 -0.227684944 0.553561091
68092256 -0.227176219 0.553761899
68240856 -0.226846307 0.555057704
68389356 -0.226327374 0.555384755
68537956 -0.225157409 0.554615795
68686556 -0.223894685 0.554525136
68835056 -0.223236188 0.554261445
68983656 -0.222689598 0.554983377
69132256 -0.222064077 0.55529946
69280756 -0.221717715 0.555278599
69429356 -0.221534505 0.555779397
69577856 -0.219519644 0.555719733
69726456 -0.219004347 0.555951476
69875056 -0.218535766 0.555699586
70023556 -0.217834427 0.555765807
70172156 -0.217560201 0.555522978
70320756 -0.215841189 0.556273818
70469256 -0.215004816 0.557410359
70617856 -0.214320152 0.556370556
70766456 -0.213523581 0.557147264
70914956 -0.213330313 0.556509852
71063556 -0.211395457 0.556740462
71212156 -0.212573707 0.558240115
71360656 -0.211020857 0.55777347
71509256 -0.209681332 0.558518588
71657756 -0.208715885 0.558089792
71806356 -0.208643138 0.558575749
71954956 -0.207603976 0.55778408
72103456 -0.206617981 0.559131741
72252056 -0.205952435 0.558201313
72400656 -0.205469295 0.559566318
72549156 -0.205505043 0.559376001
72697756 -0.203903704 0.559392571
72846356 -0.202734261 0.560209512
72994856 -0.201871275 0.560161352
73143456 -0.201753258 0.560580909
73291956 -0.2010421 0.560440421
73440556 -0.20031616 0.560415446
73589156 -0.199195235 0.55998367
73737656 -0.198349267 0.560943782
73886256 -0.196647033 0.561318397
74034856 -0.196995332 0.560943782
74183356 -0.196450978 0.561686038
74331956 -0.195739224 0.562278509
74480556 -0.194714754 0.561494171
74629056 -0.193593263 0.561759233
74777656 -0.193330258 0.5624637
74926256 -0.193273022 0.562529385
75074816 -0.191801846 0.563234806
75223316 -0.190610811 0.562753498
75371916 -0.189722746 0.562255263
75520416 -0.189133584 0.562826871
75669016 -0.189149692 0.563879549
75817616 -0.188995823 0.563933432
75966116 -0.186757206 0.56394881
76114716 -0.186492189 0.563223421
76263316 -0.185463741 0.563626945
76411816 -0.184796527 0.564263224
76560416 -0.184372708 0.564365983
76709016 -0.18305841 0.564364314
76857516 -0.182253584 0.564943671
77006116 -0.181379273 0.56501019
77154616 -0.180229872 0.565086662
77303216 -0.180456563 0.565113365
77451816 -0.17986302 0.565465569
77600316 -0.178945496 0.566194057
77748916 -0.1774562 0.566352009
77897516 -0.178124859 0.566810905
78046016 -0.177010715 0.566722989
78194616 -0.177151054 0.567192196
78343216 -0.175377011 0.567001521
78491716 -0.174996137 0.566289782
78640316 -0.174408495 0.567189931
78788916 -0.173887923 0.568416357
78937416 -0.171949669 0.567471623
79086016 -0.171327352 0.567563593
79234516 -0.170559719 0.567973494
79383116 -0.170753583 0.568379461
79531716 -0.170508921 0.568242728
79680216 -0.169052049 0.568883359
79828816 -0.167960375 0.567751407
79977416 -0.167406961 0.56839025
80125916 -0.16701968 0.568962037
80274516 -0.16542989 0.568618416
80423116 -0.16480419 0.569187223
80571616 -0.165219604 0.569612503
80720216 -0.164063274 0.56972599
80868716 -0.16270636 0.569785714
81017316 -0.163065537 0.570791661
81165916 -0.161976248 0.570458829
81314416 -0.160806581 0.570463359
81463016 -0.160166025 0.569870054
81611616 -0.159179702 0.57099688
81760116 -0.158237919 0.57047367
81908716 -0.15896435 0.571950376
82057316 -0.157350078 0.571831107
82205816 -0.156342357 0.572173297
82354416 -0.155810043 0.571437597
82503016 -0.155886858 0.571478605
82651516 -0.15486738 0.572804868
82800116 -0.15490514 0.571947336
82948616 -0.153126299 0.572909295
83097216 -0.152059853 0.572268187
83245816 -0.15146856 0.572282552
83394316 -0.151201069 0.57285428
83542916 -0.150497019 0.574194073
83691516 -0.148976176 0.571027457
83840016 -0.149361521 0.573684573
83988616 -0.148701682 0.573104798
84137216 -0.147413492 0.574193418
84285716 -0.14615266 0.573488414
84434316 -0.146497219 0.574238061
84582816 -0.146096825 0.575245082
84731416 -0.1446473 0.574754178
84880016 -0.144787028 0.574844837
85028516 -0.143736615 0.57518959
85177116 -0.142766237 0.574846982
85325716 -0.142787575 0.574191749
85474216 -0.141798108 0.575843751
85622816 -0.14127916 0.576384663
85771416 -0.139657691 0.575347065
85919916 -0.139240175 0.57482177
86068516 -0.139358192 0.576262056
86217116 -0.138399168 0.576292216
86365616 -0.136581912 0.575271368
86514216 -0.136392146 0.575645148
86662716 -0.137159153 0.576711237
86811316 -0.135959997 0.57617402
86959916 -0.135413363 0.577810466
87108416 -0.13369292 0.576635301
87257016 -0.132832229 0.577460765
87405616 -0.131804585 0.576639652
87554116 -0.132312223 0.57741934
87702716 -0.132370159 0.578068017
87851316 -0.130195364 0.577525079
87999816 -0.13081035 0.578739881
