# HZ S RI R 50
50000 -0.9993588111916307 0.02246017196437096
79700 -0.9969152969383479 0.04387037975725221
109400 -0.9957099424213068 0.06518917320066794
139100 -0.9933643711314009 0.0855936862981508
168800 -0.9903581208676534 0.10571478453835682
198500 -0.9871400201114209 0.12573916041296263
228200 -0.9831531579817359 0.14591874523692902
257900 -0.9787921285104934 0.16525551109715175
287600 -0.9734699367097863 0.18532536753943016
317300 -0.967859914441789 0.20492342524010193
347000 -0.9614470036915056 0.22429109092203858
376700 -0.954161203065056 0.2440318519774957
406400 -0.9460517663606081 0.26323542955161505
436100 -0.936934633332141 0.28221457547512707
465800 -0.9272169054187906 0.30111857340765613
495500 -0.9164047129009572 0.31932920635990814
525200 -0.904653592396054 0.33704655752127144
554900 -0.8920093289355245 0.3538889384643772
584600 -0.8789105643691147 0.3701601876558593
614300 -0.8646338822489952 0.3853582031049908
644000 -0.8502101781344983 0.3996416168437373
673700 -0.8354572366574038 0.41269680499876066
703400 -0.8202021457059436 0.4251823930937217
733100 -0.8046260317473344 0.43632785910279587
762800 -0.7892075599313674 0.44678686553100216
792500 -0.7735933802231507 0.4561271004813355
822200 -0.7580889614913057 0.46496660937095446
851900 -0.7427455210445737 0.47247222949540224
881600 -0.7273086738697396 0.4796687925232906
911300 -0.7126659973037014 0.48596680942731274
941000 -0.6978145270684614 0.4913368199774308
970700 -0.6836902940100648 0.49627971218555433
1000400 -0.6692633799649768 0.500847805385594
1030100 -0.6557535953955514 0.5046255537530387
1059800 -0.6421692893866832 0.5080039412427296
1089500 -0.6292962142024 0.5107949637849192
1119200 -0.6165148054608351 0.5136301557966958
1148900 -0.6042940970130849 0.5154806890645561
1178600 -0.5922353994281767 0.5172739574995583
1208300 -0.5807314224731513 0.5190126077745075
1238000 -0.5693170736464855 0.5201901725384406
1267700 -0.5582367886286889 0.5212060075050094
1297400 -0.5476659443676983 0.5221108448749773
1327100 -0.5373654990213274 0.5226882833973723
1356800 -0.5272684945204965 0.5233427426446385
1386500 -0.51749868628363 0.523639136156252
1416200 -0.5080309910843376 0.5240837374270427
1445900 -0.4990364055007515 0.5240867080321147
1475600 -0.4897698470283298 0.5242288711131906
1505300 -0.48125985162719537 0.5240767601652409
1535000 -0.47256202278361675 0.5241694499086833
1564700 -0.464420089221138 0.523974323309704
1594400 -0.4563678389135332 0.5238665062213503
1624100 -0.4485752094796683 0.5233185698480455
1653800 -0.44097708386974194 0.5232915074222102
1683500 -0.4334879367248266 0.5229705640519539
1713200 -0.42620624596493 0.5226125088112238
1742900 -0.4189115334724804 0.5221386371558601
1772600 -0.4119296045061115 0.5216577446535715
1802300 -0.4052352810687457 0.5213840253076449
1832000 -0.398515008940648 0.5209111994375899
1861700 -0.39195600970329697 0.5206029767289397
1891400 -0.3856338601763218 0.5197450684118198
1921100 -0.3794427543455803 0.519400329194003
1950800 -0.37311858588911867 0.5189955651406604
1980500 -0.3671321428242317 0.5183377690011194
2010200 -0.36118025373682 0.5178639157987376
2039900 -0.3554170204172697 0.5173054518276803
2069600 -0.349459205701457 0.5167387905463213
2099300 -0.3440068899070459 0.5163076338674255
2129000 -0.3385928146135341 0.5158745729231938
2158700 -0.33311246372571607 0.5151729519248188
2188400 -0.3279111589654169 0.514682665494302
2218100 -0.3226037149884151 0.5141513918846021
2247800 -0.3173266884761252 0.5136163011639847
2277500 -0.3120061994425243 0.5129034428023668
2307200 -0.306920942079918 0.5126478842101173
2336900 -0.30178858834334127 0.5118068671037247
2366600 -0.2969743062022362 0.5112724348924246
2396300 -0.29212227224464843 0.5105564695239635
2426000 -0.2875460337128472 0.5100445393235087
2455700 -0.2827456720516379 0.5095815527486395
2485400 -0.27796616606407903 0.508685866401844
2515100 -0.2735217338699071 0.508390085269333
2544800 -0.26890228835389973 0.5075946780805577
2574500 -0.2647757415614653 0.507158515797574
2604200 -0.2599725571132226 0.5064820629696702
2633900 -0.25583212861182003 0.5056601423252052
2663600 -0.251306831207292 0.5050768760104037
2693300 -0.2473189389375303 0.5044478738010618
2723000 -0.2430820652159057 0.5037479980371556
2752700 -0.23877444146323618 0.5031023532112706
2782400 -0.2347856287804039 0.502498126054666
2812100 -0.2307069808714604 0.501854729413913
2841800 -0.22676456512800638 0.5010689815144216
2871500 -0.22289372053673065 0.5004851797069199
2901200 -0.21883707610474654 0.49977836164535094
2930900 -0.21493328660689406 0.49902462452060903
2960600 -0.2112097422828303 0.4984332048872561
2990300 -0.20735444641401413 0.4976267417696924
3020100 -0.20351544191127252 0.4968464649093907
3049801 -0.1998422821025926 0.49621950348368093
3079501 -0.1962313219582118 0.4953934941126087
3109201 -0.19249135431797237 0.49469419864791186
3138901 -0.18888560108310357 0.4939483086938644
3168601 -0.1853888408576769 0.4933189090673729
3198301 -0.18187357250221456 0.4925967460668559
3228001 -0.1784615552377133 0.49184372199065385
3257701 -0.1748613290549759 0.4910736119680029
3287401 -0.17155057233444865 0.4903404371531235
3317101 -0.16823838429384788 0.4894170813096538
3346801 -0.16484422359316128 0.4889568970860213
3376501 -0.16154343449691358 0.4881188670985083
3406201 -0.15834358891635755 0.48711860986362776
3435901 -0.15496161457022442 0.48633873464001937
3465601 -0.15189930173213018 0.4857453430344764
3495301 -0.1487995793613889 0.48488992998805563
3525001 -0.14551629242686487 0.4839708406979286
3554701 -0.14243172606061882 0.48333705224384
3584401 -0.1394711641653886 0.4825523865887139
3614101 -0.13637054003521018 0.48166506495634026
3643801 -0.13338766948963385 0.4809585638266108
3673501 -0.1302644331296728 0.4801114765654617
3703201 -0.12740389510451486 0.479367111210372
3732901 -0.12451112367533933 0.47839435842218464
3762601 -0.12175094659112178 0.477514717938685
3792301 -0.11872810406693154 0.47676321006627703
3822001 -0.11587699444371838 0.4759664514010838
3851701 -0.11309061678840879 0.47526501351182865
3881401 -0.11029870713635143 0.47450435102195
3911101 -0.1076330952602998 0.4735478181133548
3940801 -0.10487892582136961 0.472763841153947
3970501 -0.10222420206494584 0.4718232579785714
4000201 -0.0993290771812626 0.47099439731570747
4029901 -0.09672645031840327 0.47010997801640064
4059601 -0.09421419872041206 0.4692400163339093
4089301 -0.09153172925017726 0.46872604547048313
4119001 -0.08894486998328119 0.4676482262177209
4148701 -0.08636869041720999 0.46693816495139073
4178401 -0.08392893310035134 0.4660489043181365
4208101 -0.08148640948642179 0.4652375981054585
4237801 -0.07886630852353285 0.4643054499638594
4267501 -0.07636784497213409 0.46339706198467007
4297201 -0.07405745717022283 0.46249777490220506
4326901 -0.07163964658173043 0.4616751435970181
4356601 -0.06922625617636392 0.4608357078404105
4386301 -0.06712205379187941 0.4599310566006511
4416001 -0.0644949383006563 0.4590623991577133
4445701 -0.062282799166816546 0.4582173938911457
4475401 -0.05993142406561 0.45740499718837524
4505101 -0.05760294009050604 0.4565228108165535
4534801 -0.055472642977216845 0.45572461663810665
4564501 -0.053136828417152296 0.45477234710060405
4594201 -0.050999062489863044 0.4540200641977973
4623901 -0.04884667535010739 0.4531576432725708
4653601 -0.04660604001330189 0.45218069167846964
4683301 -0.04449125146300893 0.4514154785553768
4713001 -0.04234832361575969 0.4505975522709258
4742701 -0.040221428699301974 0.449600104642901
4772401 -0.03808700803564148 0.4486513616312023
4802101 -0.03603367498713286 0.44793961274881094
4831801 -0.034003358953929946 0.44720380059167025
4861501 -0.03193524485730042 0.4461751113652235
4891201 -0.030012731111783885 0.4455707888852059
4920901 -0.028053625280591084 0.4445172048394937
4950601 -0.02600387718553764 0.4436890836971762
4980301 -0.023952408333229865 0.4426632520884495
5010001 -0.022067361006373666 0.441859884904641
5039701 -0.020123203150366663 0.4411289504882375
5069401 -0.018351668568428757 0.44030013936393264
5099101 -0.01630157473725428 0.4393275113745108
5128801 -0.014511065189752148 0.4385281254404301
5158501 -0.01267062452707249 0.43774072963376803
5188201 -0.010732169788353481 0.4367984138376887
5217901 -0.009100486795053698 0.43589762714600966
5247601 -0.00719205574704158 0.43512595577392754
5277301 -0.005466307348628514 0.4343208885855734
5307001 -0.0037382569296011683 0.4333326317106888
5336701 -0.0017696905212971406 0.43263569870747254
5366401 -0.00019226600855600702 0.43189617694834687
5396101 0.0014362899232263162 0.4308937910419055
5425801 0.003228923998112726 0.4301858983637463
5455501 0.004957973926992992 0.4291956034857559
5485201 0.00650219065124521 0.4283147447331327
5514901 0.008320489947729865 0.42747197240526713
5544601 0.010058021404595649 0.42660090531172806
5574301 0.01158787804141126 0.42579190913880793
5604001 0.013064323462258358 0.42490662470939283
5633701 0.014945341434285515 0.42421563788289973
5663401 0.016431476531110347 0.42344902260085276
5693101 0.017875064524152735 0.4225897231687947
5722801 0.019557175304211197 0.4216618601816508
5752501 0.021109476598561917 0.4210391623592814
5782201 0.022671389133338323 0.42022030572248437
5811901 0.024059226607299453 0.41942633308167426
5841601 0.025522887559525958 0.4186651237355184
5871301 0.027062560388039024 0.4177813137143197
5901001 0.02862890323860514 0.4169884154201869
5930701 0.02992504373788137 0.4160977988737112
5960401 0.0314015488459011 0.41525337632553855
5990101 0.03279983158250846 0.41474764795450003
6019901 0.03420034386688067 0.4137491403718646
6049602 0.035561761828373825 0.41299679326937794
6079302 0.03689370626450352 0.41218438122627665
6109002 0.03816553250871187 0.4115275498989734
6138702 0.03954449966825716 0.41068004710440176
6168402 0.040844606842597185 0.40997608117687473
6198102 0.04206056302882031 0.4091226411312442
6227802 0.043432674061277814 0.40844503766649676
6257502 0.044543354243943796 0.4076331408120552
6287202 0.04574091462855031 0.4069318056329398
6316902 0.04696777062322509 0.40608965896302407
6346602 0.04807091112675933 0.4053524145474885
6376302 0.04918052731441889 0.40481028906059663
6406002 0.05034999711707433 0.40418147151754674
6435702 0.051380488446555544 0.40351105594995407
6465402 0.05232095563706096 0.40295870940909245
6495102 0.05328919737798393 0.40232002866016586
6524802 0.054513905659267545 0.40179764254443084
6554502 0.055910194132437176 0.4011985693285536
6584202 0.05711794647270334 0.4004337279056492
6613902 0.05851325728088922 0.39953017297898186
6643602 0.06001460647814603 0.3990000705588111
6673302 0.06146398072122843 0.3979965490093411
6703002 0.0630559986016272 0.3971828479534286
6732702 0.06432373929201227 0.39607316508165763
6762402 0.06585784754252329 0.3952528682242203
6792102 0.06709478902779538 0.3941910930371013
6821802 0.06848686292869773 0.393222720064564
6851502 0.0698998004557249 0.3925479155490124
6881202 0.07130031311264635 0.3915760868638025
6910902 0.0725927365145411 0.390698328473799
6940602 0.07399648597931424 0.3897555993056429
6970302 0.07513981803179318 0.3892517750051042
7000002 0.07658935705268069 0.3885390325654566
7029702 0.07774657286748213 0.3876860391443671
7059402 0.07896844265873973 0.3872963083117409
7089102 0.08012685140270835 0.38636532420979625
7118802 0.08123025345939523 0.38562416591286264
7148502 0.08227459844528108 0.38491468502664955
7178202 0.08326673398059448 0.38435082796758646
7207902 0.08421402750470154 0.38365477781773816
7237602 0.08515706494455638 0.38299828263332075
7267302 0.08610323963490916 0.3822756534123263
7297002 0.08703220473224077 0.38149987777739375
7326702 0.08797071142335726 0.3808960813729235
7356402 0.08888508762200764 0.38018306130467056
7386102 0.08983998922659134 0.3793886430510342
7415802 0.09075330705710807 0.37876573494571
7445502 0.09166202680573501 0.37820417108262194
7475202 0.09265950922385602 0.3774438815944566
7504902 0.09367036874706715 0.37679672426795324
7534602 0.09447939570676699 0.3761878703388109
7564302 0.09542176633607953 0.3754968864780856
7594002 0.09643024177183596 0.3747485676124547
7623702 0.09737919279586527 0.37403913200559963
7653402 0.09826294745951794 0.37327846396577957
7683102 0.09931042706758043 0.37278158629739316
7712802 0.0999514021814626 0.3722034254353532
7742502 0.10089435824005778 0.3715350336026341
7772202 0.10195830348612436 0.37087800982233676
7801902 0.1026489695942413 0.3702831527967049
7831602 0.10357572147833016 0.3695539227568746
7861302 0.1043792943430564 0.36884441640831367
7891002 0.1052425533008474 0.36825168374199463
7920702 0.10604675960342703 0.36776563248595806
7950402 0.10700949002436877 0.36693055949514997
7980102 0.10809819972500238 0.36647915298599154
8009802 0.10881569697504957 0.3658748851437996
8039502 0.10959609143143455 0.36521757144293643
8069202 0.11053297036353053 0.364608996678496
8098902 0.11126835887820646 0.3637321806463698
8128602 0.11220834991234965 0.36324312539232007
8158302 0.1128229747871748 0.36282947049623
8188002 0.11368172728310082 0.3621320711752703
8217702 0.11446104957122256 0.36153818546320554
8247402 0.1153158775345204 0.3608178972717825
8277102 0.11598767042545562 0.3602563861346858
8306802 0.11690376158222361 0.3596361652145669
8336502 0.11748534257399536 0.3590398403045679
8366202 0.1183887634840635 0.35843556924473746
8395902 0.1192181867415113 0.3579183569850915
8425602 0.11987925701359449 0.35743985946337237
8455302 0.12068992725910942 0.3567957381642211
8485002 0.12139592085270899 0.35608139583671544
8514702 0.12225578396612242 0.35561237056445877
8544402 0.12300420927246261 0.35493008527233794
8574102 0.12364404928609524 0.3543977612161567
8603802 0.12449266296816858 0.3539695140262494
8633502 0.12516402036048027 0.35320176559660155
8663202 0.1258500488769566 0.3526023304281464
8692902 0.12668772862330865 0.3522514636441187
8722602 0.12733025237314996 0.35157978895419756
8752302 0.12792168735687295 0.3508601398112792
8782002 0.12873551820344903 0.3503730026621841
8811702 0.1295784426989552 0.34988373829520897
8841402 0.13015651673276257 0.3492952423399638
8871102 0.13070455346568796 0.34872615817700886
8900802 0.13152266035681345 0.34828948043848706
8930502 0.13223685246465755 0.34780522134921216
8960202 0.13277794588135985 0.34711770425976796
8989902 0.13362876280941485 0.3466107727594408
9019702 0.13418493943268958 0.34616852476918575
9049403 0.13488168938451864 0.3454972579807588
9079103 0.13571435110335373 0.3448942330816905
9108803 0.13619151792527387 0.3444306968819179
9138503 0.13695789040392145 0.3437219400181865
9168203 0.13748879586124507 0.3433336552956983
9197903 0.13825052154280057 0.3428558543579488
9227603 0.13888222460612035 0.34230882684799097
9257303 0.1393830171001648 0.3417886666747862
9287003 0.14018389549513333 0.34119654337078836
9316703 0.14072728413924035 0.34071423272344487
9346403 0.14151887968774188 0.3402557766258578
9376103 0.1419894514698873 0.3396219067457245
9405803 0.14257603054398668 0.33920196459747
9435503 0.1432422499156623 0.3386377016039856
9465203 0.1438520126446572 0.33823415348501806
9494903 0.14439637695610855 0.33751773793786577
9524603 0.145011185551049 0.3371062038582347
9554303 0.14557610337161755 0.33663957455605276
9584003 0.14629756660946291 0.33616857172570563
9613703 0.14702206211154997 0.3355415448819324
9643403 0.1474465620952616 0.3350214035888381
9673103 0.14806829845111036 0.334682831301697
9702803 0.1485913661570159 0.3341628654812477
9732503 0.14924021736308846 0.3337656337016045
9762203 0.14979271503717 0.3332340147656651
9791903 0.15036837336662795 0.33265310919154656
9821603 0.15083093840163866 0.33238304591033063
9851303 0.15147683866700584 0.3317425605823063
9881003 0.1519769729745397 0.33120518534080495
9910703 0.15255086038900492 0.33070009587691584
9940403 0.1532251097533781 0.3302862571076441
9970103 0.1538501409841661 0.32984790940537206
9999803 0.15433175395325685 0.3295453500410707
10029503 0.15487837815032166 0.328890515007975
10059203 0.15536570742289763 0.32851782365094323
10088903 0.15583624499977264 0.3279590864208307
10118603 0.15649959357652002 0.3275467024720515
10148303 0.15690504961281845 0.32706033607374313
10178003 0.1574913979994904 0.3266285478877579
10207703 0.15807751555605484 0.32623973689846003
10237403 0.15860806918580406 0.32566489066493803
10267103 0.15920081815492007 0.325282964988863
10296803 0.15973942146207443 0.3248805337810866
10326503 0.16015489946758835 0.32436640793521865
10356203 0.160603285284323 0.32407156903971657
10385903 0.16128748211197189 0.32361760546357643
10415603 0.16172293130526755 0.3229687824678141
10445303 0.1622863771256341 0.3226243782581453
10475003 0.16264569390362263 0.32224804187021444
10504703 0.16327077025515283 0.3217232185504374
10534403 0.16386360632233912 0.3213313370597515
10564103 0.16453196386502883 0.32093873091042874
10593803 0.16465358347655948 0.3204473140369296
10623503 0.16533655470667732 0.32013450917840264
10653203 0.1658206796080702 0.31966737000847767
10682903 0.16614950333053116 0.31919417746303236
10712603 0.16676144119030148 0.3188485110391208
10742303 0.16733050494477492 0.3183946530371184
10772003 0.16779758031731284 0.31803118963077764
10801703 0.16812367894342467 0.3175627189351229
10831403 0.16860392233742366 0.31706597691457505
10861103 0.16915695970689626 0.31675875561639066
10890803 0.16956049165956918 0.3163762712248408
10920503 0.1701407741886091 0.3159644347347623
10950203 0.1705457681780513 0.31539873787867
10979903 0.17099000184473892 0.31501314002162434
11009603 0.17134589490233046 0.31482993393288844
11039303 0.17197297393255798 0.3141975029873507
11069003 0.1723165600579903 0.31397069373953784
11098703 0.17276616754237126 0.31367770464376976
11128403 0.1730552216831246 0.3132217253725617
11158103 0.17353331181608128 0.31275344426836144
11187803 0.17419061899861454 0.31231496888663385
11217503 0.17454446927290634 0.31212611868404827
11247203 0.17500344284995994 0.31153460058812016
11276903 0.17530698663271546 0.31140797158759614
11306603 0.175853630122002 0.3109137962128211
11336303 0.1763169188853076 0.31054478911064065
11366003 0.17661992478838714 0.3102482278999858
11395703 0.17714169008265437 0.30994561531295584
11425403 0.17760435686569095 0.3094260073358648
11455103 0.1778427732915346 0.3090449610337463
11484803 0.17847891122038034 0.3087378849896769
11514503 0.17874717465633827 0.3083425127811302
11544203 0.179252036476554 0.3079218269861119
11573903 0.17954443457353741 0.30760138311811003
11603603 0.1800213028451137 0.3072187750260189
11633303 0.1805331977732021 0.306856891668883
11663003 0.18103870995446641 0.3063497496312044
11692703 0.1811578144164849 0.3061530654428034
11722403 0.18162829344536455 0.3059307653857365
11752103 0.1820333778739913 0.3055062700501701
11781803 0.18252228544114177 0.3051325264173354
11811503 0.18289757377850777 0.3047537418273501
11841203 0.18310703112839188 0.3043432301049473
11870903 0.18367305892887556 0.3041412260832153
11900603 0.1840401669823081 0.3036970719421107
11930303 0.1845836323768708 0.30337085290625654
11960003 0.18492445136348876 0.30315103440758046
11989703 0.18531576015264264 0.302608968971324
12019503 0.18574193440571407 0.3023084598119494
12049204 0.18593532134502824 0.30207575285095106
12078904 0.18628791301690856 0.30149793816761744
12108604 0.18665990206476973 0.30124902458299874
12138304 0.18713410563561658 0.3009751047099218
12168004 0.18754225917680425 0.3006395423521559
12197704 0.18783590036934683 0.3003297969442418
12227404 0.18825713760722035 0.2998669140524418
12257104 0.18874133274140734 0.29973977047790934
12286804 0.18896872536566736 0.29936537447288986
12316504 0.18943474978243147 0.29899859329672585
12346204 0.18972281179344205 0.29865436974937065
12375904 0.19023031084135247 0.29812899637849083
12405604 0.19063159794164478 0.2978607343099244
12435304 0.19081495885595046 0.29752015251821956
12465004 0.1912063982673134 0.2974067181915761
12494704 0.19151953489836238 0.296990963896238
