# HZ S RI R 50
1000000 -0.85922867 0.273519515
1039300 -0.852449238 0.280713766
1078600 -0.846136689 0.287949681
1118000 -0.839304804 0.294235587
1157300 -0.831879496 0.300682812
1196700 -0.824750602 0.307111144
1236000 -0.819529771 0.313461959
1275400 -0.813081741 0.31955558
1314700 -0.80650562 0.325363516
1354100 -0.799978792 0.331121206
1393400 -0.793192446 0.336716473
1432800 -0.786517918 0.341762036
1472100 -0.779920518 0.346769064
1511500 -0.773368716 0.351520061
1550800 -0.766714155 0.356054067
1590200 -0.760101974 0.360658258
1629500 -0.753483295 0.364953666
1668900 -0.746872484 0.369240373
1708200 -0.729980647 0.368161767
1747600 -0.715020358 0.36825186
1786900 -0.705560445 0.370431929
1826300 -0.698510229 0.373579353
1865600 -0.696216642 0.378626108
1905000 -0.693880259 0.38374862
1944300 -0.689117074 0.387510597
1983700 -0.684711039 0.391483843
2023000 -0.68086338 0.395197808
2062400 -0.675854265 0.398493826
2101700 -0.670413792 0.40127781
2141100 -0.666084051 0.404679298
2180400 -0.660740554 0.407320469
2219800 -0.655198633 0.409907191
2259100 -0.649661362 0.412253975
2298500 -0.643761575 0.414511561
2337800 -0.63836342 0.416697025
2377200 -0.631842195 0.41821593
2416500 -0.627053201 0.420470178
2455900 -0.622100472 0.422632336
2495200 -0.617197751 0.424550443
2534600 -0.61244893 0.426649063
2573900 -0.607192933 0.428378641
2613300 -0.602509021 0.430221378
2652600 -0.597623944 0.431633174
2692000 -0.592991948 0.433406293
2731300 -0.587929069 0.434615463
2770700 -0.582876861 0.436197072
2810000 -0.578170835 0.437385737
2849400 -0.573416948 0.438494771
2888700 -0.568732619 0.43981418
2928100 -0.563957035 0.440950602
2967400 -0.559336125 0.442097038
3006700 -0.554609239 0.443001687
3046100 -0.550205647 0.444116562
3085400 -0.545728802 0.445198774
3124800 -0.541295289 0.445914953
3164100 -0.537060201 0.447082757
3203500 -0.532866775 0.448157101
3242800 -0.528406679 0.448809713
3282200 -0.52415347 0.44967392
3321500 -0.517149388 0.448357224
3360900 -0.513912618 0.449926644
3400200 -0.50763309 0.449278801
3439600 -0.505750358 0.451028525
3478900 -0.502136468 0.452213555
3518300 -0.499254107 0.453480362
3557600 -0.495303601 0.453973919
3597000 -0.489632934 0.453356981
3636300 -0.486434817 0.454333484
3675700 -0.482408702 0.454878151
3715000 -0.479596912 0.455804556
3754400 -0.476275682 0.456634968
3793700 -0.4728567 0.457386165
3833100 -0.468814939 0.457434058
3872400 -0.464483857 0.457531511
3911800 -0.462357938 0.459017336
3951100 -0.458641529 0.459316611
3990500 -0.455084204 0.459509998
4029800 -0.452356219 0.460555911
4069200 -0.449281513 0.461066693
4108500 -0.446035683 0.461517632
4147900 -0.442330002 0.461690366
4187200 -0.439277768 0.462174862
4226600 -0.436318159 0.462746977
4265900 -0.43324384 0.462969869
4305300 -0.429998487 0.463228255
4344600 -0.426767528 0.463617026
4384000 -0.423726916 0.463870853
4423300 -0.420481413 0.464230716
4462700 -0.417738527 0.464854896
4502000 -0.414526313 0.464814484
4541400 -0.411570131 0.46495077
4580700 -0.408103078 0.464912265
4620100 -0.405071347 0.465366005
4659400 -0.402547776 0.465968966
4698800 -0.399154961 0.465625762
4738100 -0.396495133 0.466185301
4777500 -0.393642157 0.466204434
4816800 -0.391338109 0.466805666
4856200 -0.388213008 0.466945201
4895500 -0.385576993 0.467161506
4934900 -0.383017748 0.467439264
4934996 -0.380229562 0.465454041
4978396 -0.377158522 0.465530604
5021896 -0.374120563 0.465701788
5065396 -0.371072441 0.465830385
5108896 -0.368106395 0.466136306
5152396 -0.365107595 0.466143131
5195896 -0.362279802 0.466254889
5239396 -0.359421074 0.466323822
5282896 -0.356442004 0.466485887
5326396 -0.353428363 0.466700553
5369896 -0.350597709 0.466697305
5413396 -0.347895145 0.466698884
5456896 -0.344946444 0.467034697
5500396 -0.342466682 0.467095911
5543896 -0.339540034 0.466989547
5587396 -0.336772769 0.467095553
5630896 -0.333977043 0.467336058
5674396 -0.331249862 0.467176824
5717896 -0.328692317 0.467270791
5761396 -0.326046466 0.467243015
5804896 -0.323302984 0.467472791
5848396 -0.320786565 0.467328935
5891896 -0.318477183 0.467467844
5935396 -0.315769046 0.467474073
5978896 -0.313286215 0.46752417
6022396 -0.310713052 0.467414021
6065896 -0.308294326 0.467485129
6109396 -0.305923372 0.467543721
6152896 -0.303410053 0.467557191
6196396 -0.301030814 0.467541664
6239896 -0.298832386 0.467497259
6283396 -0.296716928 0.467292338
6326896 -0.29465416 0.467393487
6370396 -0.292601972 0.46742326
6413896 -0.290692925 0.467252194
6457396 -0.288902133 0.467150211
6500896 -0.286791056 0.467319071
6544396 -0.284686625 0.467421025
6587896 -0.281966447 0.467690438
6631396 -0.279370605 0.467837601
6674896 -0.276166677 0.467925041
6718396 -0.273101568 0.467901796
6761896 -0.270176649 0.467898637
6805396 -0.267362117 0.467810362
6848896 -0.264353871 0.468023866
6892396 -0.261635333 0.467804133
6935896 -0.259022802 0.467869013
6979396 -0.256620019 0.468056976
7022896 -0.254108756 0.4681468
7066396 -0.251918226 0.468140333
7109896 -0.249889075 0.468069165
7153396 -0.247710987 0.468030899
7196896 -0.245670065 0.467826217
7240396 -0.243641749 0.467727988
7283896 -0.241676077 0.467490941
7327396 -0.2396003 0.467190891
7370896 -0.237605154 0.467097818
7414396 -0.235620915 0.466984838
7457896 -0.2335435 0.466666251
7501396 -0.231510594 0.46662566
7544896 -0.229566484 0.466480433
7588396 -0.227411493 0.466390013
7631896 -0.225395187 0.466168463
7675396 -0.223374992 0.465893387
7718896 -0.221196353 0.466028451
7762396 -0.219372093 0.465810328
7805896 -0.217274859 0.46564719
7849396 -0.215312793 0.465456575
7892896 -0.213298931 0.465397238
7936396 -0.211305633 0.465320378
7979896 -0.209201887 0.464946985
8023396 -0.207318663 0.464896172
8066896 -0.205474942 0.464768379
8110396 -0.203511759 0.46460697
8153896 -0.201556652 0.464459538
8197396 -0.199485331 0.464242428
8240896 -0.197685703 0.464102476
8284396 -0.195778563 0.463965028
8327896 -0.193833738 0.463806688
8371396 -0.191885918 0.463551044
8414896 -0.189974606 0.463438928
8458396 -0.188149511 0.463199049
8501896 -0.186269924 0.463106542
8545396 -0.184462934 0.462715178
8588896 -0.182379052 0.462621539
8632396 -0.180649578 0.462420582
8675896 -0.178901553 0.462297469
8719396 -0.176916539 0.462119758
8762896 -0.17521964 0.461854219
8806396 -0.173331618 0.461735367
8849896 -0.171673178 0.461438953
8893396 -0.169921949 0.461180865
8936896 -0.167990297 0.46108213
8980396 -0.166319683 0.460891008
9023896 -0.164441347 0.460716545
9067396 -0.162784487 0.460410445
9110896 -0.161068916 0.460231095
9154396 -0.159123718 0.45997554
9197896 -0.157612681 0.459735274
9241396 -0.155857831 0.459414988
9284896 -0.154059901 0.459319412
9284932 -0.1541709 0.45937407
9333532 -0.152168795 0.459163755
9382132 -0.150415912 0.458873867
9430732 -0.148542672 0.458477824
9479432 -0.146659374 0.45829305
9528032 -0.144617304 0.458033442
9576632 -0.142913445 0.457628697
9625232 -0.140981003 0.457358062
9673932 -0.139267563 0.457056522
9722532 -0.137384146 0.456862628
9771132 -0.135538414 0.456656306
9819832 -0.133897617 0.456161767
9868432 -0.132056325 0.455939918
9917032 -0.130164816 0.455698996
9965632 -0.128405287 0.455451756
10014332 -0.126690194 0.455076217
10062932 -0.124926313 0.454702585
10111532 -0.12319114 0.454306066
10160232 -0.121555365 0.453873068
10208832 -0.119805976 0.45389086
10257432 -0.118042245 0.453276962
10306032 -0.116488017 0.452936291
10354732 -0.114704586 0.452738881
10403332 -0.113118462 0.452377498
10451932 -0.111287452 0.452032417
10500632 -0.109902508 0.451875984
10549232 -0.108204334 0.45149064
10597832 -0.106459133 0.450913727
10646432 -0.104787997 0.450654476
10695132 -0.103218667 0.450286179
10743732 -0.1015945 0.450011521
10792332 -0.100131131 0.449781984
10840932 -0.098540559 0.449242115
10889632 -0.096890948 0.44892472
10938232 -0.095313526 0.448418676
10986832 -0.093666501 0.448207795
11035532 -0.09208659 0.447663009
11084132 -0.090693786 0.447592318
11132732 -0.08899834 0.447018265
11181332 -0.087463878 0.446518331
11230032 -0.086037814 0.446260303
11278632 -0.084485962 0.445966958
11327232 -0.08295793 0.44561097
11375932 -0.08156085 0.445198446
11424532 -0.079961799 0.444839447
11473132 -0.078359328 0.444506257
11521732 -0.076890788 0.443989247
11570432 -0.075579933 0.443573027
11619032 -0.074240572 0.443410813
11667632 -0.072467841 0.443056672
11716332 -0.071110159 0.442649275
11764932 -0.069823175 0.442076861
11813532 -0.068235114 0.441813081
11862132 -0.066875405 0.441304147
11910832 -0.065383747 0.44099465
11959432 -0.064154505 0.440534412
12008032 -0.062679007 0.440182179
12056632 -0.061178054 0.439798295
12105332 -0.059818278 0.439301669
12153932 -0.058637041 0.438874781
12202532 -0.057164262 0.438448071
12251232 -0.055764518 0.437994718
12299832 -0.054501753 0.437624126
12348432 -0.053152218 0.437365621
12397032 -0.051679044 0.436980754
12445732 -0.05046682 0.436451256
12494332 -0.048908378 0.435990929
12542932 -0.047727491 0.435612708
12591632 -0.046437762 0.435425966
12640232 -0.045083161 0.434836953
12688832 -0.043726645 0.434436798
12737432 -0.042560737 0.434159845
12786132 -0.041418012 0.433539658
12834732 -0.040162153 0.433442115
12883332 -0.038941048 0.433002531
12932032 -0.037882789 0.432750493
12980632 -0.036580745 0.432395547
13029232 -0.035443436 0.432050317
13077832 -0.034262973 0.431647539
13126532 -0.032889675 0.431081771
13175132 -0.031714573 0.430964648
13223732 -0.030405774 0.430512815
13272332 -0.029365977 0.430071324
13321032 -0.028208646 0.429677307
13369632 -0.026928799 0.42942059
13418232 -0.025549991 0.428938865
13466932 -0.024474557 0.428384929
13515532 -0.023287674 0.428088098
13564132 -0.02206593 0.427563875
13612732 -0.02091944 0.427205145
13661432 -0.019687533 0.426759958
13710032 -0.01858516 0.426372289
13758632 -0.017298547 0.426034927
13807332 -0.016260713 0.425640434
13855932 -0.014937991 0.425153821
13904532 -0.013923734 0.424770355
13953132 -0.012777877 0.424413353
14001832 -0.011586024 0.423998862
14050432 -0.010485048 0.423668026
14099032 -0.009306447 0.423089206
14147732 -0.008298829 0.422666013
14147747 -0.008267191 0.422687172
14202847 -0.006952611 0.422252655
14257947 -0.005763758 0.421875417
14313047 -0.004362786 0.421409398
14368247 -0.003174963 0.42067492
14423347 -0.001959573 0.420280307
14478447 -0.000667997 0.419917434
14533647 0.000555761 0.419360518
14588747 0.001601836 0.419077396
14643847 0.002939652 0.418538004
14699047 0.004372248 0.417921125
14754147 0.005325557 0.417589634
14809247 0.006452981 0.417039036
14864347 0.007692613 0.416636377
14919547 0.00882863 0.416153639
14974647 0.009925112 0.415809631
15029747 0.011228956 0.415167748
15084947 0.012262698 0.414620906
15140047 0.013379934 0.414312571
15195147 0.014531675 0.413823217
15250347 0.015900351 0.413428246
15305447 0.016883656 0.412867844
15360547 0.018049044 0.4124206
15415647 0.018978036 0.411878466
15470847 0.020235912 0.411537379
15525947 0.021341484 0.410957157
15581047 0.022359302 0.410535275
15636247 0.023518567 0.410008907
15691347 0.024658914 0.409568011
15746447 0.025642005 0.40909788
15801647 0.026621729 0.40861538
15856747 0.027886833 0.408215761
15911847 0.028883101 0.407681643
15966947 0.029889339 0.407088726
16022147 0.031014597 0.406721115
16077247 0.032039985 0.406177997
16132347 0.032944142 0.405904054
16187547 0.033934395 0.405311524
16242647 0.035037569 0.40479201
16297747 0.036004155 0.404347509
16352947 0.037090677 0.403982013
16408047 0.038087043 0.403465151
16463147 0.038903024 0.402877748
16518247 0.040106039 0.402563095
16573447 0.041199699 0.40220052
16628547 0.042179044 0.401588559
16683647 0.04305442 0.401082426
16738847 0.043999928 0.400649577
16793947 0.044960867 0.400104016
16849047 0.046001054 0.399613797
16904247 0.046831492 0.399210542
16959347 0.047910533 0.398796558
17014447 0.048753593 0.398429602
17069547 0.049565777 0.398224145
17124747 0.050508104 0.397696495
17179847 0.051523569 0.397138804
17234947 0.052327495 0.396550834
17290147 0.053318884 0.396118223
17345247 0.054203525 0.395546644
17400347 0.055070314 0.395323097
17455547 0.055920939 0.39484167
17510647 0.056966766 0.394311666
17565747 0.05780496 0.393783479
17620847 0.058576256 0.393524557
17676047 0.059599101 0.392950743
17731147 0.060639202 0.392401605
17786247 0.061237558 0.39192897
17841447 0.062410604 0.391501367
17896547 0.063118301 0.391122102
17951647 0.063959099 0.390720009
18006847 0.064766407 0.390300303
18061947 0.065734349 0.38968572
18117047 0.066646441 0.389413326
18172147 0.06735146 0.388819068
18227347 0.06822998 0.388498604
18282447 0.069150097 0.387892454
18337547 0.069943934 0.387549728
18392747 0.070847004 0.387052804
18447847 0.071681849 0.386482954
18502947 0.072516843 0.38600251
18558147 0.073291152 0.385813802
18613247 0.073925919 0.385244727
18668347 0.074820995 0.384999364
18723447 0.075554803 0.384457409
18778647 0.076294235 0.384066343
18833747 0.077132515 0.383731454
18888847 0.077922239 0.383348584
18944047 0.078774027 0.382753074
18999147 0.079567193 0.382375627
19054247 0.080285891 0.382055461
19109447 0.081027716 0.38146761
19164547 0.081855617 0.381023317
19219647 0.082518793 0.380722194
19274747 0.083402253 0.380203872
19329947 0.084144622 0.379687249
19385047 0.084930531 0.379302203
19440147 0.085606016 0.378894716
19495347 0.086369402 0.378485143
19550447 0.087081685 0.377989798
19605547 0.087873473 0.37755087
19660747 0.088581614 0.377107709
19660752 0.088410861 0.377018511
19724352 0.08950255 0.376675337
19787952 0.090401418 0.376162797
19851652 0.091287858 0.37563461
19915252 0.092104576 0.375257879
19978952 0.092919781 0.374705076
20042552 0.093629993 0.37429893
20106152 0.094529353 0.373648434
20169852 0.0954158 0.373257488
20233452 0.096192985 0.372787684
20297152 0.096959896 0.372256636
20360752 0.097866289 0.371908903
20424452 0.098680719 0.371356785
20488052 0.099409185 0.370878875
20551652 0.100183144 0.370246559
20615352 0.101032316 0.369809389
20678952 0.101808533 0.369211167
20742652 0.102645143 0.368653476
20806252 0.103307768 0.368274062
20869852 0.104130201 0.367834508
20933552 0.104938723 0.367427736
20997152 0.105702601 0.367051273
21060852 0.106475323 0.366356343
21124452 0.10712713 0.366102665
21188152 0.108098827 0.365632683
21251752 0.108696587 0.36497718
21315352 0.109447523 0.364459067
21379052 0.110263064 0.364140361
21442652 0.111046776 0.363669365
21506352 0.111804202 0.363267034
21569952 0.112322427 0.362671852
21633652 0.113076969 0.362210094
21697252 0.113872468 0.3617675
21760852 0.114567689 0.361237138
21824552 0.11537832 0.360725224
21888152 0.11609172 0.360410958
21951852 0.116723112 0.35978192
22015452 0.117482326 0.359612911
22079052 0.118146426 0.35902211
22142752 0.118991523 0.35852155
22206352 0.119636483 0.358102917
22270052 0.120272509 0.357615262
22333652 0.121127717 0.357253968
22397352 0.121782772 0.356857389
22460952 0.122540257 0.356283426
22524552 0.123065054 0.356107354
22588252 0.123715862 0.355460643
22651852 0.124444201 0.355073928
22715552 0.125206202 0.354698598
22779152 0.125681623 0.354197561
22842852 0.1264759 0.353643536
22906452 0.127050742 0.353269785
22970052 0.127746 0.352837085
23033752 0.128415286 0.35235241
23097352 0.129318431 0.352049529
23161052 0.129819035 0.351481705
23224652 0.130498468 0.351271927
23288252 0.130920559 0.350817292
23351952 0.13167034 0.350236296
23415552 0.132218673 0.350039839
23479252 0.132716685 0.349454462
23542852 0.13330914 0.349073588
23606552 0.134167864 0.348702102
23670152 0.13472481 0.348196625
23733752 0.135412171 0.347838103
23797452 0.135906636 0.347595244
23861052 0.136618494 0.347091764
23924752 0.13721387 0.346640259
23988352 0.137747615 0.346273481
24051952 0.138521149 0.34581232
24115652 0.138979896 0.345391035
24179252 0.139546915 0.344901442
24242952 0.140274748 0.344501048
24306552 0.140887737 0.344289094
24370252 0.141398847 0.343725144
24433852 0.141995504 0.34328255
24497452 0.142577022 0.342850625
24561152 0.143224298 0.342382073
24624752 0.143749788 0.34210354
24688452 0.144400954 0.341697573
24752052 0.145023047 0.341262966
24815752 0.145384371 0.340939372
24879352 0.146012037 0.340450197
24942952 0.146671086 0.340192347
25006652 0.14715372 0.339690923
25070252 0.147753819 0.339484483
25133952 0.148211359 0.338906884
25197552 0.148922175 0.338716566
25261152 0.14947018 0.338119566
25324852 0.15000154 0.33780393
25388452 0.150519788 0.337368905
25452152 0.151120349 0.336805224
25515752 0.151679977 0.336559146
25579452 0.152159139 0.336081773
25643052 0.152674823 0.335727393
25706652 0.153145715 0.33542633
25770352 0.153777673 0.334999918
25833952 0.154291689 0.334504187
25897652 0.154794335 0.334230482
25961252 0.155313938 0.333934485
26024952 0.155819356 0.33357349
26025048 0.155790641 0.333513915
26100248 0.156563997 0.333116024
26175548 0.157046288 0.332517862
26250848 0.157702624 0.332137614
26326048 0.158362388 0.331762403
26401348 0.158912509 0.331450879
26476648 0.159532994 0.330690145
26551948 0.160017192 0.330259799
26627148 0.160672634 0.330039948
26702448 0.161378845 0.329350292
26777748 0.161866292 0.328986316
26853048 0.162470236 0.328585118
26928248 0.162936255 0.328152537
27003548 0.163611978 0.32758972
27078848 0.164011433 0.327228039
27154048 0.164826929 0.326847702
27229348 0.165342733 0.326521068
27304648 0.165967866 0.325948357
27379948 0.166479587 0.325437307
27455148 0.167021006 0.325092077
27530448 0.16754584 0.324669837
27605748 0.168225631 0.32413429
27681048 0.168724969 0.323995351
27756248 0.16922976 0.323521018
27831548 0.16962862 0.322986304
27906848 0.17035894 0.32259038
27982048 0.170886784 0.322196364
28057348 0.171477764 0.321504384
28132648 0.171854913 0.321370452
28207948 0.172491073 0.321011155
28283148 0.17296417 0.320511698
28358448 0.17376554 0.320119917
28433748 0.173965126 0.319708555
28509048 0.174598276 0.319263309
28584248 0.175167202 0.318787693
28659548 0.175798118 0.318505048
28734848 0.176433429 0.318045288
28810148 0.176817417 0.317753106
28885348 0.177319675 0.317264169
28960648 0.17770721 0.316946446
29035948 0.178345263 0.316441506
29111148 0.178792402 0.315952897
29186448 0.179259389 0.315745264
29261748 0.179841846 0.315229713
29337048 0.180278867 0.314980238
29412248 0.180873364 0.314686059
29487548 0.181395858 0.314118921
29562848 0.181921228 0.313811093
29638148 0.182405114 0.313232034
29713348 0.182785794 0.312961697
29788648 0.183331817 0.312497258
29863948 0.183926403 0.312150955
29939148 0.184320837 0.311949074
30014448 0.184768408 0.311425626
30089748 0.185308396 0.311196833
30165048 0.185795947 0.310782432
30240248 0.18620947 0.310419976
30315548 0.186775073 0.309912383
30390848 0.187185987 0.309719353
30466148 0.18765825 0.309193551
30541348 0.1881994 0.30881679
30616648 0.188474625 0.308320909
30691948 0.189084857 0.308202803
30767148 0.1896559 0.307754278
30842448 0.190119057 0.307310461
30917748 0.190613329 0.307057112
30993048 0.190934166 0.306571722
31068248 0.191417142 0.306182473
31143548 0.191757678 0.305821716
31218848 0.192245662 0.305570185
31294148 0.192839086 0.304960459
31369348 0.193308547 0.304788053
31444648 0.193745777 0.304242283
31519948 0.193801969 0.304221808
31595248 0.19458945 0.303647667
31670448 0.195104435 0.303206086
31745748 0.197961509 0.301025301
31821048 0.196708142 0.301883876
31896248 0.196155592 0.302806586
31971548 0.196471571 0.302423238
32046848 0.197371885 0.30161482
32122148 0.198683902 0.300671637
32197348 0.197838947 0.301275074
32272648 0.198105841 0.30100283
32347948 0.198257222 0.300924062
32423248 0.198994621 0.300293654
32498448 0.199278041 0.300017535
32573748 0.199628874 0.299640625
32649048 0.2000878 0.299401044
32724248 0.200266882 0.299101412
32799548 0.200924307 0.298744171
32874848 0.201285764 0.298473685
32950148 0.201743856 0.298134118
33025348 0.202158793 0.297679722
33100648 0.202468916 0.297433316
33175948 0.20292437 0.297044128
33251248 0.203278616 0.29682523
33326448 0.20351094 0.296479284
33401748 0.203902214 0.296177893
33477048 0.204346686 0.295788645
33552348 0.204804345 0.295274227
